# MHz S MA R 50

1 1.051e-3 26.598 0.999 -0.027 0.999 -0.027 1.051e-3 26.598 
1.047 1.064e-3 27.587 0.999 -0.028 0.999 -0.028 1.064e-3 27.587 
1.096 1.077e-3 28.598 0.999 -0.03 0.999 -0.03 1.077e-3 28.598 
1.148 1.092e-3 29.632 0.999 -0.031 0.999 -0.031 1.092e-3 29.632 
1.202 1.108e-3 30.685 0.999 -0.032 0.999 -0.032 1.108e-3 30.685 
1.259 1.125e-3 31.759 0.999 -0.034 0.999 -0.034 1.125e-3 31.759 
1.318 1.143e-3 32.851 0.999 -0.036 0.999 -0.036 1.143e-3 32.851 
1.38 1.162e-3 33.96 0.999 -0.037 0.999 -0.037 1.162e-3 33.96 
1.445 1.183e-3 35.085 0.999 -0.039 0.999 -0.039 1.183e-3 35.085 
1.514 1.205e-3 36.224 0.999 -0.041 0.999 -0.041 1.205e-3 36.224 
1.585 1.228e-3 37.374 0.999 -0.043 0.999 -0.043 1.228e-3 37.374 
1.66 1.253e-3 38.536 0.999 -0.045 0.999 -0.045 1.253e-3 38.536 
1.738 1.279e-3 39.706 0.999 -0.047 0.999 -0.047 1.279e-3 39.706 
1.82 1.308e-3 40.882 0.999 -0.049 0.999 -0.049 1.308e-3 40.882 
1.905 1.338e-3 42.063 0.999 -0.051 0.999 -0.051 1.338e-3 42.063 
1.995 1.37e-3 43.246 0.999 -0.054 0.999 -0.054 1.37e-3 43.246 
2.089 1.404e-3 44.43 0.999 -0.056 0.999 -0.056 1.404e-3 44.43 
2.188 1.44e-3 45.612 0.999 -0.059 0.999 -0.059 1.44e-3 45.612 
2.291 1.478e-3 46.791 0.999 -0.062 0.999 -0.062 1.478e-3 46.791 
2.399 1.519e-3 47.963 0.999 -0.065 0.999 -0.065 1.519e-3 47.963 
2.512 1.562e-3 49.128 0.999 -0.068 0.999 -0.068 1.562e-3 49.128 
2.63 1.608e-3 50.283 0.999 -0.071 0.999 -0.071 1.608e-3 50.283 
2.754 1.657e-3 51.427 0.999 -0.074 0.999 -0.074 1.657e-3 51.427 
2.884 1.708e-3 52.558 0.999 -0.078 0.999 -0.078 1.708e-3 52.558 
3.02 1.763e-3 53.673 0.999 -0.081 0.999 -0.081 1.763e-3 53.673 
3.162 1.82e-3 54.773 0.999 -0.085 0.999 -0.085 1.82e-3 54.773 
3.311 1.881e-3 55.854 0.999 -0.089 0.999 -0.089 1.881e-3 55.854 
3.467 1.946e-3 56.917 0.999 -0.094 0.999 -0.094 1.946e-3 56.917 
3.631 2.014e-3 57.959 0.999 -0.098 0.999 -0.098 2.014e-3 57.959 
3.802 2.086e-3 58.98 0.999 -0.103 0.999 -0.103 2.086e-3 58.98 
3.981 2.162e-3 59.98 0.999 -0.107 0.999 -0.107 2.162e-3 59.98 
4.169 2.242e-3 60.956 0.999 -0.112 0.999 -0.112 2.242e-3 60.956 
4.365 2.327e-3 61.909 0.999 -0.118 0.999 -0.118 2.327e-3 61.909 
4.571 2.416e-3 62.839 0.999 -0.123 0.999 -0.123 2.416e-3 62.839 
4.786 2.509e-3 63.744 0.999 -0.129 0.999 -0.129 2.509e-3 63.744 
5.012 2.608e-3 64.624 0.999 -0.135 0.999 -0.135 2.608e-3 64.624 
5.248 2.712e-3 65.48 0.999 -0.142 0.999 -0.142 2.712e-3 65.48 
5.495 2.822e-3 66.311 0.999 -0.148 0.999 -0.148 2.822e-3 66.311 
5.754 2.937e-3 67.118 0.999 -0.155 0.999 -0.155 2.937e-3 67.118 
6.026 3.058e-3 67.899 0.999 -0.163 0.999 -0.163 3.058e-3 67.899 
6.31 3.185e-3 68.657 0.999 -0.17 0.999 -0.17 3.185e-3 68.657 
6.607 3.319e-3 69.39 0.999 -0.178 0.999 -0.178 3.319e-3 69.39 
6.918 3.459e-3 70.099 0.999 -0.187 0.999 -0.187 3.459e-3 70.099 
7.244 3.607e-3 70.785 0.999 -0.195 0.999 -0.195 3.607e-3 70.785 
7.586 3.762e-3 71.447 0.999 -0.205 0.999 -0.205 3.762e-3 71.447 
7.943 3.924e-3 72.086 0.999 -0.214 0.999 -0.214 3.924e-3 72.086 
8.318 4.095e-3 72.703 0.999 -0.224 0.999 -0.224 4.095e-3 72.703 
8.71 4.275e-3 73.298 0.999 -0.235 0.999 -0.235 4.275e-3 73.298 
9.12 4.463e-3 73.872 0.999 -0.246 0.999 -0.246 4.463e-3 73.872 
9.55 4.66e-3 74.425 0.999 -0.258 0.999 -0.258 4.66e-3 74.425 
10 4.867e-3 74.957 0.999 -0.27 0.999 -0.27 4.867e-3 74.957 
10.471 5.085e-3 75.469 0.999 -0.282 0.999 -0.282 5.085e-3 75.469 
10.965 5.313e-3 75.963 0.999 -0.296 0.999 -0.296 5.313e-3 75.963 
11.482 5.551e-3 76.437 0.999 -0.31 0.999 -0.31 5.551e-3 76.437 
12.023 5.802e-3 76.893 0.999 -0.324 0.999 -0.324 5.802e-3 76.893 
12.589 6.065e-3 77.331 0.999 -0.339 0.999 -0.339 6.065e-3 77.331 
13.183 6.34e-3 77.752 0.999 -0.355 0.999 -0.355 6.34e-3 77.752 
13.804 6.629e-3 78.156 0.999 -0.372 0.999 -0.372 6.629e-3 78.156 
14.454 6.931e-3 78.543 0.999 -0.39 0.999 -0.39 6.931e-3 78.543 
15.136 7.248e-3 78.915 0.999 -0.408 0.999 -0.408 7.248e-3 78.915 
15.849 7.581e-3 79.272 0.999 -0.427 0.999 -0.427 7.581e-3 79.272 
16.596 7.929e-3 79.614 0.999 -0.447 0.999 -0.447 7.929e-3 79.614 
17.378 8.294e-3 79.942 0.999 -0.469 0.999 -0.469 8.294e-3 79.942 
18.197 8.676e-3 80.255 0.999 -0.491 0.999 -0.491 8.676e-3 80.255 
19.055 9.076e-3 80.555 0.999 -0.514 0.999 -0.514 9.076e-3 80.555 
19.953 9.496e-3 80.842 0.999 -0.538 0.999 -0.538 9.496e-3 80.842 
20.893 9.936e-3 81.116 0.999 -0.563 0.999 -0.563 9.936e-3 81.116 
21.878 0.01 81.378 0.998 -0.59 0.998 -0.59 0.01 81.378 
22.909 0.011 81.628 0.998 -0.618 0.998 -0.618 0.011 81.628 
23.988 0.011 81.866 0.998 -0.647 0.998 -0.647 0.011 81.866 
25.119 0.012 82.093 0.998 -0.677 0.998 -0.677 0.012 82.093 
26.303 0.012 82.309 0.998 -0.709 0.998 -0.709 0.012 82.309 
27.542 0.013 82.514 0.998 -0.742 0.998 -0.742 0.013 82.514 
28.84 0.014 82.708 0.998 -0.777 0.998 -0.777 0.014 82.708 
30.2 0.014 82.893 0.998 -0.814 0.998 -0.814 0.014 82.893 
31.623 0.015 83.068 0.998 -0.852 0.998 -0.852 0.015 83.068 
33.113 0.016 83.233 0.998 -0.893 0.998 -0.893 0.016 83.233 
34.674 0.016 83.388 0.998 -0.935 0.998 -0.935 0.016 83.388 
36.308 0.017 83.534 0.998 -0.979 0.998 -0.979 0.017 83.534 
38.019 0.018 83.671 0.998 -1.025 0.998 -1.025 0.018 83.671 
39.811 0.019 83.8 0.998 -1.073 0.998 -1.073 0.019 83.8 
41.687 0.02 83.919 0.998 -1.124 0.998 -1.124 0.02 83.919 
43.652 0.021 84.03 0.998 -1.176 0.998 -1.176 0.021 84.03 
45.709 0.022 84.133 0.998 -1.232 0.998 -1.232 0.022 84.133 
47.863 0.023 84.227 0.998 -1.29 0.998 -1.29 0.023 84.227 
50.119 0.024 84.312 0.998 -1.351 0.998 -1.351 0.024 84.312 
52.481 0.025 84.39 0.998 -1.414 0.998 -1.414 0.025 84.39 
54.954 0.026 84.46 0.998 -1.481 0.998 -1.481 0.026 84.46 
57.544 0.027 84.521 0.998 -1.551 0.998 -1.551 0.027 84.521 
60.256 0.028 84.575 0.998 -1.624 0.998 -1.624 0.028 84.575 
63.096 0.03 84.62 0.998 -1.7 0.998 -1.7 0.03 84.62 
66.069 0.031 84.658 0.998 -1.78 0.998 -1.78 0.031 84.658 
69.183 0.033 84.688 0.998 -1.864 0.998 -1.864 0.033 84.688 
72.444 0.034 84.71 0.997 -1.952 0.997 -1.952 0.034 84.71 
75.858 0.036 84.723 0.997 -2.043 0.997 -2.043 0.036 84.723 
79.433 0.037 84.729 0.997 -2.14 0.997 -2.14 0.037 84.729 
83.176 0.039 84.727 0.997 -2.24 0.997 -2.24 0.039 84.727 
87.096 0.041 84.716 0.997 -2.346 0.997 -2.346 0.041 84.716 
91.201 0.043 84.697 0.997 -2.456 0.997 -2.456 0.043 84.697 
95.499 0.045 84.67 0.997 -2.572 0.997 -2.572 0.045 84.67 
100 0.047 84.634 0.997 -2.693 0.997 -2.693 0.047 84.634 
104.713 0.049 84.59 0.997 -2.819 0.997 -2.819 0.049 84.59 
109.648 0.052 84.537 0.996 -2.952 0.996 -2.952 0.052 84.537 
114.815 0.054 84.475 0.996 -3.091 0.996 -3.091 0.054 84.475 
120.226 0.056 84.403 0.996 -3.236 0.996 -3.236 0.056 84.403 
125.893 0.059 84.323 0.996 -3.388 0.996 -3.388 0.059 84.323 
131.826 0.062 84.233 0.996 -3.548 0.996 -3.548 0.062 84.233 
138.038 0.065 84.133 0.995 -3.714 0.995 -3.714 0.065 84.133 
144.544 0.068 84.023 0.995 -3.889 0.995 -3.889 0.068 84.023 
151.356 0.071 83.903 0.995 -4.072 0.995 -4.072 0.071 83.903 
158.489 0.074 83.772 0.995 -4.263 0.995 -4.263 0.074 83.772 
165.959 0.078 83.63 0.994 -4.463 0.994 -4.463 0.078 83.63 
173.78 0.082 83.477 0.994 -4.672 0.994 -4.672 0.082 83.477 
181.97 0.085 83.312 0.994 -4.892 0.994 -4.892 0.085 83.312 
190.546 0.089 83.135 0.993 -5.121 0.993 -5.121 0.089 83.135 
199.526 0.093 82.946 0.993 -5.361 0.993 -5.361 0.093 82.946 
208.93 0.098 82.744 0.992 -5.613 0.992 -5.613 0.098 82.744 
218.776 0.102 82.529 0.992 -5.876 0.992 -5.876 0.102 82.529 
229.087 0.107 82.3 0.991 -6.151 0.991 -6.151 0.107 82.3 
239.883 0.112 82.056 0.991 -6.439 0.991 -6.439 0.112 82.056 
251.189 0.117 81.798 0.99 -6.74 0.99 -6.74 0.117 81.798 
263.027 0.123 81.525 0.989 -7.055 0.989 -7.055 0.123 81.525 
275.423 0.129 81.236 0.989 -7.384 0.989 -7.384 0.129 81.236 
288.403 0.135 80.93 0.988 -7.729 0.988 -7.729 0.135 80.93 
301.995 0.141 80.607 0.987 -8.09 0.987 -8.09 0.141 80.607 
316.228 0.147 80.267 0.986 -8.467 0.986 -8.467 0.147 80.267 
331.131 0.154 79.908 0.985 -8.861 0.985 -8.861 0.154 79.908 
346.737 0.161 79.531 0.984 -9.273 0.984 -9.273 0.161 79.531 
363.078 0.169 79.133 0.982 -9.704 0.982 -9.704 0.169 79.133 
380.189 0.176 78.715 0.981 -10.154 0.981 -10.154 0.176 78.715 
398.107 0.184 78.276 0.979 -10.624 0.979 -10.624 0.184 78.276 
416.869 0.193 77.815 0.978 -11.115 0.978 -11.115 0.193 77.815 
436.516 0.202 77.331 0.976 -11.629 0.976 -11.629 0.202 77.331 
457.088 0.211 76.823 0.974 -12.165 0.974 -12.165 0.211 76.823 
478.63 0.22 76.291 0.972 -12.724 0.972 -12.724 0.22 76.291 
501.187 0.23 75.733 0.969 -13.308 0.969 -13.308 0.23 75.733 
524.807 0.241 75.149 0.967 -13.918 0.967 -13.918 0.241 75.149 
549.541 0.251 74.538 0.964 -14.554 0.964 -14.554 0.251 74.538 
575.44 0.262 73.899 0.961 -15.217 0.961 -15.217 0.262 73.899 
602.56 0.274 73.232 0.958 -15.908 0.958 -15.908 0.274 73.232 
630.957 0.286 72.534 0.954 -16.628 0.954 -16.628 0.286 72.534 
660.693 0.299 71.806 0.95 -17.377 0.95 -17.377 0.299 71.806 
691.831 0.312 71.046 0.946 -18.158 0.946 -18.158 0.312 71.046 
724.436 0.325 70.254 0.941 -18.97 0.941 -18.97 0.325 70.254 
758.578 0.339 69.429 0.936 -19.815 0.936 -19.815 0.339 69.429 
794.328 0.353 68.57 0.931 -20.693 0.931 -20.693 0.353 68.57 
831.764 0.368 67.677 0.925 -21.604 0.925 -21.604 0.368 67.677 
870.964 0.384 66.748 0.919 -22.55 0.919 -22.55 0.384 66.748 
912.011 0.399 65.783 0.912 -23.532 0.912 -23.532 0.399 65.783 
954.993 0.415 64.782 0.905 -24.549 0.905 -24.549 0.415 64.782 
1000 0.432 63.744 0.897 -25.602 0.897 -25.602 0.432 63.744 
1047.129 0.449 62.67 0.888 -26.691 0.888 -26.691 0.449 62.67 
1096.478 0.467 61.557 0.879 -27.817 0.879 -27.817 0.467 61.557 
1148.154 0.485 60.408 0.87 -28.98 0.87 -28.98 0.485 60.408 
1202.264 0.503 59.221 0.859 -30.179 0.859 -30.179 0.503 59.221 
1258.925 0.521 57.998 0.848 -31.414 0.848 -31.414 0.521 57.998 
1318.257 0.54 56.737 0.836 -32.685 0.836 -32.685 0.54 56.737 
1380.384 0.559 55.441 0.824 -33.991 0.824 -33.991 0.559 55.441 
1445.44 0.578 54.109 0.81 -35.332 0.81 -35.332 0.578 54.109 
1513.561 0.598 52.742 0.796 -36.706 0.796 -36.706 0.598 52.742 
1584.893 0.617 51.343 0.781 -38.112 0.781 -38.112 0.617 51.343 
1659.587 0.637 49.911 0.765 -39.55 0.765 -39.55 0.637 49.911 
1737.801 0.656 48.448 0.748 -41.017 0.748 -41.017 0.656 48.448 
1819.701 0.676 46.956 0.731 -42.511 0.731 -42.511 0.676 46.956 
1905.461 0.695 45.437 0.713 -44.031 0.713 -44.031 0.695 45.437 
1995.262 0.714 43.892 0.693 -45.575 0.693 -45.575 0.714 43.892 
2089.296 0.733 42.323 0.673 -47.14 0.673 -47.14 0.733 42.323 
2187.762 0.752 40.733 0.653 -48.725 0.653 -48.725 0.752 40.733 
2290.868 0.77 39.124 0.631 -50.326 0.631 -50.326 0.77 39.124 
2398.833 0.787 37.497 0.609 -51.94 0.609 -51.94 0.787 37.497 
2511.886 0.805 35.856 0.586 -53.566 0.586 -53.566 0.805 35.856 
2630.268 0.821 34.202 0.562 -55.201 0.562 -55.201 0.821 34.202 
2754.229 0.837 32.537 0.538 -56.84 0.538 -56.84 0.837 32.537 
2884.032 0.853 30.863 0.513 -58.482 0.513 -58.482 0.853 30.863 
3019.952 0.867 29.183 0.488 -60.123 0.488 -60.123 0.867 29.183 
3162.278 0.881 27.498 0.462 -61.759 0.462 -61.759 0.881 27.498 
3311.311 0.894 25.811 0.435 -63.388 0.435 -63.388 0.894 25.811 
3467.369 0.906 24.121 0.409 -65.003 0.409 -65.003 0.906 24.121 
3630.781 0.918 22.432 0.382 -66.602 0.382 -66.602 0.918 22.432 
3801.894 0.929 20.745 0.354 -68.177 0.354 -68.177 0.929 20.745 
3981.072 0.938 19.059 0.327 -69.723 0.327 -69.723 0.938 19.059 
4168.694 0.947 17.377 0.299 -71.228 0.299 -71.228 0.947 17.377 
4365.158 0.955 15.699 0.271 -72.681 0.271 -72.681 0.955 15.699 
4570.882 0.962 14.026 0.242 -74.062 0.242 -74.062 0.962 14.026 
4786.301 0.968 12.357 0.214 -75.345 0.214 -75.345 0.968 12.357 
5011.872 0.973 10.694 0.186 -76.483 0.186 -76.483 0.973 10.694 
5248.075 0.978 9.036 0.157 -77.4 0.157 -77.4 0.978 9.036 
5495.409 0.981 7.383 0.129 -77.951 0.129 -77.951 0.981 7.383 
5754.399 0.984 5.735 0.101 -77.828 0.101 -77.828 0.984 5.735 
6025.596 0.985 4.093 0.072 -76.252 0.072 -76.252 0.985 4.093 
6309.573 0.986 2.455 0.045 -70.539 0.045 -70.539 0.986 2.455 
6606.934 0.986 0.822 0.02 -44.566 0.02 -44.566 0.986 0.822 
6918.31 0.985 -0.806 0.021 41.774 0.021 41.774 0.985 -0.806 
7244.36 0.983 -2.43 0.046 66.218 0.046 66.218 0.983 -2.43 
7585.776 0.98 -4.05 0.073 71.685 0.073 71.685 0.98 -4.05 
7943.282 0.976 -5.666 0.101 73.184 0.101 73.184 0.976 -5.666 
8317.638 0.971 -7.277 0.128 73.271 0.128 73.271 0.971 -7.277 
8709.636 0.965 -8.884 0.156 72.698 0.156 72.698 0.965 -8.884 
9120.108 0.959 -10.486 0.184 71.765 0.184 71.765 0.959 -10.486 
9549.926 0.951 -12.083 0.211 70.614 0.211 70.614 0.951 -12.083 
10000 0.943 -13.673 0.238 69.321 0.238 69.321 0.943 -13.673 
