# MHz S MA R 50

1 776.7e-6 35.569 0.999 -0.026 0.999 -0.026 776.7e-6 35.569 
1.047 791.4e-6 36.713 0.999 -0.027 0.999 -0.027 791.4e-6 36.713 
1.096 807.1e-6 37.868 0.999 -0.028 0.999 -0.028 807.1e-6 37.868 
1.148 823.7e-6 39.032 0.999 -0.03 0.999 -0.03 823.7e-6 39.032 
1.202 841.5e-6 40.204 0.999 -0.031 0.999 -0.031 841.5e-6 40.204 
1.259 860.4e-6 41.382 0.999 -0.033 0.999 -0.033 860.4e-6 41.382 
1.318 880.5e-6 42.564 0.999 -0.034 0.999 -0.034 880.5e-6 42.564 
1.38 901.9e-6 43.747 0.999 -0.036 0.999 -0.036 901.9e-6 43.747 
1.445 924.7e-6 44.93 0.999 -0.037 0.999 -0.037 924.7e-6 44.93 
1.514 948.9e-6 46.11 0.999 -0.039 0.999 -0.039 948.9e-6 46.11 
1.585 974.5e-6 47.286 0.999 -0.041 0.999 -0.041 974.5e-6 47.286 
1.66 1.002e-3 48.455 0.999 -0.043 0.999 -0.043 1.002e-3 48.455 
1.738 1.031e-3 49.616 0.999 -0.045 0.999 -0.045 1.031e-3 49.616 
1.82 1.061e-3 50.766 0.999 -0.047 0.999 -0.047 1.061e-3 50.766 
1.905 1.094e-3 51.904 0.999 -0.049 0.999 -0.049 1.094e-3 51.904 
1.995 1.128e-3 53.029 0.999 -0.052 0.999 -0.052 1.128e-3 53.029 
2.089 1.165e-3 54.138 0.999 -0.054 0.999 -0.054 1.165e-3 54.138 
2.188 1.203e-3 55.23 0.999 -0.057 0.999 -0.057 1.203e-3 55.23 
2.291 1.244e-3 56.304 0.999 -0.059 0.999 -0.059 1.244e-3 56.304 
2.399 1.287e-3 57.359 0.999 -0.062 0.999 -0.062 1.287e-3 57.359 
2.512 1.332e-3 58.393 0.999 -0.065 0.999 -0.065 1.332e-3 58.393 
2.63 1.38e-3 59.406 0.999 -0.068 0.999 -0.068 1.38e-3 59.406 
2.754 1.431e-3 60.396 0.999 -0.071 0.999 -0.071 1.431e-3 60.396 
2.884 1.484e-3 61.364 0.999 -0.075 0.999 -0.075 1.484e-3 61.364 
3.02 1.541e-3 62.308 0.999 -0.078 0.999 -0.078 1.541e-3 62.308 
3.162 1.6e-3 63.229 0.999 -0.082 0.999 -0.082 1.6e-3 63.229 
3.311 1.662e-3 64.125 0.999 -0.086 0.999 -0.086 1.662e-3 64.125 
3.467 1.728e-3 64.997 0.999 -0.09 0.999 -0.09 1.728e-3 64.997 
3.631 1.798e-3 65.845 0.999 -0.094 0.999 -0.094 1.798e-3 65.845 
3.802 1.87e-3 66.667 0.999 -0.098 0.999 -0.098 1.87e-3 66.667 
3.981 1.947e-3 67.466 0.999 -0.103 0.999 -0.103 1.947e-3 67.466 
4.169 2.028e-3 68.239 0.999 -0.108 0.999 -0.108 2.028e-3 68.239 
4.365 2.112e-3 68.989 0.999 -0.113 0.999 -0.113 2.112e-3 68.989 
4.571 2.201e-3 69.715 0.999 -0.118 0.999 -0.118 2.201e-3 69.715 
4.786 2.295e-3 70.417 0.999 -0.124 0.999 -0.124 2.295e-3 70.417 
5.012 2.393e-3 71.096 0.999 -0.13 0.999 -0.13 2.393e-3 71.096 
5.248 2.496e-3 71.751 0.999 -0.136 0.999 -0.136 2.496e-3 71.751 
5.495 2.604e-3 72.385 0.999 -0.142 0.999 -0.142 2.604e-3 72.385 
5.754 2.718e-3 72.996 0.999 -0.149 0.999 -0.149 2.718e-3 72.996 
6.026 2.837e-3 73.586 0.999 -0.156 0.999 -0.156 2.837e-3 73.586 
6.31 2.962e-3 74.155 0.999 -0.163 0.999 -0.163 2.962e-3 74.155 
6.607 3.094e-3 74.704 0.999 -0.171 0.999 -0.171 3.094e-3 74.704 
6.918 3.231e-3 75.232 0.999 -0.179 0.999 -0.179 3.231e-3 75.232 
7.244 3.376e-3 75.741 0.999 -0.188 0.999 -0.188 3.376e-3 75.741 
7.586 3.527e-3 76.231 0.999 -0.196 0.999 -0.196 3.527e-3 76.231 
7.943 3.686e-3 76.703 0.999 -0.206 0.999 -0.206 3.686e-3 76.703 
8.318 3.853e-3 77.157 0.999 -0.215 0.999 -0.215 3.853e-3 77.157 
8.71 4.027e-3 77.593 0.999 -0.226 0.999 -0.226 4.027e-3 77.593 
9.12 4.211e-3 78.013 0.999 -0.236 0.999 -0.236 4.211e-3 78.013 
9.55 4.402e-3 78.417 0.999 -0.247 0.999 -0.247 4.402e-3 78.417 
10 4.604e-3 78.804 0.999 -0.259 0.999 -0.259 4.604e-3 78.804 
10.471 4.814e-3 79.177 0.999 -0.271 0.999 -0.271 4.814e-3 79.177 
10.965 5.035e-3 79.534 0.999 -0.284 0.999 -0.284 5.035e-3 79.534 
11.482 5.267e-3 79.878 0.999 -0.297 0.999 -0.297 5.267e-3 79.878 
12.023 5.509e-3 80.207 0.999 -0.311 0.999 -0.311 5.509e-3 80.207 
12.589 5.763e-3 80.523 0.999 -0.326 0.999 -0.326 5.763e-3 80.523 
13.183 6.03e-3 80.826 0.999 -0.341 0.999 -0.341 6.03e-3 80.826 
13.804 6.308e-3 81.117 0.999 -0.357 0.999 -0.357 6.308e-3 81.117 
14.454 6.601e-3 81.395 0.999 -0.374 0.999 -0.374 6.601e-3 81.395 
15.136 6.907e-3 81.662 0.999 -0.392 0.999 -0.392 6.907e-3 81.662 
15.849 7.228e-3 81.917 0.999 -0.41 0.999 -0.41 7.228e-3 81.917 
16.596 7.563e-3 82.161 0.999 -0.43 0.999 -0.43 7.563e-3 82.161 
17.378 7.915e-3 82.395 0.999 -0.45 0.999 -0.45 7.915e-3 82.395 
18.197 8.284e-3 82.618 0.999 -0.471 0.999 -0.471 8.284e-3 82.618 
19.055 8.67e-3 82.831 0.999 -0.493 0.999 -0.493 8.67e-3 82.831 
19.953 9.074e-3 83.034 0.999 -0.517 0.999 -0.517 9.074e-3 83.034 
20.893 9.498e-3 83.228 0.999 -0.541 0.999 -0.541 9.498e-3 83.228 
21.878 9.941e-3 83.413 0.999 -0.566 0.999 -0.566 9.941e-3 83.413 
22.909 0.01 83.588 0.999 -0.593 0.999 -0.593 0.01 83.588 
23.988 0.011 83.755 0.999 -0.621 0.999 -0.621 0.011 83.755 
25.119 0.011 83.914 0.999 -0.65 0.999 -0.65 0.011 83.914 
26.303 0.012 84.064 0.999 -0.681 0.999 -0.681 0.012 84.064 
27.542 0.012 84.206 0.999 -0.713 0.999 -0.713 0.012 84.206 
28.84 0.013 84.34 0.999 -0.747 0.999 -0.747 0.013 84.34 
30.2 0.014 84.467 0.999 -0.782 0.999 -0.782 0.014 84.467 
31.623 0.014 84.586 0.999 -0.819 0.999 -0.819 0.014 84.586 
33.113 0.015 84.698 0.999 -0.857 0.999 -0.857 0.015 84.698 
34.674 0.016 84.802 0.999 -0.898 0.999 -0.898 0.016 84.802 
36.308 0.016 84.899 0.999 -0.94 0.999 -0.94 0.016 84.899 
38.019 0.017 84.99 0.999 -0.984 0.999 -0.984 0.017 84.99 
39.811 0.018 85.073 0.999 -1.031 0.999 -1.031 0.018 85.073 
41.687 0.019 85.15 0.999 -1.079 0.999 -1.079 0.019 85.15 
43.652 0.02 85.219 0.999 -1.13 0.999 -1.13 0.02 85.219 
45.709 0.021 85.282 0.999 -1.183 0.999 -1.183 0.021 85.282 
47.863 0.022 85.339 0.998 -1.239 0.998 -1.239 0.022 85.339 
50.119 0.023 85.389 0.998 -1.297 0.998 -1.297 0.023 85.389 
52.481 0.024 85.432 0.998 -1.358 0.998 -1.358 0.024 85.432 
54.954 0.025 85.469 0.998 -1.422 0.998 -1.422 0.025 85.469 
57.544 0.026 85.499 0.998 -1.489 0.998 -1.489 0.026 85.499 
60.256 0.027 85.523 0.998 -1.559 0.998 -1.559 0.027 85.523 
63.096 0.029 85.54 0.998 -1.633 0.998 -1.633 0.029 85.54 
66.069 0.03 85.55 0.998 -1.71 0.998 -1.71 0.03 85.55 
69.183 0.031 85.554 0.998 -1.79 0.998 -1.79 0.031 85.554 
72.444 0.033 85.551 0.998 -1.874 0.998 -1.874 0.033 85.551 
75.858 0.034 85.542 0.998 -1.963 0.998 -1.963 0.034 85.542 
79.433 0.036 85.526 0.998 -2.055 0.998 -2.055 0.036 85.526 
83.176 0.038 85.502 0.998 -2.152 0.998 -2.152 0.038 85.502 
87.096 0.039 85.472 0.998 -2.253 0.998 -2.253 0.039 85.472 
91.201 0.041 85.434 0.998 -2.359 0.998 -2.359 0.041 85.434 
95.499 0.043 85.389 0.997 -2.47 0.997 -2.47 0.043 85.389 
100 0.045 85.337 0.997 -2.586 0.997 -2.586 0.045 85.337 
104.713 0.047 85.277 0.997 -2.708 0.997 -2.708 0.047 85.277 
109.648 0.049 85.21 0.997 -2.836 0.997 -2.836 0.049 85.21 
114.815 0.052 85.134 0.997 -2.969 0.997 -2.969 0.052 85.134 
120.226 0.054 85.05 0.997 -3.109 0.997 -3.109 0.054 85.05 
125.893 0.057 84.958 0.997 -3.255 0.997 -3.255 0.057 84.958 
131.826 0.059 84.857 0.996 -3.408 0.996 -3.408 0.059 84.857 
138.038 0.062 84.748 0.996 -3.568 0.996 -3.568 0.062 84.748 
144.544 0.065 84.629 0.996 -3.736 0.996 -3.736 0.065 84.629 
151.356 0.068 84.501 0.996 -3.911 0.996 -3.911 0.068 84.501 
158.489 0.071 84.363 0.996 -4.095 0.996 -4.095 0.071 84.363 
165.959 0.075 84.215 0.995 -4.287 0.995 -4.287 0.075 84.215 
173.78 0.078 84.056 0.995 -4.489 0.995 -4.489 0.078 84.056 
181.97 0.082 83.887 0.995 -4.699 0.995 -4.699 0.082 83.887 
190.546 0.086 83.706 0.994 -4.92 0.994 -4.92 0.086 83.706 
199.526 0.09 83.515 0.994 -5.151 0.994 -5.151 0.09 83.515 
208.93 0.094 83.311 0.993 -5.392 0.993 -5.392 0.094 83.311 
218.776 0.098 83.094 0.993 -5.645 0.993 -5.645 0.098 83.094 
229.087 0.103 82.865 0.992 -5.91 0.992 -5.91 0.103 82.865 
239.883 0.108 82.623 0.992 -6.186 0.992 -6.186 0.108 82.623 
251.189 0.113 82.366 0.991 -6.476 0.991 -6.476 0.113 82.366 
263.027 0.118 82.095 0.991 -6.779 0.991 -6.779 0.118 82.095 
275.423 0.124 81.81 0.99 -7.096 0.99 -7.096 0.124 81.81 
288.403 0.129 81.508 0.989 -7.427 0.989 -7.427 0.129 81.508 
301.995 0.135 81.191 0.988 -7.774 0.988 -7.774 0.135 81.191 
316.228 0.142 80.856 0.987 -8.136 0.987 -8.136 0.142 80.856 
331.131 0.148 80.505 0.986 -8.516 0.986 -8.516 0.148 80.505 
346.737 0.155 80.135 0.985 -8.912 0.985 -8.912 0.155 80.135 
363.078 0.162 79.746 0.984 -9.326 0.984 -9.326 0.162 79.746 
380.189 0.17 79.338 0.983 -9.759 0.983 -9.759 0.17 79.338 
398.107 0.177 78.91 0.981 -10.212 0.981 -10.212 0.177 78.91 
416.869 0.185 78.46 0.98 -10.685 0.98 -10.685 0.185 78.46 
436.516 0.194 77.989 0.978 -11.179 0.978 -11.179 0.194 77.989 
457.088 0.203 77.495 0.976 -11.695 0.976 -11.695 0.203 77.495 
478.63 0.212 76.977 0.974 -12.234 0.974 -12.234 0.212 76.977 
501.187 0.222 76.436 0.972 -12.796 0.972 -12.796 0.222 76.436 
524.807 0.231 75.869 0.97 -13.383 0.97 -13.383 0.231 75.869 
549.541 0.242 75.276 0.967 -13.996 0.967 -13.996 0.242 75.276 
575.44 0.253 74.656 0.964 -14.635 0.964 -14.635 0.253 74.656 
602.56 0.264 74.008 0.961 -15.301 0.961 -15.301 0.264 74.008 
630.957 0.276 73.331 0.958 -15.995 0.958 -15.995 0.276 73.331 
660.693 0.288 72.625 0.954 -16.718 0.954 -16.718 0.288 72.625 
691.831 0.3 71.889 0.951 -17.471 0.951 -17.471 0.3 71.889 
724.436 0.313 71.121 0.946 -18.255 0.946 -18.255 0.313 71.121 
758.578 0.327 70.321 0.942 -19.07 0.942 -19.07 0.327 70.321 
794.328 0.341 69.488 0.937 -19.918 0.937 -19.918 0.341 69.488 
831.764 0.355 68.622 0.931 -20.799 0.931 -20.799 0.355 68.622 
870.964 0.37 67.721 0.925 -21.713 0.925 -21.713 0.37 67.721 
912.011 0.385 66.785 0.919 -22.662 0.919 -22.662 0.385 66.785 
954.993 0.401 65.814 0.912 -23.646 0.912 -23.646 0.401 65.814 
1000 0.417 64.807 0.905 -24.666 0.905 -24.666 0.417 64.807 
1047.129 0.434 63.764 0.897 -25.721 0.897 -25.721 0.434 63.764 
1096.478 0.451 62.684 0.889 -26.812 0.889 -26.812 0.451 62.684 
1148.154 0.469 61.567 0.879 -27.939 0.879 -27.939 0.469 61.567 
1202.264 0.486 60.414 0.87 -29.103 0.87 -29.103 0.486 60.414 
1258.925 0.505 59.224 0.859 -30.302 0.859 -30.302 0.505 59.224 
1318.257 0.523 57.998 0.848 -31.538 0.848 -31.538 0.523 57.998 
1380.384 0.542 56.736 0.836 -32.808 0.836 -32.808 0.542 56.736 
1445.44 0.561 55.439 0.824 -34.113 0.824 -34.113 0.561 55.439 
1513.561 0.58 54.107 0.81 -35.452 0.81 -35.452 0.58 54.107 
1584.893 0.599 52.742 0.796 -36.823 0.796 -36.823 0.599 52.742 
1659.587 0.619 51.345 0.781 -38.226 0.781 -38.226 0.619 51.345 
1737.801 0.638 49.916 0.765 -39.659 0.765 -39.659 0.638 49.916 
1819.701 0.658 48.459 0.748 -41.12 0.748 -41.12 0.658 48.459 
1905.461 0.677 46.973 0.731 -42.608 0.731 -42.608 0.677 46.973 
1995.262 0.696 45.462 0.713 -44.121 0.713 -44.121 0.696 45.462 
2089.296 0.715 43.926 0.694 -45.656 0.694 -45.656 0.715 43.926 
2187.762 0.734 42.369 0.674 -47.212 0.674 -47.212 0.734 42.369 
2290.868 0.752 40.792 0.653 -48.786 0.653 -48.786 0.752 40.792 
2398.833 0.77 39.197 0.632 -50.375 0.632 -50.375 0.77 39.197 
2511.886 0.788 37.586 0.61 -51.978 0.61 -51.978 0.788 37.586 
2630.268 0.805 35.963 0.587 -53.591 0.587 -53.591 0.805 35.963 
2754.229 0.821 34.328 0.564 -55.212 0.564 -55.212 0.821 34.328 
2884.032 0.837 32.684 0.54 -56.839 0.54 -56.839 0.837 32.684 
3019.952 0.852 31.034 0.516 -58.467 0.516 -58.467 0.852 31.034 
3162.278 0.867 29.379 0.491 -60.096 0.491 -60.096 0.867 29.379 
3311.311 0.881 27.72 0.465 -61.72 0.465 -61.72 0.881 27.72 
3467.369 0.894 26.061 0.439 -63.339 0.439 -63.339 0.894 26.061 
3630.781 0.906 24.402 0.413 -64.948 0.413 -64.948 0.906 24.402 
3801.894 0.917 22.744 0.387 -66.543 0.387 -66.543 0.917 22.744 
3981.072 0.928 21.089 0.36 -68.121 0.36 -68.121 0.928 21.089 
4168.694 0.938 19.437 0.333 -69.677 0.333 -69.677 0.938 19.437 
4365.158 0.947 17.79 0.306 -71.204 0.306 -71.204 0.947 17.79 
4570.882 0.955 16.149 0.278 -72.694 0.278 -72.694 0.955 16.149 
4786.301 0.962 14.512 0.251 -74.135 0.251 -74.135 0.962 14.512 
5011.872 0.969 12.882 0.223 -75.51 0.223 -75.51 0.969 12.882 
5248.075 0.974 11.257 0.195 -76.792 0.195 -76.792 0.974 11.257 
5495.409 0.979 9.638 0.168 -77.938 0.168 -77.938 0.979 9.638 
5754.399 0.983 8.024 0.14 -78.867 0.14 -78.867 0.983 8.024 
6025.596 0.986 6.416 0.112 -79.423 0.112 -79.423 0.986 6.416 
6309.573 0.988 4.813 0.084 -79.239 0.084 -79.239 0.988 4.813 
6606.934 0.989 3.214 0.057 -77.251 0.057 -77.251 0.989 3.214 
6918.31 0.989 1.62 0.03 -68.602 0.03 -68.602 0.989 1.62 
7244.36 0.989 0.029 0.011 -2.569 0.011 -2.569 0.989 0.029 
7585.776 0.988 -1.559 0.03 64.848 0.03 64.848 0.988 -1.559 
7943.282 0.986 -3.145 0.056 73.652 0.056 73.652 0.986 -3.145 
8317.638 0.983 -4.728 0.084 75.669 0.084 75.669 0.983 -4.728 
8709.636 0.979 -6.309 0.111 75.858 0.111 75.858 0.979 -6.309 
9120.108 0.974 -7.888 0.138 75.302 0.138 75.302 0.974 -7.888 
9549.926 0.969 -9.465 0.165 74.368 0.165 74.368 0.969 -9.465 
10000 0.962 -11.041 0.192 73.215 0.192 73.215 0.962 -11.041 
