# MHz S MA R 50

1 549.7e-6 35.617 1 -0.018 1 -0.018 549.7e-6 35.617 
1.047 560.3e-6 36.752 1 -0.019 1 -0.019 560.3e-6 36.752 
1.097 571.6e-6 37.898 1 -0.02 1 -0.02 571.6e-6 37.898 
1.148 583.5e-6 39.053 1 -0.021 1 -0.021 583.5e-6 39.053 
1.203 596.3e-6 40.216 1 -0.022 1 -0.022 596.3e-6 40.216 
1.259 609.9e-6 41.383 1 -0.023 1 -0.023 609.9e-6 41.383 
1.319 624.3e-6 42.555 1 -0.024 1 -0.024 624.3e-6 42.555 
1.381 639.6e-6 43.728 1 -0.025 1 -0.025 639.6e-6 43.728 
1.446 655.9e-6 44.9 1 -0.027 1 -0.027 655.9e-6 44.9 
1.514 673.2e-6 46.069 1 -0.028 1 -0.028 673.2e-6 46.069 
1.586 691.6e-6 47.235 1 -0.029 1 -0.029 691.6e-6 47.235 
1.661 711.1e-6 48.393 1 -0.03 1 -0.03 711.1e-6 48.393 
1.739 731.8e-6 49.543 1 -0.032 1 -0.032 731.8e-6 49.543 
1.821 753.7e-6 50.683 1 -0.033 1 -0.033 753.7e-6 50.683 
1.907 776.9e-6 51.811 1 -0.035 1 -0.035 776.9e-6 51.811 
1.997 801.4e-6 52.925 1 -0.037 1 -0.037 801.4e-6 52.925 
2.092 827.4e-6 54.025 1 -0.038 1 -0.038 827.4e-6 54.025 
2.19 854.9e-6 55.108 1 -0.04 1 -0.04 854.9e-6 55.108 
2.294 883.9e-6 56.173 1 -0.042 1 -0.042 883.9e-6 56.173 
2.402 914.6e-6 57.219 1 -0.044 1 -0.044 914.6e-6 57.219 
2.515 947e-6 58.245 1 -0.046 1 -0.046 947e-6 58.245 
2.634 981.2e-6 59.25 0.999 -0.048 0.999 -0.048 981.2e-6 59.25 
2.758 1.017e-3 60.233 0.999 -0.051 0.999 -0.051 1.017e-3 60.233 
2.889 1.055e-3 61.194 0.999 -0.053 0.999 -0.053 1.055e-3 61.194 
3.025 1.095e-3 62.133 0.999 -0.056 0.999 -0.056 1.095e-3 62.133 
3.168 1.138e-3 63.047 0.999 -0.058 0.999 -0.058 1.138e-3 63.047 
3.317 1.182e-3 63.939 0.999 -0.061 0.999 -0.061 1.182e-3 63.939 
3.474 1.229e-3 64.806 0.999 -0.064 0.999 -0.064 1.229e-3 64.806 
3.638 1.278e-3 65.649 0.999 -0.067 0.999 -0.067 1.278e-3 65.649 
3.809 1.33e-3 66.468 0.999 -0.07 0.999 -0.07 1.33e-3 66.468 
3.989 1.385e-3 67.264 0.999 -0.073 0.999 -0.073 1.385e-3 67.264 
4.178 1.442e-3 68.035 0.999 -0.077 0.999 -0.077 1.442e-3 68.035 
4.375 1.502e-3 68.783 0.999 -0.08 0.999 -0.08 1.502e-3 68.783 
4.581 1.565e-3 69.507 0.999 -0.084 0.999 -0.084 1.565e-3 69.507 
4.797 1.632e-3 70.208 0.999 -0.088 0.999 -0.088 1.632e-3 70.208 
5.024 1.702e-3 70.886 0.999 -0.092 0.999 -0.092 1.702e-3 70.886 
5.261 1.775e-3 71.542 0.999 -0.097 0.999 -0.097 1.775e-3 71.542 
5.509 1.852e-3 72.176 0.999 -0.101 0.999 -0.101 1.852e-3 72.176 
5.769 1.933e-3 72.788 0.999 -0.106 0.999 -0.106 1.933e-3 72.788 
6.042 2.018e-3 73.379 0.999 -0.111 0.999 -0.111 2.018e-3 73.379 
6.327 2.107e-3 73.949 0.999 -0.116 0.999 -0.116 2.107e-3 73.949 
6.625 2.201e-3 74.5 0.999 -0.122 0.999 -0.122 2.201e-3 74.5 
6.938 2.299e-3 75.031 0.999 -0.127 0.999 -0.127 2.299e-3 75.031 
7.266 2.401e-3 75.542 0.999 -0.133 0.999 -0.133 2.401e-3 75.542 
7.609 2.509e-3 76.036 0.999 -0.14 0.999 -0.14 2.509e-3 76.036 
7.968 2.622e-3 76.511 0.999 -0.146 0.999 -0.146 2.622e-3 76.511 
8.344 2.741e-3 76.968 0.999 -0.153 0.999 -0.153 2.741e-3 76.968 
8.738 2.865e-3 77.409 0.999 -0.16 0.999 -0.16 2.865e-3 77.409 
9.15 2.996e-3 77.833 0.999 -0.168 0.999 -0.168 2.996e-3 77.833 
9.582 3.132e-3 78.241 0.999 -0.176 0.999 -0.176 3.132e-3 78.241 
10.034 3.275e-3 78.634 0.999 -0.184 0.999 -0.184 3.275e-3 78.634 
10.508 3.426e-3 79.012 0.999 -0.193 0.999 -0.193 3.426e-3 79.012 
11.004 3.583e-3 79.375 0.999 -0.202 0.999 -0.202 3.583e-3 79.375 
11.523 3.748e-3 79.725 0.999 -0.211 0.999 -0.211 3.748e-3 79.725 
12.067 3.92e-3 80.061 0.999 -0.221 0.999 -0.221 3.92e-3 80.061 
12.637 4.101e-3 80.383 0.999 -0.232 0.999 -0.232 4.101e-3 80.383 
13.233 4.291e-3 80.693 0.999 -0.243 0.999 -0.243 4.291e-3 80.693 
13.858 4.49e-3 80.991 0.999 -0.254 0.999 -0.254 4.49e-3 80.991 
14.512 4.698e-3 81.277 0.999 -0.266 0.999 -0.266 4.698e-3 81.277 
15.197 4.916e-3 81.551 0.999 -0.279 0.999 -0.279 4.916e-3 81.551 
15.914 5.145e-3 81.814 0.999 -0.292 0.999 -0.292 5.145e-3 81.814 
16.665 5.384e-3 82.067 0.999 -0.306 0.999 -0.306 5.384e-3 82.067 
17.452 5.635e-3 82.309 0.999 -0.32 0.999 -0.32 5.635e-3 82.309 
18.275 5.897e-3 82.541 0.999 -0.335 0.999 -0.335 5.897e-3 82.541 
19.138 6.172e-3 82.763 0.999 -0.351 0.999 -0.351 6.172e-3 82.763 
20.041 6.461e-3 82.976 0.999 -0.368 0.999 -0.368 6.461e-3 82.976 
20.987 6.763e-3 83.18 0.999 -0.385 0.999 -0.385 6.763e-3 83.18 
21.978 7.079e-3 83.374 0.999 -0.403 0.999 -0.403 7.079e-3 83.374 
23.015 7.41e-3 83.561 0.999 -0.422 0.999 -0.422 7.41e-3 83.561 
24.101 7.757e-3 83.739 0.999 -0.442 0.999 -0.442 7.757e-3 83.739 
25.239 8.12e-3 83.908 0.999 -0.463 0.999 -0.463 8.12e-3 83.908 
26.43 8.501e-3 84.07 0.999 -0.485 0.999 -0.485 8.501e-3 84.07 
27.678 8.899e-3 84.225 0.999 -0.508 0.999 -0.508 8.899e-3 84.225 
28.984 9.317e-3 84.372 0.999 -0.532 0.999 -0.532 9.317e-3 84.372 
30.352 9.754e-3 84.511 0.999 -0.557 0.999 -0.557 9.754e-3 84.511 
31.785 0.01 84.644 0.999 -0.583 0.999 -0.583 0.01 84.644 
33.285 0.011 84.769 0.999 -0.611 0.999 -0.611 0.011 84.769 
34.856 0.011 84.888 0.999 -0.639 0.999 -0.639 0.011 84.888 
36.501 0.012 85 0.999 -0.67 0.999 -0.67 0.012 85 
38.224 0.012 85.106 0.999 -0.701 0.999 -0.701 0.012 85.106 
40.028 0.013 85.206 0.999 -0.734 0.999 -0.734 0.013 85.206 
41.918 0.013 85.299 0.999 -0.769 0.999 -0.769 0.013 85.299 
43.896 0.014 85.386 0.999 -0.805 0.999 -0.805 0.014 85.386 
45.968 0.015 85.467 0.999 -0.843 0.999 -0.843 0.015 85.467 
48.138 0.015 85.542 0.999 -0.883 0.999 -0.883 0.015 85.542 
50.41 0.016 85.612 0.999 -0.925 0.999 -0.925 0.016 85.612 
52.789 0.017 85.675 0.999 -0.968 0.999 -0.968 0.017 85.675 
55.281 0.018 85.733 0.999 -1.014 0.999 -1.014 0.018 85.733 
57.89 0.019 85.785 0.999 -1.062 0.999 -1.062 0.019 85.785 
60.623 0.019 85.831 0.999 -1.112 0.999 -1.112 0.019 85.831 
63.484 0.02 85.872 0.999 -1.164 0.999 -1.164 0.02 85.872 
66.48 0.021 85.907 0.999 -1.219 0.999 -1.219 0.021 85.907 
69.618 0.022 85.937 0.999 -1.277 0.999 -1.277 0.022 85.937 
72.904 0.023 85.96 0.999 -1.337 0.999 -1.337 0.023 85.96 
76.345 0.024 85.978 0.999 -1.4 0.999 -1.4 0.024 85.978 
79.949 0.026 85.991 0.999 -1.466 0.999 -1.466 0.026 85.991 
83.722 0.027 85.997 0.998 -1.535 0.998 -1.535 0.027 85.997 
87.674 0.028 85.998 0.998 -1.607 0.998 -1.607 0.028 85.998 
91.812 0.029 85.993 0.998 -1.683 0.998 -1.683 0.029 85.993 
96.146 0.031 85.982 0.998 -1.763 0.998 -1.763 0.031 85.982 
100.684 0.032 85.966 0.998 -1.846 0.998 -1.846 0.032 85.966 
105.436 0.034 85.943 0.998 -1.933 0.998 -1.933 0.034 85.943 
110.413 0.035 85.913 0.998 -2.024 0.998 -2.024 0.035 85.913 
115.624 0.037 85.878 0.998 -2.119 0.998 -2.119 0.037 85.878 
121.082 0.039 85.836 0.998 -2.219 0.998 -2.219 0.039 85.836 
126.797 0.041 85.788 0.998 -2.324 0.998 -2.324 0.041 85.788 
132.782 0.042 85.732 0.998 -2.433 0.998 -2.433 0.042 85.732 
139.049 0.044 85.67 0.998 -2.548 0.998 -2.548 0.044 85.67 
145.612 0.047 85.601 0.998 -2.668 0.998 -2.668 0.047 85.601 
152.485 0.049 85.525 0.997 -2.794 0.997 -2.794 0.049 85.525 
159.682 0.051 85.441 0.997 -2.926 0.997 -2.926 0.051 85.441 
167.219 0.053 85.349 0.997 -3.063 0.997 -3.063 0.053 85.349 
175.112 0.056 85.249 0.997 -3.208 0.997 -3.208 0.056 85.249 
183.377 0.059 85.142 0.997 -3.359 0.997 -3.359 0.059 85.142 
192.033 0.061 85.025 0.997 -3.517 0.997 -3.517 0.061 85.025 
201.096 0.064 84.901 0.996 -3.682 0.996 -3.682 0.064 84.901 
210.588 0.067 84.767 0.996 -3.856 0.996 -3.856 0.067 84.767 
220.528 0.07 84.623 0.996 -4.037 0.996 -4.037 0.07 84.623 
230.937 0.074 84.47 0.996 -4.227 0.996 -4.227 0.074 84.47 
241.837 0.077 84.308 0.995 -4.426 0.995 -4.426 0.077 84.308 
253.252 0.081 84.134 0.995 -4.634 0.995 -4.634 0.081 84.134 
265.205 0.085 83.95 0.995 -4.852 0.995 -4.852 0.085 83.95 
277.723 0.089 83.755 0.994 -5.08 0.994 -5.08 0.089 83.755 
290.831 0.093 83.548 0.994 -5.318 0.994 -5.318 0.093 83.548 
304.559 0.097 83.329 0.993 -5.568 0.993 -5.568 0.097 83.329 
318.934 0.102 83.098 0.993 -5.829 0.993 -5.829 0.102 83.098 
333.987 0.106 82.853 0.992 -6.103 0.992 -6.103 0.106 82.853 
349.752 0.111 82.595 0.992 -6.389 0.992 -6.389 0.111 82.595 
366.26 0.116 82.323 0.991 -6.688 0.991 -6.688 0.116 82.323 
383.547 0.122 82.036 0.99 -7.001 0.99 -7.001 0.122 82.036 
401.651 0.128 81.734 0.99 -7.328 0.99 -7.328 0.128 81.734 
420.609 0.134 81.417 0.989 -7.671 0.989 -7.671 0.134 81.417 
440.461 0.14 81.083 0.988 -8.029 0.988 -8.029 0.14 81.083 
461.251 0.146 80.731 0.987 -8.404 0.987 -8.404 0.146 80.731 
483.022 0.153 80.362 0.986 -8.795 0.986 -8.795 0.153 80.362 
505.821 0.16 79.975 0.985 -9.205 0.985 -9.205 0.16 79.975 
529.695 0.167 79.568 0.984 -9.633 0.984 -9.633 0.167 79.568 
554.697 0.175 79.142 0.982 -10.08 0.982 -10.08 0.175 79.142 
580.879 0.183 78.695 0.981 -10.548 0.981 -10.548 0.183 78.695 
608.296 0.191 78.226 0.979 -11.036 0.979 -11.036 0.191 78.226 
637.008 0.2 77.735 0.977 -11.546 0.977 -11.546 0.2 77.735 
667.074 0.209 77.221 0.975 -12.078 0.975 -12.078 0.209 77.221 
698.56 0.219 76.683 0.973 -12.634 0.973 -12.634 0.219 76.683 
731.532 0.229 76.12 0.971 -13.214 0.971 -13.214 0.229 76.12 
766.06 0.239 75.532 0.968 -13.82 0.968 -13.82 0.239 75.532 
802.218 0.25 74.917 0.966 -14.451 0.966 -14.451 0.25 74.917 
840.083 0.261 74.274 0.963 -15.109 0.963 -15.109 0.261 74.274 
879.735 0.272 73.604 0.959 -15.795 0.959 -15.795 0.272 73.604 
921.258 0.284 72.904 0.956 -16.509 0.956 -16.509 0.284 72.904 
964.742 0.297 72.175 0.952 -17.253 0.952 -17.253 0.297 72.175 
1010.277 0.309 71.415 0.948 -18.028 0.948 -18.028 0.309 71.415 
1057.962 0.323 70.623 0.943 -18.833 0.943 -18.833 0.323 70.623 
1107.898 0.337 69.799 0.939 -19.67 0.939 -19.67 0.337 69.799 
1160.191 0.351 68.942 0.933 -20.54 0.933 -20.54 0.351 68.942 
1214.952 0.366 68.051 0.928 -21.443 0.928 -21.443 0.366 68.051 
1272.297 0.381 67.127 0.921 -22.38 0.921 -22.38 0.381 67.127 
1332.35 0.396 66.167 0.915 -23.351 0.915 -23.351 0.396 66.167 
1395.237 0.412 65.172 0.908 -24.356 0.908 -24.356 0.412 65.172 
1461.092 0.429 64.142 0.9 -25.397 0.9 -25.397 0.429 64.142 
1530.055 0.446 63.076 0.892 -26.473 0.892 -26.473 0.446 63.076 
1602.273 0.463 61.975 0.883 -27.585 0.883 -27.585 0.463 61.975 
1677.901 0.481 60.838 0.873 -28.731 0.873 -28.731 0.481 60.838 
1757.097 0.499 59.665 0.863 -29.913 0.863 -29.913 0.499 59.665 
1840.032 0.517 58.458 0.852 -31.129 0.852 -31.129 0.517 58.458 
1926.882 0.536 57.215 0.841 -32.38 0.841 -32.38 0.536 57.215 
2017.83 0.554 55.939 0.828 -33.663 0.828 -33.663 0.554 55.939 
2113.072 0.573 54.63 0.815 -34.98 0.815 -34.98 0.573 54.63 
2212.809 0.592 53.289 0.802 -36.327 0.802 -36.327 0.592 53.289 
2317.253 0.612 51.918 0.787 -37.705 0.787 -37.705 0.612 51.918 
2426.627 0.631 50.517 0.772 -39.111 0.772 -39.111 0.631 50.517 
2541.164 0.65 49.088 0.756 -40.545 0.756 -40.545 0.65 49.088 
2661.107 0.669 47.634 0.739 -42.003 0.739 -42.003 0.669 47.634 
2786.711 0.688 46.156 0.721 -43.485 0.721 -43.485 0.688 46.156 
2918.243 0.707 44.656 0.703 -44.988 0.703 -44.988 0.707 44.656 
3055.984 0.726 43.136 0.684 -46.51 0.684 -46.51 0.726 43.136 
3200.226 0.744 41.598 0.664 -48.048 0.664 -48.048 0.744 41.598 
3351.277 0.762 40.045 0.643 -49.6 0.643 -49.6 0.762 40.045 
3509.457 0.779 38.48 0.622 -51.165 0.622 -51.165 0.779 38.48 
3675.103 0.796 36.903 0.6 -52.738 0.6 -52.738 0.796 36.903 
3848.568 0.812 35.318 0.578 -54.318 0.578 -54.318 0.812 35.318 
4030.22 0.828 33.727 0.555 -55.903 0.555 -55.903 0.828 33.727 
4220.446 0.843 32.132 0.532 -57.489 0.532 -57.489 0.843 32.132 
4419.651 0.858 30.534 0.508 -59.074 0.508 -59.074 0.858 30.534 
4628.258 0.872 28.936 0.484 -60.657 0.484 -60.657 0.872 28.936 
4846.711 0.885 27.34 0.459 -62.234 0.459 -62.234 0.885 27.34 
5075.476 0.897 25.747 0.434 -63.804 0.434 -63.804 0.897 25.747 
5315.038 0.909 24.158 0.409 -65.363 0.409 -65.363 0.909 24.158 
5565.907 0.92 22.575 0.384 -66.911 0.384 -66.911 0.92 22.575 
5828.618 0.93 20.998 0.358 -68.443 0.358 -68.443 0.93 20.998 
6103.728 0.939 19.428 0.333 -69.957 0.333 -69.957 0.939 19.428 
6391.823 0.948 17.867 0.307 -71.449 0.307 -71.449 0.948 17.867 
6693.517 0.956 16.313 0.281 -72.916 0.281 -72.916 0.956 16.313 
7009.451 0.963 14.767 0.255 -74.35 0.255 -74.35 0.963 14.767 
7340.296 0.969 13.23 0.229 -75.745 0.229 -75.745 0.969 13.23 
7686.758 0.975 11.7 0.203 -77.085 0.203 -77.085 0.975 11.7 
8049.572 0.98 10.178 0.177 -78.353 0.177 -78.353 0.98 10.178 
8429.511 0.984 8.664 0.151 -79.513 0.151 -79.513 0.984 8.664 
8827.384 0.987 7.156 0.125 -80.501 0.125 -80.501 0.987 7.156 
9244.035 0.99 5.653 0.099 -81.188 0.099 -81.188 0.99 5.653 
9680.353 0.992 4.156 0.073 -81.257 0.073 -81.257 0.992 4.156 
10137.265 0.993 2.663 0.047 -79.69 0.047 -79.69 0.993 2.663 
10615.743 0.993 1.174 0.022 -70.691 0.022 -70.691 0.993 1.174 
11116.806 0.993 -0.314 9.067e-3 36.828 9.067e-3 36.828 0.993 -0.314 
11641.518 0.992 -1.799 0.032 74.249 0.032 74.249 0.992 -1.799 
12190.997 0.99 -3.284 0.058 78.345 0.058 78.345 0.99 -3.284 
12766.411 0.987 -4.769 0.084 78.971 0.084 78.971 0.987 -4.769 
13368.985 0.984 -6.255 0.109 78.566 0.109 78.566 0.984 -6.255 
14000 0.98 -7.743 0.135 77.717 0.135 77.717 0.98 -7.743 
