# MHz S MA R 50

1 1.384e-3 32.913 0.999 -0.043 0.999 -0.043 1.384e-3 32.913 
1.047 1.41e-3 33.979 0.999 -0.045 0.999 -0.045 1.41e-3 33.979 
1.097 1.436e-3 35.06 0.999 -0.047 0.999 -0.047 1.436e-3 35.06 
1.149 1.465e-3 36.152 0.999 -0.05 0.999 -0.05 1.465e-3 36.152 
1.203 1.495e-3 37.255 0.999 -0.052 0.999 -0.052 1.495e-3 37.255 
1.26 1.527e-3 38.367 0.999 -0.054 0.999 -0.054 1.527e-3 38.367 
1.32 1.561e-3 39.487 0.999 -0.057 0.999 -0.057 1.561e-3 39.487 
1.382 1.597e-3 40.611 0.999 -0.06 0.999 -0.06 1.597e-3 40.611 
1.447 1.635e-3 41.739 0.999 -0.062 0.999 -0.062 1.635e-3 41.739 
1.516 1.676e-3 42.869 0.999 -0.065 0.999 -0.065 1.676e-3 42.869 
1.588 1.719e-3 43.999 0.999 -0.068 0.999 -0.068 1.719e-3 43.999 
1.663 1.765e-3 45.127 0.999 -0.072 0.999 -0.072 1.765e-3 45.127 
1.741 1.813e-3 46.252 0.999 -0.075 0.999 -0.075 1.813e-3 46.252 
1.824 1.864e-3 47.371 0.999 -0.079 0.999 -0.079 1.864e-3 47.371 
1.91 1.918e-3 48.483 0.999 -0.082 0.999 -0.082 1.918e-3 48.483 
2 1.976e-3 49.586 0.999 -0.086 0.999 -0.086 1.976e-3 49.586 
2.095 2.036e-3 50.679 0.999 -0.09 0.999 -0.09 2.036e-3 50.679 
2.194 2.101e-3 51.76 0.999 -0.095 0.999 -0.095 2.101e-3 51.76 
2.298 2.169e-3 52.828 0.999 -0.099 0.999 -0.099 2.169e-3 52.828 
2.406 2.24e-3 53.88 0.999 -0.104 0.999 -0.104 2.24e-3 53.88 
2.52 2.316e-3 54.917 0.999 -0.109 0.999 -0.109 2.316e-3 54.917 
2.639 2.396e-3 55.937 0.999 -0.114 0.999 -0.114 2.396e-3 55.937 
2.764 2.48e-3 56.939 0.999 -0.119 0.999 -0.119 2.48e-3 56.939 
2.895 2.569e-3 57.922 0.999 -0.125 0.999 -0.125 2.569e-3 57.922 
3.032 2.663e-3 58.885 0.999 -0.131 0.999 -0.131 2.663e-3 58.885 
3.175 2.762e-3 59.827 0.999 -0.137 0.999 -0.137 2.762e-3 59.827 
3.326 2.866e-3 60.749 0.999 -0.143 0.999 -0.143 2.866e-3 60.749 
3.483 2.976e-3 61.649 0.999 -0.15 0.999 -0.15 2.976e-3 61.649 
3.648 3.091e-3 62.527 0.999 -0.157 0.999 -0.157 3.091e-3 62.527 
3.82 3.213e-3 63.383 0.999 -0.165 0.999 -0.165 3.213e-3 63.383 
4.001 3.341e-3 64.216 0.999 -0.173 0.999 -0.173 3.341e-3 64.216 
4.19 3.475e-3 65.027 0.999 -0.181 0.999 -0.181 3.475e-3 65.027 
4.388 3.616e-3 65.816 0.999 -0.189 0.999 -0.189 3.616e-3 65.816 
4.596 3.765e-3 66.581 0.999 -0.198 0.999 -0.198 3.765e-3 66.581 
4.813 3.921e-3 67.325 0.998 -0.208 0.998 -0.208 3.921e-3 67.325 
5.041 4.086e-3 68.046 0.998 -0.217 0.998 -0.217 4.086e-3 68.046 
5.28 4.258e-3 68.745 0.998 -0.228 0.998 -0.228 4.258e-3 68.745 
5.529 4.439e-3 69.422 0.998 -0.238 0.998 -0.238 4.439e-3 69.422 
5.791 4.63e-3 70.077 0.998 -0.25 0.998 -0.25 4.63e-3 70.077 
6.065 4.829e-3 70.711 0.998 -0.262 0.998 -0.262 4.829e-3 70.711 
6.352 5.039e-3 71.325 0.998 -0.274 0.998 -0.274 5.039e-3 71.325 
6.652 5.259e-3 71.918 0.998 -0.287 0.998 -0.287 5.259e-3 71.918 
6.967 5.49e-3 72.49 0.998 -0.3 0.998 -0.3 5.49e-3 72.49 
7.296 5.732e-3 73.043 0.998 -0.315 0.998 -0.315 5.732e-3 73.043 
7.642 5.987e-3 73.577 0.998 -0.33 0.998 -0.33 5.987e-3 73.577 
8.003 6.253e-3 74.092 0.998 -0.345 0.998 -0.345 6.253e-3 74.092 
8.382 6.533e-3 74.588 0.998 -0.361 0.998 -0.361 6.533e-3 74.588 
8.778 6.826e-3 75.066 0.998 -0.379 0.998 -0.379 6.826e-3 75.066 
9.193 7.134e-3 75.527 0.998 -0.396 0.998 -0.396 7.134e-3 75.527 
9.628 7.456e-3 75.971 0.998 -0.415 0.998 -0.415 7.456e-3 75.971 
10.084 7.794e-3 76.398 0.998 -0.435 0.998 -0.435 7.794e-3 76.398 
10.561 8.148e-3 76.809 0.998 -0.455 0.998 -0.455 8.148e-3 76.809 
11.06 8.52e-3 77.204 0.998 -0.477 0.998 -0.477 8.52e-3 77.204 
11.583 8.909e-3 77.583 0.998 -0.499 0.998 -0.499 8.909e-3 77.583 
12.131 9.317e-3 77.948 0.998 -0.523 0.998 -0.523 9.317e-3 77.948 
12.705 9.745e-3 78.298 0.998 -0.548 0.998 -0.548 9.745e-3 78.298 
13.306 0.01 78.635 0.998 -0.574 0.998 -0.574 0.01 78.635 
13.935 0.011 78.957 0.998 -0.601 0.998 -0.601 0.011 78.957 
14.595 0.011 79.266 0.998 -0.629 0.998 -0.629 0.011 79.266 
15.285 0.012 79.561 0.998 -0.659 0.998 -0.659 0.012 79.561 
16.008 0.012 79.845 0.998 -0.69 0.998 -0.69 0.012 79.845 
16.765 0.013 80.115 0.998 -0.723 0.998 -0.723 0.013 80.115 
17.558 0.013 80.374 0.998 -0.757 0.998 -0.757 0.013 80.374 
18.389 0.014 80.621 0.998 -0.793 0.998 -0.793 0.014 80.621 
19.259 0.015 80.856 0.998 -0.83 0.998 -0.83 0.015 80.856 
20.17 0.015 81.08 0.998 -0.869 0.998 -0.869 0.015 81.08 
21.124 0.016 81.293 0.998 -0.91 0.998 -0.91 0.016 81.293 
22.123 0.017 81.496 0.998 -0.954 0.998 -0.954 0.017 81.496 
23.169 0.018 81.687 0.998 -0.999 0.998 -0.999 0.018 81.687 
24.265 0.018 81.869 0.998 -1.046 0.998 -1.046 0.018 81.869 
25.413 0.019 82.04 0.998 -1.095 0.998 -1.095 0.019 82.04 
26.615 0.02 82.202 0.997 -1.147 0.997 -1.147 0.02 82.202 
27.874 0.021 82.354 0.997 -1.201 0.997 -1.201 0.021 82.354 
29.193 0.022 82.496 0.997 -1.258 0.997 -1.258 0.022 82.496 
30.574 0.023 82.629 0.997 -1.317 0.997 -1.317 0.023 82.629 
32.02 0.024 82.752 0.997 -1.38 0.997 -1.38 0.024 82.752 
33.535 0.025 82.866 0.997 -1.445 0.997 -1.445 0.025 82.866 
35.121 0.027 82.971 0.997 -1.513 0.997 -1.513 0.027 82.971 
36.782 0.028 83.067 0.997 -1.585 0.997 -1.585 0.028 83.067 
38.522 0.029 83.154 0.997 -1.659 0.997 -1.659 0.029 83.154 
40.344 0.03 83.232 0.997 -1.738 0.997 -1.738 0.03 83.232 
42.253 0.032 83.301 0.997 -1.82 0.997 -1.82 0.032 83.301 
44.252 0.033 83.361 0.997 -1.906 0.997 -1.906 0.033 83.361 
46.345 0.035 83.412 0.997 -1.996 0.997 -1.996 0.035 83.412 
48.537 0.037 83.454 0.996 -2.09 0.996 -2.09 0.037 83.454 
50.833 0.038 83.488 0.996 -2.189 0.996 -2.189 0.038 83.488 
53.237 0.04 83.512 0.996 -2.292 0.996 -2.292 0.04 83.512 
55.756 0.042 83.527 0.996 -2.4 0.996 -2.4 0.042 83.527 
58.393 0.044 83.533 0.996 -2.514 0.996 -2.514 0.044 83.533 
61.155 0.046 83.53 0.996 -2.632 0.996 -2.632 0.046 83.53 
64.048 0.048 83.517 0.996 -2.756 0.996 -2.756 0.048 83.517 
67.078 0.05 83.495 0.996 -2.886 0.996 -2.886 0.05 83.495 
70.251 0.053 83.464 0.995 -3.023 0.995 -3.023 0.053 83.464 
73.574 0.055 83.422 0.995 -3.165 0.995 -3.165 0.055 83.422 
77.054 0.058 83.371 0.995 -3.314 0.995 -3.314 0.058 83.371 
80.699 0.061 83.31 0.995 -3.471 0.995 -3.471 0.061 83.31 
84.516 0.063 83.238 0.995 -3.634 0.995 -3.634 0.063 83.238 
88.514 0.066 83.156 0.994 -3.806 0.994 -3.806 0.066 83.156 
92.701 0.07 83.062 0.994 -3.985 0.994 -3.985 0.07 83.062 
97.086 0.073 82.958 0.994 -4.173 0.994 -4.173 0.073 82.958 
101.679 0.076 82.842 0.993 -4.369 0.993 -4.369 0.076 82.842 
106.488 0.08 82.715 0.993 -4.575 0.993 -4.575 0.08 82.715 
111.526 0.084 82.575 0.993 -4.79 0.993 -4.79 0.084 82.575 
116.801 0.088 82.423 0.992 -5.015 0.992 -5.015 0.088 82.423 
122.326 0.092 82.259 0.992 -5.251 0.992 -5.251 0.092 82.259 
128.112 0.096 82.081 0.991 -5.498 0.991 -5.498 0.096 82.081 
134.172 0.1 81.89 0.991 -5.756 0.991 -5.756 0.1 81.89 
140.519 0.105 81.684 0.99 -6.026 0.99 -6.026 0.105 81.684 
147.166 0.11 81.464 0.99 -6.309 0.99 -6.309 0.11 81.464 
154.128 0.115 81.229 0.989 -6.605 0.989 -6.605 0.115 81.229 
161.418 0.12 80.979 0.988 -6.914 0.988 -6.914 0.12 80.979 
169.054 0.126 80.713 0.988 -7.237 0.988 -7.237 0.126 80.713 
177.051 0.132 80.43 0.987 -7.576 0.987 -7.576 0.132 80.43 
185.426 0.138 80.13 0.986 -7.93 0.986 -7.93 0.138 80.13 
194.197 0.144 79.812 0.985 -8.3 0.985 -8.3 0.144 79.812 
203.383 0.151 79.475 0.984 -8.687 0.984 -8.687 0.151 79.475 
213.003 0.158 79.12 0.983 -9.091 0.983 -9.091 0.158 79.12 
223.079 0.165 78.745 0.981 -9.514 0.981 -9.514 0.165 78.745 
233.631 0.173 78.35 0.98 -9.956 0.98 -9.956 0.173 78.35 
244.683 0.181 77.933 0.978 -10.417 0.978 -10.417 0.181 77.933 
256.257 0.189 77.495 0.977 -10.899 0.977 -10.899 0.189 77.495 
268.379 0.198 77.034 0.975 -11.402 0.975 -11.402 0.198 77.034 
281.074 0.207 76.549 0.973 -11.928 0.973 -11.928 0.207 76.549 
294.369 0.216 76.041 0.971 -12.476 0.971 -12.476 0.216 76.041 
308.294 0.226 75.507 0.968 -13.048 0.968 -13.048 0.226 75.507 
322.877 0.236 74.948 0.966 -13.645 0.966 -13.645 0.236 74.948 
338.15 0.247 74.362 0.963 -14.267 0.963 -14.267 0.247 74.362 
354.145 0.257 73.749 0.96 -14.916 0.96 -14.916 0.257 73.749 
370.898 0.269 73.108 0.957 -15.591 0.957 -15.591 0.269 73.108 
388.442 0.281 72.438 0.954 -16.295 0.954 -16.295 0.281 72.438 
406.817 0.293 71.738 0.95 -17.027 0.95 -17.027 0.293 71.738 
426.06 0.306 71.008 0.946 -17.788 0.946 -17.788 0.306 71.008 
446.214 0.319 70.246 0.941 -18.58 0.941 -18.58 0.319 70.246 
467.321 0.332 69.453 0.937 -19.403 0.937 -19.403 0.332 69.453 
489.427 0.346 68.628 0.931 -20.256 0.931 -20.256 0.346 68.628 
512.578 0.361 67.77 0.926 -21.142 0.926 -21.142 0.361 67.77 
536.825 0.376 66.879 0.92 -22.061 0.92 -22.061 0.376 66.879 
562.218 0.391 65.954 0.913 -23.012 0.913 -23.012 0.391 65.954 
588.812 0.407 64.994 0.906 -23.996 0.906 -23.996 0.407 64.994 
616.665 0.423 64.001 0.899 -25.014 0.899 -25.014 0.423 64.001 
645.835 0.439 62.974 0.891 -26.065 0.891 -26.065 0.439 62.974 
676.385 0.456 61.913 0.882 -27.149 0.882 -27.149 0.456 61.913 
708.38 0.474 60.818 0.873 -28.267 0.873 -28.267 0.474 60.818 
741.888 0.491 59.689 0.863 -29.417 0.863 -29.417 0.491 59.689 
776.982 0.509 58.528 0.853 -30.599 0.853 -30.599 0.509 58.528 
813.735 0.527 57.334 0.842 -31.812 0.842 -31.812 0.527 57.334 
852.227 0.546 56.11 0.83 -33.056 0.83 -33.056 0.546 56.11 
892.54 0.564 54.855 0.818 -34.33 0.818 -34.33 0.564 54.855 
934.76 0.583 53.572 0.805 -35.631 0.805 -35.631 0.583 53.572 
978.976 0.601 52.261 0.791 -36.959 0.791 -36.959 0.601 52.261 
1025.285 0.62 50.925 0.776 -38.312 0.776 -38.312 0.62 50.925 
1073.784 0.639 49.564 0.761 -39.687 0.761 -39.687 0.639 49.564 
1124.577 0.657 48.182 0.745 -41.084 0.745 -41.084 0.657 48.182 
1177.773 0.676 46.781 0.729 -42.5 0.729 -42.5 0.676 46.781 
1233.485 0.694 45.361 0.712 -43.933 0.712 -43.933 0.694 45.361 
1291.832 0.712 43.927 0.694 -45.379 0.694 -45.379 0.712 43.927 
1352.939 0.729 42.48 0.675 -46.838 0.675 -46.838 0.729 42.48 
1416.937 0.747 41.023 0.656 -48.306 0.656 -48.306 0.747 41.023 
1483.962 0.764 39.557 0.637 -49.78 0.637 -49.78 0.764 39.557 
1554.158 0.78 38.087 0.617 -51.259 0.617 -51.259 0.78 38.087 
1627.674 0.796 36.613 0.596 -52.74 0.596 -52.74 0.796 36.613 
1704.668 0.811 35.139 0.576 -54.22 0.576 -54.22 0.811 35.139 
1785.304 0.826 33.666 0.554 -55.697 0.554 -55.697 0.826 33.666 
1869.754 0.84 32.198 0.533 -57.168 0.533 -57.168 0.84 32.198 
1958.198 0.854 30.735 0.511 -58.632 0.511 -58.632 0.854 30.735 
2050.827 0.867 29.279 0.489 -60.086 0.489 -60.086 0.867 29.279 
2147.837 0.879 27.832 0.467 -61.529 0.467 -61.529 0.879 27.832 
2249.436 0.891 26.397 0.445 -62.958 0.445 -62.958 0.891 26.397 
2355.841 0.902 24.972 0.422 -64.372 0.422 -64.372 0.902 24.972 
2467.279 0.912 23.561 0.4 -65.77 0.4 -65.77 0.912 23.561 
2583.988 0.922 22.163 0.377 -67.15 0.377 -67.15 0.922 22.163 
2706.218 0.931 20.779 0.355 -68.51 0.355 -68.51 0.931 20.779 
2834.23 0.939 19.41 0.332 -69.849 0.332 -69.849 0.939 19.41 
2968.297 0.947 18.056 0.31 -71.165 0.31 -71.165 0.947 18.056 
3108.706 0.954 16.716 0.288 -72.456 0.288 -72.456 0.954 16.716 
3255.757 0.96 15.39 0.265 -73.721 0.265 -73.721 0.96 15.39 
3409.764 0.966 14.079 0.243 -74.955 0.243 -74.955 0.966 14.079 
3571.055 0.971 12.781 0.221 -76.154 0.221 -76.154 0.971 12.781 
3739.976 0.976 11.496 0.199 -77.312 0.199 -77.312 0.976 11.496 
3916.888 0.98 10.223 0.178 -78.419 0.178 -78.419 0.98 10.223 
4102.168 0.984 8.961 0.156 -79.46 0.156 -79.46 0.984 8.961 
4296.213 0.987 7.71 0.134 -80.408 0.134 -80.408 0.987 7.71 
4499.436 0.989 6.467 0.113 -81.217 0.113 -81.217 0.989 6.467 
4712.272 0.991 5.232 0.091 -81.796 0.091 -81.796 0.991 5.232 
4935.176 0.993 4.004 0.07 -81.944 0.07 -81.944 0.993 4.004 
5168.624 0.994 2.781 0.049 -81.107 0.049 -81.107 0.994 2.781 
5413.115 0.994 1.562 0.028 -77.068 0.028 -77.068 0.994 1.562 
5669.171 0.994 0.346 8.373e-3 -45.74 8.373e-3 -45.74 0.994 0.346 
5937.339 0.994 -0.869 0.016 66.978 0.016 66.978 0.994 -0.869 
6218.192 0.993 -2.084 0.037 77.641 0.037 77.641 0.993 -2.084 
6512.33 0.991 -3.3 0.058 79.711 0.058 79.711 0.991 -3.3 
6820.382 0.989 -4.519 0.079 79.991 0.079 79.991 0.989 -4.519 
7143.006 0.987 -5.741 0.1 79.604 0.1 79.604 0.987 -5.741 
7480.891 0.984 -6.968 0.122 78.894 0.122 78.894 0.984 -6.968 
7834.759 0.98 -8.201 0.143 78 0.143 78 0.98 -8.201 
8205.365 0.976 -9.441 0.164 76.989 0.164 76.989 0.976 -9.441 
8593.503 0.972 -10.688 0.186 75.896 0.186 75.896 0.972 -10.688 
9000 0.966 -11.944 0.207 74.742 0.207 74.742 0.966 -11.944 
