# MHz S MA R 50

1 3.162e-3 40.742 0.998 -0.119 0.998 -0.119 3.162e-3 40.742 
1.047 3.239e-3 41.859 0.998 -0.124 0.998 -0.124 3.239e-3 41.859 
1.097 3.32e-3 42.977 0.998 -0.13 0.998 -0.13 3.32e-3 42.977 
1.149 3.407e-3 44.094 0.998 -0.136 0.998 -0.136 3.407e-3 44.094 
1.203 3.498e-3 45.209 0.998 -0.143 0.998 -0.143 3.498e-3 45.209 
1.26 3.595e-3 46.32 0.998 -0.149 0.998 -0.149 3.595e-3 46.32 
1.32 3.698e-3 47.426 0.998 -0.156 0.998 -0.156 3.698e-3 47.426 
1.383 3.807e-3 48.523 0.997 -0.164 0.997 -0.164 3.807e-3 48.523 
1.448 3.922e-3 49.612 0.997 -0.172 0.997 -0.172 3.922e-3 49.612 
1.517 4.043e-3 50.689 0.997 -0.18 0.997 -0.18 4.043e-3 50.689 
1.588 4.172e-3 51.755 0.997 -0.188 0.997 -0.188 4.172e-3 51.755 
1.664 4.308e-3 52.807 0.997 -0.197 0.997 -0.197 4.308e-3 52.807 
1.742 4.451e-3 53.844 0.997 -0.206 0.997 -0.206 4.451e-3 53.844 
1.825 4.603e-3 54.865 0.997 -0.216 0.997 -0.216 4.603e-3 54.865 
1.911 4.762e-3 55.869 0.997 -0.226 0.997 -0.226 4.762e-3 55.869 
2.002 4.931e-3 56.855 0.997 -0.237 0.997 -0.237 4.931e-3 56.855 
2.097 5.109e-3 57.821 0.997 -0.248 0.997 -0.248 5.109e-3 57.821 
2.196 5.296e-3 58.768 0.997 -0.26 0.997 -0.26 5.296e-3 58.768 
2.3 5.493e-3 59.695 0.997 -0.272 0.997 -0.272 5.493e-3 59.695 
2.409 5.701e-3 60.6 0.997 -0.285 0.997 -0.285 5.701e-3 60.6 
2.523 5.92e-3 61.484 0.997 -0.299 0.997 -0.299 5.92e-3 61.484 
2.643 6.151e-3 62.346 0.997 -0.313 0.997 -0.313 6.151e-3 62.346 
2.768 6.393e-3 63.186 0.997 -0.328 0.997 -0.328 6.393e-3 63.186 
2.899 6.649e-3 64.003 0.997 -0.343 0.997 -0.343 6.649e-3 64.003 
3.036 6.917e-3 64.798 0.997 -0.36 0.997 -0.36 6.917e-3 64.798 
3.18 7.199e-3 65.57 0.997 -0.377 0.997 -0.377 7.199e-3 65.57 
3.331 7.496e-3 66.32 0.997 -0.394 0.997 -0.394 7.496e-3 66.32 
3.488 7.807e-3 67.047 0.997 -0.413 0.997 -0.413 7.807e-3 67.047 
3.653 8.135e-3 67.752 0.997 -0.433 0.997 -0.433 8.135e-3 67.752 
3.826 8.479e-3 68.435 0.997 -0.453 0.997 -0.453 8.479e-3 68.435 
4.008 8.84e-3 69.095 0.997 -0.475 0.997 -0.475 8.84e-3 69.095 
4.198 9.219e-3 69.734 0.997 -0.497 0.997 -0.497 9.219e-3 69.734 
4.396 9.617e-3 70.352 0.997 -0.521 0.997 -0.521 9.617e-3 70.352 
4.605 0.01 70.948 0.997 -0.545 0.997 -0.545 0.01 70.948 
4.823 0.01 71.524 0.997 -0.571 0.997 -0.571 0.01 71.524 
5.051 0.011 72.08 0.997 -0.598 0.997 -0.598 0.011 72.08 
5.29 0.011 72.615 0.997 -0.626 0.997 -0.626 0.011 72.615 
5.541 0.012 73.131 0.997 -0.656 0.997 -0.656 0.012 73.131 
5.803 0.012 73.627 0.997 -0.687 0.997 -0.687 0.012 73.627 
6.078 0.013 74.104 0.997 -0.72 0.997 -0.72 0.013 74.104 
6.366 0.014 74.564 0.996 -0.754 0.996 -0.754 0.014 74.564 
6.667 0.014 75.005 0.996 -0.789 0.996 -0.789 0.014 75.005 
6.983 0.015 75.428 0.996 -0.827 0.996 -0.827 0.015 75.428 
7.314 0.016 75.834 0.996 -0.866 0.996 -0.866 0.016 75.834 
7.66 0.016 76.223 0.996 -0.907 0.996 -0.907 0.016 76.223 
8.023 0.017 76.596 0.996 -0.95 0.996 -0.95 0.017 76.596 
8.403 0.018 76.952 0.996 -0.994 0.996 -0.994 0.018 76.952 
8.801 0.019 77.293 0.996 -1.042 0.996 -1.042 0.019 77.293 
9.218 0.019 77.618 0.996 -1.091 0.996 -1.091 0.019 77.618 
9.655 0.02 77.928 0.996 -1.142 0.996 -1.142 0.02 77.928 
10.112 0.021 78.223 0.996 -1.196 0.996 -1.196 0.021 78.223 
10.591 0.022 78.504 0.996 -1.253 0.996 -1.253 0.022 78.504 
11.092 0.023 78.77 0.996 -1.312 0.996 -1.312 0.023 78.77 
11.618 0.024 79.022 0.996 -1.374 0.996 -1.374 0.024 79.022 
12.168 0.025 79.261 0.996 -1.439 0.996 -1.439 0.025 79.261 
12.744 0.027 79.486 0.995 -1.507 0.995 -1.507 0.027 79.486 
13.348 0.028 79.698 0.995 -1.579 0.995 -1.579 0.028 79.698 
13.98 0.029 79.897 0.995 -1.653 0.995 -1.653 0.029 79.897 
14.642 0.031 80.083 0.995 -1.731 0.995 -1.731 0.031 80.083 
15.335 0.032 80.256 0.995 -1.813 0.995 -1.813 0.032 80.256 
16.062 0.033 80.417 0.995 -1.899 0.995 -1.899 0.033 80.417 
16.822 0.035 80.565 0.995 -1.989 0.995 -1.989 0.035 80.565 
17.619 0.037 80.701 0.995 -2.083 0.995 -2.083 0.037 80.701 
18.454 0.038 80.825 0.995 -2.181 0.995 -2.181 0.038 80.825 
19.328 0.04 80.936 0.994 -2.284 0.994 -2.284 0.04 80.936 
20.243 0.042 81.036 0.994 -2.392 0.994 -2.392 0.042 81.036 
21.202 0.044 81.123 0.994 -2.505 0.994 -2.505 0.044 81.123 
22.206 0.046 81.198 0.994 -2.623 0.994 -2.623 0.046 81.198 
23.258 0.048 81.261 0.994 -2.747 0.994 -2.747 0.048 81.261 
24.359 0.05 81.312 0.994 -2.877 0.994 -2.877 0.05 81.312 
25.513 0.053 81.351 0.993 -3.013 0.993 -3.013 0.053 81.351 
26.721 0.055 81.378 0.993 -3.155 0.993 -3.155 0.055 81.378 
27.987 0.058 81.392 0.993 -3.304 0.993 -3.304 0.058 81.392 
29.312 0.061 81.394 0.993 -3.459 0.993 -3.459 0.061 81.394 
30.7 0.063 81.384 0.992 -3.622 0.992 -3.622 0.063 81.384 
32.154 0.066 81.361 0.992 -3.793 0.992 -3.793 0.066 81.361 
33.677 0.07 81.325 0.992 -3.972 0.992 -3.972 0.07 81.325 
35.272 0.073 81.276 0.992 -4.159 0.992 -4.159 0.073 81.276 
36.943 0.076 81.213 0.991 -4.355 0.991 -4.355 0.076 81.213 
38.693 0.08 81.138 0.991 -4.56 0.991 -4.56 0.08 81.138 
40.525 0.083 81.048 0.99 -4.774 0.99 -4.774 0.083 81.048 
42.444 0.087 80.944 0.99 -4.999 0.99 -4.999 0.087 80.944 
44.455 0.091 80.827 0.99 -5.234 0.99 -5.234 0.091 80.827 
46.56 0.096 80.694 0.989 -5.48 0.989 -5.48 0.096 80.694 
48.765 0.1 80.546 0.988 -5.737 0.988 -5.737 0.1 80.546 
51.075 0.105 80.383 0.988 -6.006 0.988 -6.006 0.105 80.383 
53.494 0.11 80.205 0.987 -6.288 0.987 -6.288 0.11 80.205 
56.027 0.115 80.009 0.987 -6.583 0.987 -6.583 0.115 80.009 
58.681 0.12 79.798 0.986 -6.891 0.986 -6.891 0.12 79.798 
61.46 0.126 79.569 0.985 -7.213 0.985 -7.213 0.126 79.569 
64.371 0.132 79.322 0.984 -7.55 0.984 -7.55 0.132 79.322 
67.42 0.138 79.057 0.983 -7.902 0.983 -7.902 0.138 79.057 
70.613 0.144 78.774 0.982 -8.271 0.982 -8.271 0.144 78.774 
73.957 0.151 78.471 0.981 -8.656 0.981 -8.656 0.151 78.471 
77.46 0.158 78.149 0.98 -9.058 0.98 -9.058 0.158 78.149 
81.128 0.165 77.805 0.979 -9.479 0.979 -9.479 0.165 77.805 
84.971 0.172 77.441 0.977 -9.918 0.977 -9.918 0.172 77.441 
88.995 0.18 77.055 0.976 -10.377 0.976 -10.377 0.18 77.055 
93.21 0.189 76.646 0.974 -10.855 0.974 -10.855 0.189 76.646 
97.624 0.197 76.215 0.972 -11.355 0.972 -11.355 0.197 76.215 
102.248 0.206 75.759 0.97 -11.877 0.97 -11.877 0.206 75.759 
107.091 0.215 75.279 0.968 -12.421 0.968 -12.421 0.215 75.279 
112.163 0.225 74.773 0.966 -12.989 0.966 -12.989 0.225 74.773 
117.475 0.235 74.242 0.963 -13.581 0.963 -13.581 0.235 74.242 
123.039 0.245 73.684 0.96 -14.197 0.96 -14.197 0.245 73.684 
128.866 0.256 73.098 0.957 -14.84 0.957 -14.84 0.256 73.098 
134.969 0.268 72.485 0.954 -15.508 0.954 -15.508 0.268 72.485 
141.361 0.279 71.843 0.951 -16.204 0.951 -16.204 0.279 71.843 
148.056 0.291 71.171 0.947 -16.927 0.947 -16.927 0.291 71.171 
155.069 0.304 70.47 0.943 -17.679 0.943 -17.679 0.304 70.47 
162.413 0.317 69.737 0.939 -18.46 0.939 -18.46 0.317 69.737 
170.105 0.33 68.974 0.934 -19.271 0.934 -19.271 0.33 68.974 
178.161 0.344 68.18 0.929 -20.111 0.929 -20.111 0.344 68.18 
186.599 0.358 67.353 0.923 -20.983 0.923 -20.983 0.358 67.353 
195.437 0.373 66.495 0.917 -21.884 0.917 -21.884 0.373 66.495 
204.693 0.388 65.604 0.911 -22.817 0.911 -22.817 0.388 65.604 
214.388 0.403 64.681 0.904 -23.781 0.904 -23.781 0.403 64.681 
224.541 0.419 63.726 0.897 -24.776 0.897 -24.776 0.419 63.726 
235.176 0.435 62.738 0.889 -25.802 0.889 -25.802 0.435 62.738 
246.314 0.452 61.719 0.881 -26.859 0.881 -26.859 0.452 61.719 
257.98 0.469 60.669 0.872 -27.945 0.872 -27.945 0.469 60.669 
270.198 0.486 59.588 0.863 -29.061 0.863 -29.061 0.486 59.588 
282.995 0.503 58.478 0.853 -30.206 0.853 -30.206 0.503 58.478 
296.398 0.521 57.339 0.842 -31.378 0.842 -31.378 0.521 57.339 
310.436 0.539 56.173 0.831 -32.576 0.831 -32.576 0.539 56.173 
325.139 0.556 54.98 0.819 -33.8 0.819 -33.8 0.556 54.98 
340.538 0.574 53.764 0.807 -35.047 0.807 -35.047 0.574 53.764 
356.666 0.592 52.525 0.794 -36.315 0.794 -36.315 0.592 52.525 
373.558 0.61 51.265 0.78 -37.603 0.78 -37.603 0.61 51.265 
391.25 0.628 49.987 0.766 -38.909 0.766 -38.909 0.628 49.987 
409.781 0.646 48.693 0.751 -40.23 0.751 -40.23 0.646 48.693 
429.188 0.664 47.386 0.736 -41.563 0.736 -41.563 0.664 47.386 
449.515 0.681 46.067 0.72 -42.907 0.72 -42.907 0.681 46.067 
470.805 0.698 44.739 0.704 -44.259 0.704 -44.259 0.698 44.739 
493.103 0.715 43.406 0.687 -45.616 0.687 -45.616 0.715 43.406 
516.457 0.731 42.069 0.67 -46.975 0.67 -46.975 0.731 42.069 
540.917 0.747 40.732 0.653 -48.334 0.653 -48.334 0.747 40.732 
566.536 0.763 39.398 0.635 -49.69 0.635 -49.69 0.763 39.398 
593.368 0.778 38.068 0.617 -51.041 0.617 -51.041 0.778 38.068 
621.47 0.792 36.745 0.598 -52.383 0.598 -52.383 0.792 36.745 
650.904 0.806 35.432 0.58 -53.715 0.58 -53.715 0.806 35.432 
681.732 0.82 34.131 0.561 -55.034 0.561 -55.034 0.82 34.131 
714.019 0.832 32.844 0.542 -56.338 0.542 -56.338 0.832 32.844 
747.836 0.845 31.573 0.524 -57.626 0.524 -57.626 0.845 31.573 
783.255 0.856 30.321 0.505 -58.894 0.505 -58.894 0.856 30.321 
820.351 0.867 29.087 0.486 -60.142 0.486 -60.142 0.867 29.087 
859.204 0.878 27.874 0.468 -61.369 0.468 -61.369 0.878 27.874 
899.897 0.888 26.684 0.449 -62.573 0.449 -62.573 0.888 26.684 
942.517 0.897 25.516 0.431 -63.752 0.431 -63.752 0.897 25.516 
987.156 0.906 24.372 0.413 -64.907 0.413 -64.907 0.906 24.372 
1033.909 0.914 23.252 0.395 -66.037 0.395 -66.037 0.914 23.252 
1082.877 0.922 22.157 0.377 -67.141 0.377 -67.141 0.922 22.157 
1134.163 0.929 21.087 0.36 -68.218 0.36 -68.218 0.929 21.087 
1187.879 0.935 20.042 0.343 -69.269 0.343 -69.269 0.935 20.042 
1244.138 0.941 19.022 0.326 -70.293 0.326 -70.293 0.941 19.022 
1303.062 0.947 18.026 0.309 -71.291 0.309 -71.291 0.947 18.026 
1364.777 0.953 17.055 0.293 -72.263 0.293 -72.263 0.953 17.055 
1429.415 0.957 16.107 0.277 -73.209 0.277 -73.209 0.957 16.107 
1497.114 0.962 15.183 0.262 -74.128 0.262 -74.128 0.962 15.183 
1568.019 0.966 14.281 0.247 -75.022 0.247 -75.022 0.966 14.281 
1642.283 0.97 13.401 0.232 -75.891 0.232 -75.891 0.97 13.401 
1720.063 0.973 12.542 0.217 -76.735 0.217 -76.735 0.973 12.542 
1801.528 0.977 11.703 0.203 -77.553 0.203 -77.553 0.977 11.703 
1886.851 0.979 10.883 0.189 -78.346 0.189 -78.346 0.979 10.883 
1976.214 0.982 10.081 0.175 -79.114 0.175 -79.114 0.982 10.081 
2069.811 0.984 9.296 0.162 -79.855 0.162 -79.855 0.984 9.296 
2167.84 0.987 8.526 0.148 -80.569 0.148 -80.569 0.987 8.526 
2270.512 0.989 7.772 0.135 -81.252 0.135 -81.252 0.989 7.772 
2378.046 0.99 7.031 0.122 -81.902 0.122 -81.902 0.99 7.031 
2490.674 0.992 6.302 0.11 -82.513 0.11 -82.513 0.992 6.302 
2608.635 0.993 5.585 0.097 -83.077 0.097 -83.077 0.993 5.585 
2732.184 0.994 4.878 0.085 -83.577 0.085 -83.577 0.994 4.878 
2861.584 0.995 4.18 0.073 -83.991 0.073 -83.991 0.995 4.18 
2997.112 0.996 3.489 0.061 -84.273 0.061 -84.273 0.996 3.489 
3139.06 0.996 2.805 0.049 -84.333 0.049 -84.333 0.996 2.805 
3287.73 0.997 2.127 0.037 -83.97 0.037 -83.97 0.997 2.127 
3443.441 0.997 1.452 0.025 -82.609 0.025 -82.609 0.997 1.452 
3606.527 0.997 0.78 0.014 -77.763 0.014 -77.763 0.997 0.78 
3777.337 0.997 0.11 3.482e-3 -33.36 3.482e-3 -33.36 0.997 0.11 
3956.237 0.997 -0.56 0.01 71.987 0.01 71.987 0.997 -0.56 
4143.61 0.997 -1.23 0.022 80.131 0.022 80.131 0.997 -1.23 
4339.857 0.996 -1.903 0.033 82.117 0.033 82.117 0.996 -1.903 
4545.398 0.995 -2.578 0.045 82.693 0.045 82.693 0.995 -2.578 
4760.675 0.994 -3.258 0.057 82.723 0.057 82.723 0.994 -3.258 
4986.147 0.993 -3.943 0.069 82.481 0.069 82.481 0.993 -3.943 
5222.297 0.992 -4.635 0.081 82.082 0.081 82.082 0.992 -4.635 
5469.633 0.991 -5.335 0.093 81.581 0.093 81.581 0.991 -5.335 
5728.682 0.989 -6.043 0.105 81.007 0.105 81.007 0.989 -6.043 
6000 0.987 -6.761 0.118 80.379 0.118 80.379 0.987 -6.761 
