# MHz S MA R 50

1 7.197e-3 38.426 0.994 -0.258 0.994 -0.258 7.197e-3 38.426 
1.047 7.357e-3 39.54 0.994 -0.27 0.994 -0.27 7.357e-3 39.54 
1.097 7.527e-3 40.659 0.994 -0.283 0.994 -0.283 7.527e-3 40.659 
1.148 7.707e-3 41.78 0.994 -0.296 0.994 -0.296 7.707e-3 41.78 
1.202 7.898e-3 42.902 0.994 -0.31 0.994 -0.31 7.898e-3 42.902 
1.259 8.101e-3 44.024 0.994 -0.324 0.994 -0.324 8.101e-3 44.024 
1.318 8.316e-3 45.143 0.994 -0.34 0.994 -0.34 8.316e-3 45.143 
1.381 8.544e-3 46.257 0.994 -0.356 0.994 -0.356 8.544e-3 46.257 
1.446 8.785e-3 47.365 0.994 -0.373 0.994 -0.373 8.785e-3 47.365 
1.514 9.041e-3 48.465 0.994 -0.39 0.994 -0.39 9.041e-3 48.465 
1.585 9.311e-3 49.555 0.994 -0.408 0.994 -0.408 9.311e-3 49.555 
1.66 9.597e-3 50.633 0.994 -0.428 0.994 -0.428 9.597e-3 50.633 
1.738 9.899e-3 51.699 0.994 -0.448 0.994 -0.448 9.899e-3 51.699 
1.82 0.01 52.75 0.994 -0.469 0.994 -0.469 0.01 52.75 
1.906 0.011 53.785 0.994 -0.491 0.994 -0.491 0.011 53.785 
1.996 0.011 54.803 0.994 -0.514 0.994 -0.514 0.011 54.803 
2.09 0.011 55.803 0.994 -0.538 0.994 -0.538 0.011 55.803 
2.189 0.012 56.784 0.994 -0.564 0.994 -0.564 0.012 56.784 
2.292 0.012 57.744 0.994 -0.59 0.994 -0.59 0.012 57.744 
2.4 0.013 58.683 0.994 -0.618 0.994 -0.618 0.013 58.683 
2.513 0.013 59.601 0.993 -0.647 0.993 -0.647 0.013 59.601 
2.632 0.014 60.496 0.993 -0.678 0.993 -0.678 0.014 60.496 
2.756 0.014 61.368 0.993 -0.71 0.993 -0.71 0.014 61.368 
2.886 0.015 62.217 0.993 -0.743 0.993 -0.743 0.015 62.217 
3.022 0.015 63.043 0.993 -0.778 0.993 -0.778 0.015 63.043 
3.164 0.016 63.844 0.993 -0.815 0.993 -0.815 0.016 63.844 
3.314 0.016 64.622 0.993 -0.853 0.993 -0.853 0.016 64.622 
3.47 0.017 65.375 0.993 -0.893 0.993 -0.893 0.017 65.375 
3.633 0.018 66.104 0.993 -0.935 0.993 -0.935 0.018 66.104 
3.805 0.018 66.809 0.993 -0.979 0.993 -0.979 0.018 66.809 
3.984 0.019 67.49 0.993 -1.025 0.993 -1.025 0.019 67.49 
4.172 0.02 68.147 0.993 -1.074 0.993 -1.074 0.02 68.147 
4.369 0.021 68.781 0.993 -1.124 0.993 -1.124 0.021 68.781 
4.575 0.022 69.391 0.993 -1.177 0.993 -1.177 0.022 69.391 
4.791 0.023 69.977 0.992 -1.232 0.992 -1.232 0.023 69.977 
5.016 0.024 70.541 0.992 -1.29 0.992 -1.29 0.024 70.541 
5.253 0.025 71.082 0.992 -1.351 0.992 -1.351 0.025 71.082 
5.501 0.026 71.601 0.992 -1.415 0.992 -1.415 0.026 71.601 
5.76 0.027 72.097 0.992 -1.481 0.992 -1.481 0.027 72.097 
6.032 0.028 72.572 0.992 -1.551 0.992 -1.551 0.028 72.572 
6.316 0.029 73.025 0.992 -1.624 0.992 -1.624 0.029 73.025 
6.614 0.031 73.458 0.992 -1.7 0.992 -1.7 0.031 73.458 
6.926 0.032 73.869 0.992 -1.78 0.992 -1.78 0.032 73.869 
7.253 0.034 74.26 0.991 -1.864 0.991 -1.864 0.034 74.26 
7.595 0.035 74.631 0.991 -1.952 0.991 -1.952 0.035 74.631 
7.953 0.037 74.982 0.991 -2.044 0.991 -2.044 0.037 74.982 
8.328 0.038 75.314 0.991 -2.14 0.991 -2.14 0.038 75.314 
8.72 0.04 75.626 0.991 -2.24 0.991 -2.24 0.04 75.626 
9.132 0.042 75.919 0.991 -2.345 0.991 -2.345 0.042 75.919 
9.562 0.044 76.193 0.99 -2.456 0.99 -2.456 0.044 76.193 
10.013 0.046 76.449 0.99 -2.571 0.99 -2.571 0.046 76.449 
10.485 0.048 76.687 0.99 -2.692 0.99 -2.692 0.048 76.687 
10.98 0.05 76.906 0.99 -2.818 0.99 -2.818 0.05 76.906 
11.498 0.052 77.108 0.99 -2.951 0.99 -2.951 0.052 77.108 
12.04 0.055 77.291 0.989 -3.089 0.989 -3.089 0.055 77.291 
12.608 0.057 77.457 0.989 -3.234 0.989 -3.234 0.057 77.457 
13.202 0.06 77.605 0.989 -3.386 0.989 -3.386 0.06 77.605 
13.825 0.063 77.736 0.989 -3.545 0.989 -3.545 0.063 77.736 
14.477 0.065 77.849 0.988 -3.711 0.988 -3.711 0.065 77.849 
15.159 0.068 77.945 0.988 -3.885 0.988 -3.885 0.068 77.945 
15.874 0.072 78.023 0.988 -4.067 0.988 -4.067 0.072 78.023 
16.623 0.075 78.084 0.987 -4.258 0.987 -4.258 0.075 78.084 
17.406 0.078 78.127 0.987 -4.457 0.987 -4.457 0.078 78.127 
18.227 0.082 78.152 0.986 -4.666 0.986 -4.666 0.082 78.152 
19.087 0.086 78.16 0.986 -4.884 0.986 -4.884 0.086 78.16 
19.987 0.09 78.149 0.985 -5.112 0.985 -5.112 0.09 78.149 
20.929 0.094 78.121 0.985 -5.351 0.985 -5.351 0.094 78.121 
21.916 0.098 78.074 0.984 -5.601 0.984 -5.601 0.098 78.074 
22.95 0.103 78.009 0.984 -5.863 0.984 -5.863 0.103 78.009 
24.032 0.107 77.925 0.983 -6.136 0.983 -6.136 0.107 77.925 
25.165 0.112 77.822 0.982 -6.422 0.982 -6.422 0.112 77.822 
26.352 0.118 77.7 0.982 -6.721 0.982 -6.721 0.118 77.7 
27.595 0.123 77.558 0.981 -7.034 0.981 -7.034 0.123 77.558 
28.896 0.129 77.396 0.98 -7.361 0.98 -7.361 0.129 77.396 
30.258 0.135 77.214 0.979 -7.703 0.979 -7.703 0.135 77.214 
31.685 0.141 77.011 0.978 -8.06 0.978 -8.06 0.141 77.011 
33.179 0.147 76.786 0.977 -8.433 0.977 -8.433 0.147 76.786 
34.744 0.154 76.54 0.976 -8.823 0.976 -8.823 0.154 76.54 
36.383 0.161 76.272 0.974 -9.231 0.974 -9.231 0.161 76.272 
38.098 0.168 75.98 0.973 -9.656 0.973 -9.656 0.168 75.98 
39.895 0.176 75.666 0.972 -10.1 0.972 -10.1 0.176 75.666 
41.776 0.184 75.328 0.97 -10.564 0.97 -10.564 0.184 75.328 
43.746 0.192 74.965 0.968 -11.048 0.968 -11.048 0.192 74.965 
45.809 0.201 74.577 0.966 -11.553 0.966 -11.553 0.201 74.577 
47.969 0.21 74.164 0.964 -12.08 0.964 -12.08 0.21 74.164 
50.231 0.219 73.725 0.962 -12.63 0.962 -12.63 0.219 73.725 
52.6 0.229 73.258 0.959 -13.202 0.959 -13.202 0.229 73.258 
55.08 0.239 72.765 0.957 -13.799 0.957 -13.799 0.239 72.765 
57.678 0.249 72.243 0.954 -14.42 0.954 -14.42 0.249 72.243 
60.397 0.26 71.693 0.951 -15.066 0.951 -15.066 0.26 71.693 
63.246 0.272 71.113 0.948 -15.739 0.948 -15.739 0.272 71.113 
66.228 0.283 70.503 0.944 -16.439 0.944 -16.439 0.283 70.503 
69.351 0.296 69.864 0.94 -17.166 0.94 -17.166 0.296 69.864 
72.621 0.308 69.193 0.936 -17.921 0.936 -17.921 0.308 69.193 
76.046 0.321 68.491 0.931 -18.704 0.931 -18.704 0.321 68.491 
79.632 0.334 67.758 0.927 -19.517 0.927 -19.517 0.334 67.758 
83.387 0.348 66.992 0.921 -20.359 0.921 -20.359 0.348 66.992 
87.319 0.362 66.195 0.916 -21.231 0.916 -21.231 0.362 66.195 
91.437 0.377 65.365 0.91 -22.133 0.91 -22.133 0.377 65.365 
95.749 0.392 64.502 0.903 -23.065 0.903 -23.065 0.392 64.502 
100.264 0.408 63.608 0.897 -24.028 0.897 -24.028 0.408 63.608 
104.992 0.423 62.681 0.889 -25.02 0.889 -25.02 0.423 62.681 
109.943 0.439 61.722 0.881 -26.042 0.881 -26.042 0.439 61.722 
115.127 0.456 60.732 0.873 -27.093 0.873 -27.093 0.456 60.732 
120.556 0.472 59.712 0.864 -28.173 0.864 -28.173 0.472 59.712 
126.241 0.489 58.661 0.855 -29.281 0.855 -29.281 0.489 58.661 
132.194 0.507 57.582 0.845 -30.416 0.845 -30.416 0.507 57.582 
138.428 0.524 56.476 0.834 -31.577 0.834 -31.577 0.524 56.476 
144.956 0.541 55.343 0.823 -32.763 0.823 -32.763 0.541 55.343 
151.791 0.559 54.185 0.811 -33.971 0.811 -33.971 0.559 54.185 
158.949 0.577 53.004 0.799 -35.201 0.799 -35.201 0.577 53.004 
166.445 0.594 51.802 0.786 -36.451 0.786 -36.451 0.594 51.802 
174.294 0.612 50.582 0.773 -37.718 0.773 -37.718 0.612 50.582 
182.513 0.63 49.344 0.759 -39 0.759 -39 0.63 49.344 
191.119 0.647 48.093 0.745 -40.296 0.745 -40.296 0.647 48.093 
200.132 0.664 46.829 0.73 -41.602 0.73 -41.602 0.664 46.829 
209.569 0.681 45.556 0.714 -42.916 0.714 -42.916 0.681 45.556 
219.452 0.698 44.276 0.698 -44.235 0.698 -44.235 0.698 44.276 
229.8 0.714 42.993 0.682 -45.557 0.682 -45.557 0.714 42.993 
240.637 0.73 41.708 0.666 -46.879 0.666 -46.879 0.73 41.708 
251.984 0.746 40.425 0.649 -48.199 0.649 -48.199 0.746 40.425 
263.867 0.761 39.146 0.631 -49.513 0.631 -49.513 0.761 39.146 
276.31 0.775 37.873 0.614 -50.82 0.614 -50.82 0.775 37.873 
289.339 0.789 36.61 0.597 -52.116 0.597 -52.116 0.789 36.61 
302.984 0.803 35.359 0.579 -53.399 0.579 -53.399 0.803 35.359 
317.271 0.816 34.121 0.561 -54.667 0.561 -54.667 0.816 34.121 
332.232 0.828 32.9 0.543 -55.919 0.543 -55.919 0.828 32.9 
347.899 0.84 31.696 0.526 -57.151 0.526 -57.151 0.84 31.696 
364.305 0.852 30.513 0.508 -58.363 0.508 -58.363 0.852 30.513 
381.484 0.862 29.35 0.49 -59.552 0.49 -59.552 0.862 29.35 
399.473 0.872 28.211 0.473 -60.718 0.473 -60.718 0.872 28.211 
418.311 0.882 27.095 0.456 -61.859 0.456 -61.859 0.882 27.095 
438.037 0.891 26.004 0.438 -62.974 0.438 -62.974 0.891 26.004 
458.693 0.899 24.938 0.422 -64.062 0.422 -64.062 0.899 24.938 
480.323 0.907 23.9 0.405 -65.124 0.405 -65.124 0.907 23.9 
502.973 0.915 22.887 0.389 -66.157 0.389 -66.157 0.915 22.887 
526.692 0.922 21.902 0.373 -67.163 0.373 -67.163 0.922 21.902 
551.528 0.928 20.944 0.358 -68.14 0.358 -68.14 0.928 20.944 
577.536 0.934 20.014 0.342 -69.09 0.342 -69.09 0.934 20.014 
604.771 0.94 19.11 0.327 -70.011 0.327 -70.011 0.94 19.11 
633.289 0.945 18.233 0.313 -70.904 0.313 -70.904 0.945 18.233 
663.153 0.95 17.383 0.299 -71.769 0.299 -71.769 0.95 17.383 
694.425 0.954 16.559 0.285 -72.608 0.285 -72.608 0.954 16.559 
727.171 0.959 15.761 0.272 -73.42 0.272 -73.42 0.959 15.761 
761.462 0.962 14.987 0.259 -74.205 0.259 -74.205 0.962 14.987 
797.369 0.966 14.237 0.246 -74.965 0.246 -74.965 0.966 14.237 
834.97 0.969 13.512 0.234 -75.699 0.234 -75.699 0.969 13.512 
874.344 0.972 12.809 0.222 -76.41 0.222 -76.41 0.972 12.809 
915.575 0.975 12.128 0.21 -77.096 0.21 -77.096 0.975 12.128 
958.75 0.977 11.468 0.199 -77.759 0.199 -77.759 0.977 11.468 
1003.961 0.98 10.828 0.188 -78.4 0.188 -78.4 0.98 10.828 
1051.303 0.982 10.208 0.177 -79.019 0.177 -79.019 0.982 10.208 
1100.879 0.984 9.607 0.167 -79.616 0.167 -79.616 0.984 9.607 
1152.792 0.985 9.023 0.157 -80.192 0.157 -80.192 0.985 9.023 
1207.153 0.987 8.456 0.147 -80.747 0.147 -80.747 0.987 8.456 
1264.078 0.989 7.904 0.138 -81.281 0.138 -81.281 0.989 7.904 
1323.687 0.99 7.368 0.128 -81.795 0.128 -81.795 0.99 7.368 
1386.107 0.991 6.846 0.119 -82.288 0.119 -82.288 0.991 6.846 
1451.471 0.992 6.337 0.11 -82.76 0.11 -82.76 0.992 6.337 
1519.916 0.993 5.84 0.102 -83.209 0.102 -83.209 0.993 5.84 
1591.59 0.994 5.354 0.093 -83.633 0.093 -83.633 0.994 5.354 
1666.643 0.995 4.879 0.085 -84.031 0.085 -84.031 0.995 4.879 
1745.235 0.995 4.414 0.077 -84.397 0.077 -84.397 0.995 4.414 
1827.534 0.996 3.957 0.069 -84.725 0.069 -84.725 0.996 3.957 
1913.713 0.997 3.508 0.061 -85.005 0.061 -85.005 0.997 3.508 
2003.957 0.997 3.066 0.054 -85.221 0.054 -85.221 0.997 3.066 
2098.456 0.997 2.63 0.046 -85.346 0.046 -85.346 0.997 2.63 
2197.411 0.998 2.2 0.038 -85.332 0.038 -85.332 0.998 2.2 
2301.032 0.998 1.774 0.031 -85.082 0.031 -85.082 0.998 1.774 
2409.54 0.998 1.351 0.024 -84.385 0.024 -84.385 0.998 1.351 
2523.164 0.998 0.931 0.016 -82.65 0.016 -82.65 0.998 0.931 
2642.147 0.998 0.514 9.165e-3 -77.438 9.165e-3 -77.438 0.998 0.514 
2766.741 0.998 0.097 2.628e-3 -39.942 2.628e-3 -39.942 0.998 0.097 
2897.209 0.998 -0.319 5.968e-3 68.803 5.968e-3 68.803 0.998 -0.319 
3033.831 0.998 -0.736 0.013 79.298 0.013 79.298 0.998 -0.736 
3176.894 0.997 -1.154 0.02 82.033 0.02 82.033 0.997 -1.154 
3326.704 0.997 -1.575 0.028 83.072 0.028 83.072 0.997 -1.575 
3483.579 0.997 -1.998 0.035 83.469 0.035 83.469 0.997 -1.998 
3647.851 0.996 -2.425 0.042 83.553 0.042 83.553 0.996 -2.425 
3819.87 0.996 -2.857 0.05 83.458 0.05 83.458 0.996 -2.857 
4000 0.995 -3.293 0.058 83.249 0.058 83.249 0.995 -3.293 
