# MHz S MA R 50

1 1.395e-3 42.405 0.999 -0.054 0.999 -0.054 1.395e-3 42.405 
1.047 1.429e-3 43.562 0.999 -0.056 0.999 -0.056 1.429e-3 43.562 
1.097 1.466e-3 44.718 0.999 -0.059 0.999 -0.059 1.466e-3 44.718 
1.149 1.505e-3 45.871 0.999 -0.062 0.999 -0.062 1.505e-3 45.871 
1.203 1.547e-3 47.02 0.999 -0.065 0.999 -0.065 1.547e-3 47.02 
1.26 1.591e-3 48.162 0.999 -0.068 0.999 -0.068 1.591e-3 48.162 
1.32 1.637e-3 49.296 0.999 -0.071 0.999 -0.071 1.637e-3 49.296 
1.382 1.686e-3 50.42 0.999 -0.075 0.999 -0.075 1.686e-3 50.42 
1.447 1.738e-3 51.533 0.999 -0.078 0.999 -0.078 1.738e-3 51.533 
1.516 1.794e-3 52.632 0.999 -0.082 0.999 -0.082 1.794e-3 52.632 
1.588 1.852e-3 53.716 0.999 -0.086 0.999 -0.086 1.852e-3 53.716 
1.663 1.914e-3 54.784 0.999 -0.09 0.999 -0.09 1.914e-3 54.784 
1.741 1.979e-3 55.835 0.999 -0.094 0.999 -0.094 1.979e-3 55.835 
1.824 2.048e-3 56.868 0.999 -0.098 0.999 -0.098 2.048e-3 56.868 
1.91 2.121e-3 57.881 0.999 -0.103 0.999 -0.103 2.121e-3 57.881 
2 2.197e-3 58.873 0.999 -0.108 0.999 -0.108 2.197e-3 58.873 
2.095 2.278e-3 59.845 0.999 -0.113 0.999 -0.113 2.278e-3 59.845 
2.194 2.363e-3 60.794 0.999 -0.118 0.999 -0.118 2.363e-3 60.794 
2.298 2.453e-3 61.722 0.999 -0.124 0.999 -0.124 2.453e-3 61.722 
2.406 2.548e-3 62.626 0.999 -0.13 0.999 -0.13 2.548e-3 62.626 
2.52 2.648e-3 63.507 0.999 -0.136 0.999 -0.136 2.648e-3 63.507 
2.639 2.753e-3 64.365 0.999 -0.142 0.999 -0.142 2.753e-3 64.365 
2.764 2.863e-3 65.199 0.999 -0.149 0.999 -0.149 2.863e-3 65.199 
2.895 2.979e-3 66.01 0.999 -0.156 0.999 -0.156 2.979e-3 66.01 
3.032 3.102e-3 66.797 0.999 -0.164 0.999 -0.164 3.102e-3 66.797 
3.175 3.23e-3 67.561 0.999 -0.171 0.999 -0.171 3.23e-3 67.561 
3.326 3.365e-3 68.301 0.999 -0.179 0.999 -0.179 3.365e-3 68.301 
3.483 3.507e-3 69.018 0.999 -0.188 0.999 -0.188 3.507e-3 69.018 
3.648 3.656e-3 69.712 0.999 -0.197 0.999 -0.197 3.656e-3 69.712 
3.82 3.813e-3 70.384 0.999 -0.206 0.999 -0.206 3.813e-3 70.384 
4.001 3.977e-3 71.034 0.999 -0.216 0.999 -0.216 3.977e-3 71.034 
4.19 4.15e-3 71.662 0.999 -0.226 0.999 -0.226 4.15e-3 71.662 
4.388 4.331e-3 72.268 0.999 -0.237 0.999 -0.237 4.331e-3 72.268 
4.596 4.521e-3 72.853 0.999 -0.248 0.999 -0.248 4.521e-3 72.853 
4.813 4.721e-3 73.418 0.999 -0.26 0.999 -0.26 4.721e-3 73.418 
5.041 4.93e-3 73.963 0.999 -0.272 0.999 -0.272 4.93e-3 73.963 
5.28 5.15e-3 74.488 0.999 -0.285 0.999 -0.285 5.15e-3 74.488 
5.529 5.38e-3 74.995 0.999 -0.298 0.999 -0.298 5.38e-3 74.995 
5.791 5.622e-3 75.482 0.999 -0.312 0.999 -0.312 5.622e-3 75.482 
6.065 5.876e-3 75.952 0.999 -0.327 0.999 -0.327 5.876e-3 75.952 
6.352 6.141e-3 76.403 0.999 -0.343 0.999 -0.343 6.141e-3 76.403 
6.652 6.42e-3 76.838 0.999 -0.359 0.999 -0.359 6.42e-3 76.838 
6.967 6.712e-3 77.256 0.999 -0.376 0.999 -0.376 6.712e-3 77.256 
7.296 7.019e-3 77.658 0.999 -0.393 0.999 -0.393 7.019e-3 77.658 
7.642 7.34e-3 78.043 0.999 -0.412 0.999 -0.412 7.34e-3 78.043 
8.003 7.676e-3 78.414 0.998 -0.432 0.998 -0.432 7.676e-3 78.414 
8.382 8.029e-3 78.77 0.998 -0.452 0.998 -0.452 8.029e-3 78.77 
8.778 8.399e-3 79.111 0.998 -0.473 0.998 -0.473 8.399e-3 79.111 
9.193 8.786e-3 79.439 0.998 -0.496 0.998 -0.496 8.786e-3 79.439 
9.628 9.192e-3 79.752 0.998 -0.519 0.998 -0.519 9.192e-3 79.752 
10.084 9.617e-3 80.053 0.998 -0.544 0.998 -0.544 9.617e-3 80.053 
10.561 0.01 80.341 0.998 -0.569 0.998 -0.569 0.01 80.341 
11.06 0.011 80.616 0.998 -0.596 0.998 -0.596 0.011 80.616 
11.583 0.011 80.879 0.998 -0.624 0.998 -0.624 0.011 80.879 
12.131 0.012 81.13 0.998 -0.654 0.998 -0.654 0.012 81.13 
12.705 0.012 81.37 0.998 -0.685 0.998 -0.685 0.012 81.37 
13.306 0.013 81.599 0.998 -0.717 0.998 -0.717 0.013 81.599 
13.935 0.013 81.817 0.998 -0.751 0.998 -0.751 0.013 81.817 
14.595 0.014 82.024 0.998 -0.787 0.998 -0.787 0.014 82.024 
15.285 0.014 82.221 0.998 -0.824 0.998 -0.824 0.014 82.221 
16.008 0.015 82.408 0.998 -0.863 0.998 -0.863 0.015 82.408 
16.765 0.016 82.584 0.998 -0.904 0.998 -0.904 0.016 82.584 
17.558 0.017 82.752 0.998 -0.946 0.998 -0.946 0.017 82.752 
18.389 0.017 82.909 0.998 -0.991 0.998 -0.991 0.017 82.909 
19.259 0.018 83.058 0.998 -1.038 0.998 -1.038 0.018 83.058 
20.17 0.019 83.197 0.998 -1.087 0.998 -1.087 0.019 83.197 
21.124 0.02 83.327 0.998 -1.138 0.998 -1.138 0.02 83.327 
22.123 0.021 83.449 0.998 -1.192 0.998 -1.192 0.021 83.449 
23.169 0.022 83.562 0.998 -1.249 0.998 -1.249 0.022 83.562 
24.265 0.023 83.666 0.998 -1.308 0.998 -1.308 0.023 83.666 
25.413 0.024 83.762 0.998 -1.369 0.998 -1.369 0.024 83.762 
26.615 0.025 83.849 0.998 -1.434 0.998 -1.434 0.025 83.849 
27.874 0.026 83.928 0.998 -1.502 0.998 -1.502 0.026 83.928 
29.193 0.028 83.999 0.997 -1.573 0.997 -1.573 0.028 83.999 
30.574 0.029 84.061 0.997 -1.647 0.997 -1.647 0.029 84.061 
32.02 0.03 84.116 0.997 -1.725 0.997 -1.725 0.03 84.116 
33.535 0.032 84.162 0.997 -1.806 0.997 -1.806 0.032 84.162 
35.121 0.033 84.2 0.997 -1.892 0.997 -1.892 0.033 84.2 
36.782 0.035 84.229 0.997 -1.981 0.997 -1.981 0.035 84.229 
38.522 0.036 84.251 0.997 -2.075 0.997 -2.075 0.036 84.251 
40.344 0.038 84.264 0.997 -2.173 0.997 -2.173 0.038 84.264 
42.253 0.04 84.269 0.997 -2.275 0.997 -2.275 0.04 84.269 
44.252 0.042 84.265 0.997 -2.383 0.997 -2.383 0.042 84.265 
46.345 0.044 84.253 0.997 -2.495 0.997 -2.495 0.044 84.253 
48.537 0.046 84.232 0.996 -2.613 0.996 -2.613 0.046 84.232 
50.833 0.048 84.202 0.996 -2.736 0.996 -2.736 0.048 84.202 
53.237 0.05 84.164 0.996 -2.865 0.996 -2.865 0.05 84.164 
55.756 0.052 84.116 0.996 -3 0.996 -3 0.052 84.116 
58.393 0.055 84.059 0.996 -3.142 0.996 -3.142 0.055 84.059 
61.155 0.057 83.993 0.996 -3.29 0.996 -3.29 0.057 83.993 
64.048 0.06 83.917 0.995 -3.445 0.995 -3.445 0.06 83.917 
67.078 0.063 83.831 0.995 -3.608 0.995 -3.608 0.063 83.831 
70.251 0.066 83.735 0.995 -3.778 0.995 -3.778 0.066 83.735 
73.574 0.069 83.629 0.995 -3.956 0.995 -3.956 0.069 83.629 
77.054 0.072 83.512 0.994 -4.142 0.994 -4.142 0.072 83.512 
80.699 0.076 83.384 0.994 -4.337 0.994 -4.337 0.076 83.384 
84.516 0.079 83.245 0.994 -4.542 0.994 -4.542 0.079 83.245 
88.514 0.083 83.094 0.993 -4.755 0.993 -4.755 0.083 83.094 
92.701 0.087 82.931 0.993 -4.979 0.993 -4.979 0.087 82.931 
97.086 0.091 82.756 0.993 -5.213 0.993 -5.213 0.091 82.756 
101.679 0.095 82.569 0.992 -5.458 0.992 -5.458 0.095 82.569 
106.488 0.1 82.368 0.992 -5.715 0.992 -5.715 0.1 82.368 
111.526 0.104 82.153 0.991 -5.983 0.991 -5.983 0.104 82.153 
116.801 0.109 81.924 0.991 -6.264 0.991 -6.264 0.109 81.924 
122.326 0.114 81.681 0.99 -6.557 0.99 -6.557 0.114 81.681 
128.112 0.12 81.422 0.989 -6.865 0.989 -6.865 0.12 81.422 
134.172 0.125 81.148 0.989 -7.186 0.989 -7.186 0.125 81.148 
140.519 0.131 80.858 0.988 -7.522 0.988 -7.522 0.131 80.858 
147.166 0.137 80.551 0.987 -7.874 0.987 -7.874 0.137 80.551 
154.128 0.143 80.227 0.986 -8.241 0.986 -8.241 0.143 80.227 
161.418 0.15 79.884 0.985 -8.625 0.985 -8.625 0.15 79.884 
169.054 0.157 79.523 0.984 -9.027 0.984 -9.027 0.157 79.523 
177.051 0.164 79.142 0.982 -9.447 0.982 -9.447 0.164 79.142 
185.426 0.172 78.742 0.981 -9.885 0.981 -9.885 0.172 78.742 
194.197 0.18 78.321 0.98 -10.344 0.98 -10.344 0.18 78.321 
203.383 0.188 77.878 0.978 -10.822 0.978 -10.822 0.188 77.878 
213.003 0.196 77.413 0.976 -11.322 0.976 -11.322 0.196 77.413 
223.079 0.205 76.925 0.974 -11.844 0.974 -11.844 0.205 76.925 
233.631 0.215 76.413 0.972 -12.388 0.972 -12.388 0.215 76.413 
244.683 0.224 75.876 0.97 -12.956 0.97 -12.956 0.224 75.876 
256.257 0.234 75.315 0.968 -13.549 0.968 -13.549 0.234 75.315 
268.379 0.245 74.727 0.965 -14.167 0.965 -14.167 0.245 74.727 
281.074 0.256 74.112 0.962 -14.81 0.962 -14.81 0.256 74.112 
294.369 0.267 73.469 0.959 -15.481 0.959 -15.481 0.267 73.469 
308.294 0.279 72.799 0.955 -16.179 0.955 -16.179 0.279 72.799 
322.877 0.291 72.098 0.952 -16.906 0.952 -16.906 0.291 72.098 
338.15 0.303 71.368 0.948 -17.662 0.948 -17.662 0.303 71.368 
354.145 0.316 70.607 0.943 -18.447 0.943 -18.447 0.316 70.607 
370.898 0.33 69.816 0.939 -19.263 0.939 -19.263 0.33 69.816 
388.442 0.344 68.992 0.934 -20.111 0.934 -20.111 0.344 68.992 
406.817 0.358 68.136 0.928 -20.989 0.928 -20.989 0.358 68.136 
426.06 0.373 67.247 0.922 -21.9 0.922 -21.9 0.373 67.247 
446.214 0.388 66.325 0.916 -22.843 0.916 -22.843 0.388 66.325 
467.321 0.404 65.37 0.909 -23.819 0.909 -23.819 0.404 65.37 
489.427 0.42 64.381 0.902 -24.828 0.902 -24.828 0.42 64.381 
512.578 0.436 63.359 0.894 -25.87 0.894 -25.87 0.436 63.359 
536.825 0.453 62.304 0.885 -26.944 0.885 -26.944 0.453 62.304 
562.218 0.47 61.215 0.877 -28.05 0.877 -28.05 0.47 61.215 
588.812 0.488 60.094 0.867 -29.189 0.867 -29.189 0.488 60.094 
616.665 0.505 58.941 0.857 -30.359 0.857 -30.359 0.505 58.941 
645.835 0.523 57.757 0.846 -31.56 0.846 -31.56 0.523 57.757 
676.385 0.542 56.542 0.834 -32.79 0.834 -32.79 0.542 56.542 
708.38 0.56 55.299 0.822 -34.049 0.822 -34.049 0.56 55.299 
741.888 0.578 54.028 0.809 -35.334 0.809 -35.334 0.578 54.028 
776.982 0.597 52.73 0.796 -36.646 0.796 -36.646 0.597 52.73 
813.735 0.615 51.409 0.782 -37.981 0.782 -37.981 0.615 51.409 
852.227 0.634 50.064 0.767 -39.338 0.767 -39.338 0.634 50.064 
892.54 0.652 48.7 0.751 -40.715 0.751 -40.715 0.652 48.7 
934.76 0.671 47.316 0.735 -42.11 0.735 -42.11 0.671 47.316 
978.976 0.689 45.917 0.718 -43.52 0.718 -43.52 0.689 45.917 
1025.285 0.706 44.505 0.701 -44.943 0.701 -44.943 0.706 44.505 
1073.784 0.724 43.081 0.683 -46.376 0.683 -46.376 0.724 43.081 
1124.577 0.741 41.648 0.665 -47.817 0.665 -47.817 0.741 41.648 
1177.773 0.758 40.21 0.646 -49.263 0.646 -49.263 0.758 40.21 
1233.485 0.774 38.767 0.626 -50.712 0.626 -50.712 0.774 38.767 
1291.832 0.79 37.324 0.606 -52.161 0.606 -52.161 0.79 37.324 
1352.939 0.805 35.882 0.586 -53.608 0.586 -53.608 0.805 35.882 
1416.937 0.82 34.444 0.566 -55.05 0.566 -55.05 0.82 34.444 
1483.962 0.834 33.011 0.545 -56.485 0.545 -56.485 0.834 33.011 
1554.158 0.847 31.587 0.524 -57.91 0.524 -57.91 0.847 31.587 
1627.674 0.86 30.172 0.503 -59.324 0.503 -59.324 0.86 30.172 
1704.668 0.872 28.768 0.481 -60.724 0.481 -60.724 0.872 28.768 
1785.304 0.884 27.377 0.46 -62.11 0.46 -62.11 0.884 27.377 
1869.754 0.895 26.001 0.438 -63.479 0.438 -63.479 0.895 26.001 
1958.198 0.905 24.639 0.417 -64.83 0.417 -64.83 0.905 24.639 
2050.827 0.915 23.294 0.395 -66.161 0.395 -66.161 0.915 23.294 
2147.837 0.924 21.965 0.374 -67.471 0.374 -67.471 0.924 21.965 
2249.436 0.932 20.653 0.353 -68.759 0.353 -68.759 0.932 20.653 
2355.841 0.94 19.359 0.332 -70.024 0.332 -70.024 0.94 19.359 
2467.279 0.947 18.082 0.31 -71.264 0.31 -71.264 0.947 18.082 
2583.988 0.954 16.823 0.289 -72.477 0.289 -72.477 0.954 16.823 
2706.218 0.96 15.58 0.269 -73.663 0.269 -73.663 0.96 15.58 
2834.23 0.965 14.354 0.248 -74.818 0.248 -74.818 0.965 14.354 
2968.297 0.97 13.144 0.227 -75.939 0.227 -75.939 0.97 13.144 
3108.706 0.975 11.948 0.207 -77.022 0.207 -77.022 0.975 11.948 
3255.757 0.979 10.767 0.187 -78.059 0.187 -78.059 0.979 10.767 
3409.764 0.982 9.6 0.167 -79.039 0.167 -79.039 0.982 9.6 
3571.055 0.985 8.444 0.147 -79.947 0.147 -79.947 0.985 8.444 
3739.976 0.988 7.3 0.127 -80.755 0.127 -80.755 0.988 7.3 
3916.888 0.99 6.166 0.107 -81.415 0.107 -81.415 0.99 6.166 
4102.168 0.991 5.04 0.088 -81.836 0.088 -81.836 0.991 5.04 
4296.213 0.993 3.921 0.069 -81.823 0.069 -81.823 0.993 3.921 
4499.436 0.993 2.809 0.049 -80.878 0.049 -80.878 0.993 2.809 
4712.272 0.994 1.701 0.03 -77.253 0.03 -77.253 0.994 1.701 
4935.176 0.994 0.597 0.012 -58.577 0.012 -58.577 0.994 0.597 
5168.624 0.993 -0.506 0.011 52.39 0.011 52.39 0.993 -0.506 
5413.115 0.992 -1.608 0.029 74.007 0.029 74.007 0.992 -1.608 
5669.171 0.991 -2.711 0.048 77.96 0.048 77.96 0.991 -2.711 
5937.339 0.989 -3.816 0.067 78.989 0.067 78.989 0.989 -3.816 
6218.192 0.987 -4.924 0.086 79.027 0.086 79.027 0.987 -4.924 
6512.33 0.985 -6.036 0.106 78.607 0.106 78.607 0.985 -6.036 
6820.382 0.982 -7.154 0.125 77.937 0.125 77.937 0.982 -7.154 
7143.006 0.978 -8.279 0.144 77.111 0.144 77.111 0.978 -8.279 
7480.891 0.974 -9.411 0.164 76.179 0.164 76.179 0.974 -9.411 
7834.759 0.969 -10.551 0.184 75.17 0.184 75.17 0.969 -10.551 
8205.365 0.964 -11.7 0.203 74.102 0.203 74.102 0.964 -11.7 
8593.503 0.959 -12.859 0.223 72.985 0.223 72.985 0.959 -12.859 
9000 0.953 -14.027 0.243 71.826 0.243 71.826 0.953 -14.027 
