# MHz S MA R 50

1 3.628e-3 42.213 0.997 -0.14 0.997 -0.14 3.628e-3 42.213 
1.047 3.72e-3 43.333 0.997 -0.147 0.997 -0.147 3.72e-3 43.333 
1.097 3.818e-3 44.452 0.997 -0.154 0.997 -0.154 3.818e-3 44.452 
1.149 3.921e-3 45.568 0.997 -0.161 0.997 -0.161 3.921e-3 45.568 
1.203 4.031e-3 46.679 0.997 -0.168 0.997 -0.168 4.031e-3 46.679 
1.26 4.147e-3 47.784 0.997 -0.176 0.997 -0.176 4.147e-3 47.784 
1.32 4.27e-3 48.881 0.997 -0.185 0.997 -0.185 4.27e-3 48.881 
1.383 4.4e-3 49.967 0.997 -0.194 0.997 -0.194 4.4e-3 49.967 
1.448 4.537e-3 51.043 0.997 -0.203 0.997 -0.203 4.537e-3 51.043 
1.517 4.682e-3 52.106 0.997 -0.212 0.997 -0.212 4.682e-3 52.106 
1.588 4.836e-3 53.155 0.997 -0.222 0.997 -0.222 4.836e-3 53.155 
1.664 4.998e-3 54.188 0.997 -0.233 0.997 -0.233 4.998e-3 54.188 
1.742 5.169e-3 55.205 0.997 -0.244 0.997 -0.244 5.169e-3 55.205 
1.825 5.349e-3 56.204 0.997 -0.255 0.997 -0.255 5.349e-3 56.204 
1.911 5.54e-3 57.184 0.997 -0.268 0.997 -0.268 5.54e-3 57.184 
2.002 5.741e-3 58.145 0.997 -0.28 0.997 -0.28 5.741e-3 58.145 
2.097 5.952e-3 59.086 0.997 -0.293 0.997 -0.293 5.952e-3 59.086 
2.196 6.175e-3 60.006 0.997 -0.307 0.997 -0.307 6.175e-3 60.006 
2.3 6.41e-3 60.905 0.997 -0.322 0.997 -0.322 6.41e-3 60.905 
2.409 6.657e-3 61.782 0.997 -0.337 0.997 -0.337 6.657e-3 61.782 
2.523 6.918e-3 62.636 0.997 -0.353 0.997 -0.353 6.918e-3 62.636 
2.643 7.192e-3 63.468 0.997 -0.37 0.997 -0.37 7.192e-3 63.468 
2.768 7.48e-3 64.278 0.997 -0.387 0.997 -0.387 7.48e-3 64.278 
2.899 7.783e-3 65.065 0.997 -0.406 0.997 -0.406 7.783e-3 65.065 
3.036 8.101e-3 65.829 0.997 -0.425 0.997 -0.425 8.101e-3 65.829 
3.18 8.436e-3 66.57 0.997 -0.445 0.997 -0.445 8.436e-3 66.57 
3.331 8.788e-3 67.289 0.997 -0.466 0.997 -0.466 8.788e-3 67.289 
3.488 9.158e-3 67.985 0.997 -0.488 0.997 -0.488 9.158e-3 67.985 
3.653 9.546e-3 68.659 0.997 -0.511 0.997 -0.511 9.546e-3 68.659 
3.826 9.953e-3 69.31 0.997 -0.535 0.997 -0.535 9.953e-3 69.31 
4.008 0.01 69.94 0.996 -0.561 0.996 -0.561 0.01 69.94 
4.198 0.011 70.549 0.996 -0.587 0.996 -0.587 0.011 70.549 
4.396 0.011 71.136 0.996 -0.615 0.996 -0.615 0.011 71.136 
4.605 0.012 71.702 0.996 -0.644 0.996 -0.644 0.012 71.702 
4.823 0.012 72.248 0.996 -0.675 0.996 -0.675 0.012 72.248 
5.051 0.013 72.774 0.996 -0.707 0.996 -0.707 0.013 72.774 
5.29 0.013 73.279 0.996 -0.74 0.996 -0.74 0.013 73.279 
5.541 0.014 73.766 0.996 -0.775 0.996 -0.775 0.014 73.766 
5.803 0.015 74.234 0.996 -0.812 0.996 -0.812 0.015 74.234 
6.078 0.015 74.683 0.996 -0.85 0.996 -0.85 0.015 74.683 
6.366 0.016 75.114 0.996 -0.89 0.996 -0.89 0.016 75.114 
6.667 0.017 75.527 0.996 -0.932 0.996 -0.932 0.017 75.527 
6.983 0.017 75.923 0.996 -0.976 0.996 -0.976 0.017 75.923 
7.314 0.018 76.301 0.996 -1.023 0.996 -1.023 0.018 76.301 
7.66 0.019 76.663 0.996 -1.071 0.996 -1.071 0.019 76.663 
8.023 0.02 77.009 0.996 -1.122 0.996 -1.122 0.02 77.009 
8.403 0.021 77.339 0.996 -1.175 0.996 -1.175 0.021 77.339 
8.801 0.022 77.653 0.996 -1.23 0.996 -1.23 0.022 77.653 
9.218 0.023 77.952 0.995 -1.288 0.995 -1.288 0.023 77.952 
9.655 0.024 78.236 0.995 -1.349 0.995 -1.349 0.024 78.236 
10.112 0.025 78.505 0.995 -1.413 0.995 -1.413 0.025 78.505 
10.591 0.026 78.759 0.995 -1.48 0.995 -1.48 0.026 78.759 
11.092 0.027 78.999 0.995 -1.55 0.995 -1.55 0.027 78.999 
11.618 0.029 79.226 0.995 -1.623 0.995 -1.623 0.029 79.226 
12.168 0.03 79.438 0.995 -1.7 0.995 -1.7 0.03 79.438 
12.744 0.031 79.637 0.995 -1.78 0.995 -1.78 0.031 79.637 
13.348 0.033 79.823 0.995 -1.864 0.995 -1.864 0.033 79.823 
13.98 0.034 79.995 0.995 -1.953 0.995 -1.953 0.034 79.995 
14.642 0.036 80.154 0.994 -2.045 0.994 -2.045 0.036 80.154 
15.335 0.038 80.301 0.994 -2.141 0.994 -2.141 0.038 80.301 
16.062 0.039 80.434 0.994 -2.243 0.994 -2.243 0.039 80.434 
16.822 0.041 80.555 0.994 -2.349 0.994 -2.349 0.041 80.555 
17.619 0.043 80.663 0.994 -2.459 0.994 -2.459 0.043 80.663 
18.454 0.045 80.758 0.994 -2.576 0.994 -2.576 0.045 80.758 
19.328 0.047 80.841 0.994 -2.697 0.994 -2.697 0.047 80.841 
20.243 0.05 80.911 0.993 -2.825 0.993 -2.825 0.05 80.911 
21.202 0.052 80.968 0.993 -2.958 0.993 -2.958 0.052 80.968 
22.206 0.054 81.013 0.993 -3.097 0.993 -3.097 0.054 81.013 
23.258 0.057 81.045 0.993 -3.244 0.993 -3.244 0.057 81.045 
24.359 0.06 81.064 0.992 -3.397 0.992 -3.397 0.06 81.064 
25.513 0.062 81.07 0.992 -3.557 0.992 -3.557 0.062 81.07 
26.721 0.065 81.063 0.992 -3.724 0.992 -3.724 0.065 81.063 
27.987 0.068 81.043 0.992 -3.9 0.992 -3.9 0.068 81.043 
29.312 0.071 81.01 0.991 -4.084 0.991 -4.084 0.071 81.01 
30.7 0.075 80.963 0.991 -4.276 0.991 -4.276 0.075 80.963 
32.154 0.078 80.902 0.991 -4.477 0.991 -4.477 0.078 80.902 
33.677 0.082 80.827 0.99 -4.688 0.99 -4.688 0.082 80.827 
35.272 0.086 80.738 0.99 -4.908 0.99 -4.908 0.086 80.738 
36.943 0.09 80.635 0.989 -5.139 0.989 -5.139 0.09 80.635 
38.693 0.094 80.516 0.989 -5.38 0.989 -5.38 0.094 80.516 
40.525 0.098 80.383 0.988 -5.633 0.988 -5.633 0.098 80.383 
42.444 0.103 80.233 0.988 -5.897 0.988 -5.897 0.103 80.233 
44.455 0.108 80.068 0.987 -6.174 0.987 -6.174 0.108 80.068 
46.56 0.113 79.887 0.986 -6.463 0.986 -6.463 0.113 79.887 
48.765 0.118 79.689 0.986 -6.766 0.986 -6.766 0.118 79.689 
51.075 0.124 79.474 0.985 -7.082 0.985 -7.082 0.124 79.474 
53.494 0.129 79.24 0.984 -7.413 0.984 -7.413 0.129 79.24 
56.027 0.135 78.989 0.983 -7.759 0.983 -7.759 0.135 78.989 
58.681 0.141 78.719 0.982 -8.121 0.982 -8.121 0.141 78.719 
61.46 0.148 78.43 0.981 -8.499 0.981 -8.499 0.148 78.43 
64.371 0.155 78.121 0.98 -8.895 0.98 -8.895 0.155 78.121 
67.42 0.162 77.791 0.979 -9.308 0.979 -9.308 0.162 77.791 
70.613 0.169 77.441 0.977 -9.739 0.977 -9.739 0.169 77.441 
73.957 0.177 77.069 0.976 -10.19 0.976 -10.19 0.177 77.069 
77.46 0.185 76.674 0.974 -10.66 0.974 -10.66 0.185 76.674 
81.128 0.194 76.256 0.972 -11.151 0.972 -11.151 0.194 76.256 
84.971 0.202 75.815 0.97 -11.664 0.97 -11.664 0.202 75.815 
88.995 0.211 75.349 0.968 -12.199 0.968 -12.199 0.211 75.349 
93.21 0.221 74.859 0.966 -12.757 0.966 -12.757 0.221 74.859 
97.624 0.231 74.342 0.964 -13.338 0.964 -13.338 0.231 74.342 
102.248 0.241 73.799 0.961 -13.944 0.961 -13.944 0.241 73.799 
107.091 0.252 73.229 0.958 -14.576 0.958 -14.576 0.252 73.229 
112.163 0.263 72.631 0.955 -15.233 0.955 -15.233 0.263 72.631 
117.475 0.274 72.004 0.952 -15.917 0.952 -15.917 0.274 72.004 
123.039 0.286 71.348 0.948 -16.629 0.948 -16.629 0.286 71.348 
128.866 0.299 70.663 0.944 -17.368 0.944 -17.368 0.299 70.663 
134.969 0.311 69.947 0.94 -18.137 0.94 -18.137 0.311 69.947 
141.361 0.325 69.201 0.935 -18.934 0.935 -18.934 0.325 69.201 
148.056 0.338 68.423 0.93 -19.762 0.93 -19.762 0.338 68.423 
155.069 0.352 67.613 0.925 -20.619 0.925 -20.619 0.352 67.613 
162.413 0.367 66.772 0.919 -21.507 0.919 -21.507 0.367 66.772 
170.105 0.382 65.898 0.913 -22.426 0.913 -22.426 0.382 65.898 
178.161 0.397 64.992 0.907 -23.376 0.907 -23.376 0.397 64.992 
186.599 0.413 64.054 0.9 -24.356 0.9 -24.356 0.413 64.054 
195.437 0.429 63.084 0.892 -25.367 0.892 -25.367 0.429 63.084 
204.693 0.445 62.083 0.884 -26.409 0.884 -26.409 0.445 62.083 
214.388 0.462 61.05 0.875 -27.481 0.875 -27.481 0.462 61.05 
224.541 0.479 59.987 0.866 -28.582 0.866 -28.582 0.479 59.987 
235.176 0.496 58.894 0.856 -29.712 0.856 -29.712 0.496 58.894 
246.314 0.513 57.772 0.846 -30.869 0.846 -30.869 0.513 57.772 
257.98 0.531 56.623 0.835 -32.053 0.835 -32.053 0.531 56.623 
270.198 0.549 55.447 0.824 -33.262 0.824 -33.262 0.549 55.447 
282.995 0.566 54.247 0.812 -34.495 0.812 -34.495 0.566 54.247 
296.398 0.584 53.024 0.799 -35.749 0.799 -35.749 0.584 53.024 
310.436 0.602 51.78 0.786 -37.024 0.786 -37.024 0.602 51.78 
325.139 0.62 50.517 0.772 -38.316 0.772 -38.316 0.62 50.517 
340.538 0.638 49.238 0.758 -39.624 0.758 -39.624 0.638 49.238 
356.666 0.655 47.945 0.743 -40.946 0.743 -40.946 0.655 47.945 
373.558 0.673 46.64 0.727 -42.278 0.727 -42.278 0.673 46.64 
391.25 0.69 45.326 0.711 -43.618 0.711 -43.618 0.69 45.326 
409.781 0.707 44.005 0.695 -44.964 0.695 -44.964 0.707 44.005 
429.188 0.723 42.681 0.678 -46.313 0.678 -46.313 0.723 42.681 
449.515 0.739 41.356 0.661 -47.662 0.661 -47.662 0.739 41.356 
470.805 0.755 40.033 0.643 -49.008 0.643 -49.008 0.755 40.033 
493.103 0.77 38.714 0.626 -50.349 0.626 -50.349 0.77 38.714 
516.457 0.785 37.402 0.607 -51.682 0.607 -51.682 0.785 37.402 
540.917 0.799 36.1 0.589 -53.005 0.589 -53.005 0.799 36.1 
566.536 0.812 34.809 0.571 -54.315 0.571 -54.315 0.812 34.809 
593.368 0.825 33.533 0.552 -55.611 0.552 -55.611 0.825 33.533 
621.47 0.838 32.272 0.534 -56.89 0.534 -56.89 0.838 32.272 
650.904 0.85 31.03 0.516 -58.15 0.516 -58.15 0.85 31.03 
681.732 0.861 29.807 0.497 -59.389 0.497 -59.389 0.861 29.807 
714.019 0.871 28.605 0.479 -60.607 0.479 -60.607 0.871 28.605 
747.836 0.881 27.426 0.461 -61.801 0.461 -61.801 0.881 27.426 
783.255 0.891 26.27 0.443 -62.971 0.443 -62.971 0.891 26.27 
820.351 0.9 25.138 0.425 -64.116 0.425 -64.116 0.9 25.138 
859.204 0.908 24.031 0.407 -65.235 0.407 -65.235 0.908 24.031 
899.897 0.916 22.95 0.39 -66.327 0.39 -66.327 0.916 22.95 
942.517 0.923 21.894 0.373 -67.392 0.373 -67.392 0.923 21.894 
987.156 0.93 20.865 0.356 -68.43 0.356 -68.43 0.93 20.865 
1033.909 0.936 19.861 0.34 -69.441 0.34 -69.441 0.936 19.861 
1082.877 0.942 18.884 0.324 -70.424 0.324 -70.424 0.942 18.884 
1134.163 0.948 17.932 0.308 -71.38 0.308 -71.38 0.948 17.932 
1187.879 0.953 17.004 0.292 -72.309 0.292 -72.309 0.953 17.004 
1244.138 0.957 16.102 0.277 -73.211 0.277 -73.211 0.957 16.102 
1303.062 0.962 15.224 0.263 -74.087 0.263 -74.087 0.962 15.224 
1364.777 0.966 14.369 0.248 -74.936 0.248 -74.936 0.966 14.369 
1429.415 0.969 13.537 0.234 -75.76 0.234 -75.76 0.969 13.537 
1497.114 0.973 12.726 0.22 -76.558 0.22 -76.558 0.973 12.726 
1568.019 0.976 11.936 0.207 -77.331 0.207 -77.331 0.976 11.936 
1642.283 0.979 11.167 0.194 -78.078 0.194 -78.078 0.979 11.167 
1720.063 0.981 10.416 0.181 -78.8 0.181 -78.8 0.981 10.416 
1801.528 0.983 9.683 0.168 -79.497 0.168 -79.497 0.983 9.683 
1886.851 0.985 8.968 0.156 -80.166 0.156 -80.166 0.985 8.968 
1976.214 0.987 8.268 0.144 -80.808 0.144 -80.808 0.987 8.268 
2069.811 0.989 7.583 0.132 -81.42 0.132 -81.42 0.989 7.583 
2167.84 0.99 6.912 0.12 -82 0.12 -82 0.99 6.912 
2270.512 0.992 6.254 0.109 -82.541 0.109 -82.541 0.992 6.254 
2378.046 0.993 5.607 0.098 -83.037 0.098 -83.037 0.993 5.607 
2490.674 0.994 4.971 0.087 -83.476 0.087 -83.476 0.994 4.971 
2608.635 0.995 4.344 0.076 -83.84 0.076 -83.84 0.995 4.344 
2732.184 0.995 3.725 0.065 -84.096 0.065 -84.096 0.995 3.725 
2861.584 0.996 3.114 0.054 -84.188 0.054 -84.188 0.996 3.114 
2997.112 0.996 2.508 0.044 -84.005 0.044 -84.005 0.996 2.508 
3139.06 0.997 1.908 0.033 -83.297 0.033 -83.297 0.997 1.908 
3287.73 0.997 1.311 0.023 -81.364 0.023 -81.364 0.997 1.311 
3443.441 0.997 0.717 0.013 -75.319 0.013 -75.319 0.997 0.717 
3606.527 0.997 0.124 3.956e-3 -33.188 3.956e-3 -33.188 0.997 0.124 
3777.337 0.996 -0.467 8.886e-3 66.153 8.886e-3 66.153 0.996 -0.467 
3956.237 0.996 -1.06 0.019 77.405 0.019 77.405 0.996 -1.06 
4143.61 0.996 -1.654 0.029 80.352 0.029 80.352 0.996 -1.654 
4339.857 0.995 -2.25 0.04 81.408 0.04 81.408 0.995 -2.25 
4545.398 0.994 -2.851 0.05 81.74 0.05 81.74 0.994 -2.851 
4760.675 0.993 -3.456 0.06 81.715 0.06 81.715 0.993 -3.456 
4986.147 0.992 -4.067 0.071 81.486 0.071 81.486 0.992 -4.067 
5222.297 0.991 -4.684 0.082 81.125 0.082 81.125 0.991 -4.684 
5469.633 0.989 -5.31 0.093 80.672 0.093 80.672 0.989 -5.31 
5728.682 0.988 -5.944 0.104 80.151 0.104 80.151 0.988 -5.944 
6000 0.986 -6.589 0.115 79.576 0.115 79.576 0.986 -6.589 
