# MHz S MA R 50

1 6.264e-3 42.519 0.995 -0.244 0.995 -0.244 6.264e-3 42.519 
1.047 6.423e-3 43.635 0.995 -0.255 0.995 -0.255 6.423e-3 43.635 
1.097 6.593e-3 44.75 0.995 -0.267 0.995 -0.267 6.593e-3 44.75 
1.148 6.772e-3 45.861 0.995 -0.28 0.995 -0.28 6.772e-3 45.861 
1.202 6.962e-3 46.966 0.995 -0.293 0.995 -0.293 6.962e-3 46.966 
1.259 7.163e-3 48.064 0.995 -0.307 0.995 -0.307 7.163e-3 48.064 
1.318 7.375e-3 49.153 0.995 -0.321 0.995 -0.321 7.375e-3 49.153 
1.381 7.6e-3 50.231 0.995 -0.336 0.995 -0.336 7.6e-3 50.231 
1.446 7.838e-3 51.297 0.995 -0.352 0.995 -0.352 7.838e-3 51.297 
1.514 8.089e-3 52.35 0.995 -0.369 0.995 -0.369 8.089e-3 52.35 
1.585 8.355e-3 53.388 0.995 -0.386 0.995 -0.386 8.355e-3 53.388 
1.66 8.635e-3 54.41 0.995 -0.404 0.995 -0.404 8.635e-3 54.41 
1.738 8.931e-3 55.414 0.995 -0.423 0.995 -0.423 8.931e-3 55.414 
1.82 9.243e-3 56.4 0.995 -0.443 0.995 -0.443 9.243e-3 56.4 
1.906 9.572e-3 57.367 0.995 -0.464 0.995 -0.464 9.572e-3 57.367 
1.996 9.919e-3 58.314 0.995 -0.486 0.995 -0.486 9.919e-3 58.314 
2.09 0.01 59.239 0.995 -0.509 0.995 -0.509 0.01 59.239 
2.189 0.011 60.144 0.995 -0.533 0.995 -0.533 0.011 60.144 
2.292 0.011 61.026 0.995 -0.558 0.995 -0.558 0.011 61.026 
2.4 0.012 61.885 0.995 -0.584 0.995 -0.584 0.012 61.885 
2.513 0.012 62.722 0.995 -0.612 0.995 -0.612 0.012 62.722 
2.632 0.012 63.536 0.995 -0.641 0.995 -0.641 0.012 63.536 
2.756 0.013 64.326 0.994 -0.671 0.994 -0.671 0.013 64.326 
2.886 0.013 65.093 0.994 -0.703 0.994 -0.703 0.013 65.093 
3.022 0.014 65.836 0.994 -0.736 0.994 -0.736 0.014 65.836 
3.164 0.015 66.557 0.994 -0.77 0.994 -0.77 0.015 66.557 
3.314 0.015 67.253 0.994 -0.807 0.994 -0.807 0.015 67.253 
3.47 0.016 67.927 0.994 -0.844 0.994 -0.844 0.016 67.927 
3.633 0.016 68.577 0.994 -0.884 0.994 -0.884 0.016 68.577 
3.805 0.017 69.205 0.994 -0.926 0.994 -0.926 0.017 69.205 
3.984 0.018 69.81 0.994 -0.969 0.994 -0.969 0.018 69.81 
4.172 0.019 70.393 0.994 -1.015 0.994 -1.015 0.019 70.393 
4.369 0.02 70.954 0.994 -1.063 0.994 -1.063 0.02 70.954 
4.575 0.02 71.493 0.994 -1.113 0.994 -1.113 0.02 71.493 
4.791 0.021 72.01 0.994 -1.165 0.994 -1.165 0.021 72.01 
5.016 0.022 72.507 0.994 -1.22 0.994 -1.22 0.022 72.507 
5.253 0.023 72.983 0.993 -1.278 0.993 -1.278 0.023 72.983 
5.501 0.024 73.439 0.993 -1.338 0.993 -1.338 0.024 73.439 
5.76 0.025 73.874 0.993 -1.401 0.993 -1.401 0.025 73.874 
6.032 0.026 74.29 0.993 -1.467 0.993 -1.467 0.026 74.29 
6.316 0.028 74.687 0.993 -1.536 0.993 -1.536 0.028 74.687 
6.614 0.029 75.064 0.993 -1.608 0.993 -1.608 0.029 75.064 
6.926 0.03 75.423 0.993 -1.684 0.993 -1.684 0.03 75.423 
7.253 0.032 75.763 0.993 -1.763 0.993 -1.763 0.032 75.763 
7.595 0.033 76.086 0.993 -1.846 0.993 -1.846 0.033 76.086 
7.953 0.034 76.39 0.992 -1.933 0.992 -1.933 0.034 76.39 
8.328 0.036 76.677 0.992 -2.023 0.992 -2.023 0.036 76.677 
8.72 0.038 76.947 0.992 -2.119 0.992 -2.119 0.038 76.947 
9.132 0.039 77.2 0.992 -2.218 0.992 -2.218 0.039 77.2 
9.562 0.041 77.436 0.992 -2.322 0.992 -2.322 0.041 77.436 
10.013 0.043 77.655 0.992 -2.432 0.992 -2.432 0.043 77.655 
10.485 0.045 77.858 0.992 -2.546 0.992 -2.546 0.045 77.858 
10.98 0.047 78.044 0.991 -2.666 0.991 -2.666 0.047 78.044 
11.498 0.049 78.215 0.991 -2.791 0.991 -2.791 0.049 78.215 
12.04 0.052 78.369 0.991 -2.922 0.991 -2.922 0.052 78.369 
12.608 0.054 78.507 0.991 -3.059 0.991 -3.059 0.054 78.507 
13.202 0.056 78.629 0.99 -3.203 0.99 -3.203 0.056 78.629 
13.825 0.059 78.736 0.99 -3.353 0.99 -3.353 0.059 78.736 
14.477 0.062 78.826 0.99 -3.51 0.99 -3.51 0.062 78.826 
15.159 0.065 78.901 0.99 -3.675 0.99 -3.675 0.065 78.901 
15.874 0.068 78.96 0.989 -3.847 0.989 -3.847 0.068 78.96 
16.623 0.071 79.003 0.989 -4.028 0.989 -4.028 0.071 79.003 
17.406 0.074 79.03 0.989 -4.216 0.989 -4.216 0.074 79.03 
18.227 0.077 79.041 0.988 -4.414 0.988 -4.414 0.077 79.041 
19.087 0.081 79.035 0.988 -4.621 0.988 -4.621 0.081 79.035 
19.987 0.085 79.013 0.987 -4.837 0.987 -4.837 0.085 79.013 
20.929 0.089 78.975 0.987 -5.063 0.987 -5.063 0.089 78.975 
21.916 0.093 78.919 0.986 -5.3 0.986 -5.3 0.093 78.919 
22.95 0.097 78.847 0.986 -5.547 0.986 -5.547 0.097 78.847 
24.032 0.102 78.757 0.985 -5.807 0.985 -5.807 0.102 78.757 
25.165 0.106 78.65 0.985 -6.077 0.985 -6.077 0.106 78.65 
26.352 0.111 78.525 0.984 -6.361 0.984 -6.361 0.111 78.525 
27.595 0.116 78.382 0.983 -6.657 0.983 -6.657 0.116 78.382 
28.896 0.122 78.22 0.982 -6.967 0.982 -6.967 0.122 78.22 
30.258 0.127 78.039 0.982 -7.291 0.982 -7.291 0.127 78.039 
31.685 0.133 77.838 0.981 -7.63 0.981 -7.63 0.133 77.838 
33.179 0.139 77.618 0.98 -7.984 0.98 -7.984 0.139 77.618 
34.744 0.146 77.377 0.979 -8.354 0.979 -8.354 0.146 77.377 
36.383 0.152 77.116 0.977 -8.74 0.977 -8.74 0.152 77.116 
38.098 0.159 76.833 0.976 -9.144 0.976 -9.144 0.159 76.833 
39.895 0.167 76.528 0.975 -9.566 0.975 -9.566 0.167 76.528 
41.776 0.174 76.201 0.973 -10.006 0.973 -10.006 0.174 76.201 
43.746 0.182 75.851 0.972 -10.466 0.972 -10.466 0.182 75.851 
45.809 0.19 75.477 0.97 -10.946 0.97 -10.946 0.19 75.477 
47.969 0.199 75.079 0.968 -11.447 0.968 -11.447 0.199 75.079 
50.231 0.208 74.656 0.966 -11.969 0.966 -11.969 0.208 74.656 
52.6 0.217 74.207 0.964 -12.514 0.964 -12.514 0.217 74.207 
55.08 0.227 73.732 0.961 -13.082 0.961 -13.082 0.227 73.732 
57.678 0.237 73.231 0.959 -13.673 0.959 -13.673 0.237 73.231 
60.397 0.247 72.702 0.956 -14.29 0.956 -14.29 0.247 72.702 
63.246 0.258 72.145 0.953 -14.931 0.953 -14.931 0.258 72.145 
66.228 0.269 71.559 0.95 -15.599 0.95 -15.599 0.269 71.559 
69.351 0.281 70.944 0.946 -16.293 0.946 -16.293 0.281 70.944 
72.621 0.293 70.3 0.943 -17.015 0.943 -17.015 0.293 70.3 
76.046 0.305 69.625 0.938 -17.764 0.938 -17.764 0.305 69.625 
79.632 0.318 68.919 0.934 -18.542 0.934 -18.542 0.318 68.919 
83.387 0.332 68.182 0.929 -19.349 0.929 -19.349 0.332 68.182 
87.319 0.345 67.413 0.924 -20.186 0.924 -20.186 0.345 67.413 
91.437 0.36 66.613 0.919 -21.052 0.919 -21.052 0.36 66.613 
95.749 0.374 65.78 0.913 -21.948 0.913 -21.948 0.374 65.78 
100.264 0.389 64.915 0.906 -22.875 0.906 -22.875 0.389 64.915 
104.992 0.404 64.019 0.9 -23.831 0.9 -23.831 0.404 64.019 
109.943 0.42 63.09 0.892 -24.818 0.892 -24.818 0.42 63.09 
115.127 0.436 62.13 0.885 -25.835 0.885 -25.835 0.436 62.13 
120.556 0.452 61.139 0.876 -26.881 0.876 -26.881 0.452 61.139 
126.241 0.469 60.117 0.868 -27.956 0.868 -27.956 0.469 60.117 
132.194 0.486 59.065 0.858 -29.059 0.858 -29.059 0.486 59.065 
138.428 0.503 57.985 0.848 -30.189 0.848 -30.189 0.503 57.985 
144.956 0.52 56.876 0.838 -31.346 0.838 -31.346 0.52 56.876 
151.791 0.538 55.742 0.827 -32.527 0.827 -32.527 0.538 55.742 
158.949 0.556 54.582 0.815 -33.732 0.815 -33.732 0.556 54.582 
166.445 0.573 53.4 0.803 -34.959 0.803 -34.959 0.573 53.4 
174.294 0.591 52.196 0.79 -36.205 0.79 -36.205 0.591 52.196 
182.513 0.609 50.973 0.777 -37.47 0.777 -37.47 0.609 50.973 
191.119 0.626 49.733 0.763 -38.751 0.763 -38.751 0.626 49.733 
200.132 0.644 48.478 0.749 -40.045 0.749 -40.045 0.644 48.478 
209.569 0.661 47.211 0.734 -41.35 0.734 -41.35 0.661 47.211 
219.452 0.678 45.934 0.719 -42.663 0.719 -42.663 0.678 45.934 
229.8 0.695 44.65 0.703 -43.983 0.703 -43.983 0.695 44.65 
240.637 0.711 43.362 0.687 -45.305 0.687 -45.305 0.711 43.362 
251.984 0.727 42.072 0.67 -46.629 0.67 -46.629 0.727 42.072 
263.867 0.743 40.784 0.653 -47.95 0.653 -47.95 0.743 40.784 
276.31 0.758 39.499 0.636 -49.267 0.636 -49.267 0.758 39.499 
289.339 0.773 38.22 0.619 -50.576 0.619 -50.576 0.773 38.22 
302.984 0.787 36.951 0.601 -51.875 0.601 -51.875 0.787 36.951 
317.271 0.8 35.692 0.584 -53.162 0.584 -53.162 0.8 35.692 
332.232 0.814 34.448 0.566 -54.434 0.566 -54.434 0.814 34.448 
347.899 0.826 33.219 0.548 -55.69 0.548 -55.69 0.826 33.219 
364.305 0.838 32.008 0.53 -56.927 0.53 -56.927 0.838 32.008 
381.484 0.85 30.816 0.512 -58.144 0.512 -58.144 0.85 30.816 
399.473 0.86 29.645 0.495 -59.339 0.495 -59.339 0.86 29.645 
418.311 0.871 28.497 0.477 -60.51 0.477 -60.51 0.871 28.497 
438.037 0.88 27.373 0.46 -61.656 0.46 -61.656 0.88 27.373 
458.693 0.889 26.274 0.443 -62.777 0.443 -62.777 0.889 26.274 
480.323 0.898 25.2 0.426 -63.872 0.426 -63.872 0.898 25.2 
502.973 0.906 24.153 0.409 -64.939 0.409 -64.939 0.906 24.153 
526.692 0.913 23.132 0.393 -65.978 0.393 -65.978 0.913 23.132 
551.528 0.921 22.139 0.377 -66.989 0.377 -66.989 0.921 22.139 
577.536 0.927 21.172 0.361 -67.972 0.361 -67.972 0.927 21.172 
604.771 0.933 20.234 0.346 -68.927 0.346 -68.927 0.933 20.234 
633.289 0.939 19.322 0.331 -69.853 0.331 -69.853 0.939 19.322 
663.153 0.944 18.437 0.316 -70.751 0.316 -70.751 0.944 18.437 
694.425 0.949 17.579 0.302 -71.621 0.302 -71.621 0.949 17.579 
727.171 0.954 16.748 0.288 -72.464 0.288 -72.464 0.954 16.748 
761.462 0.958 15.942 0.275 -73.28 0.275 -73.28 0.958 15.942 
797.369 0.962 15.161 0.262 -74.068 0.262 -74.068 0.962 15.161 
834.97 0.965 14.404 0.249 -74.831 0.249 -74.831 0.965 14.404 
874.344 0.969 13.671 0.236 -75.568 0.236 -75.568 0.969 13.671 
915.575 0.972 12.962 0.224 -76.28 0.224 -76.28 0.972 12.962 
958.75 0.974 12.274 0.213 -76.967 0.213 -76.967 0.974 12.274 
1003.961 0.977 11.608 0.201 -77.631 0.201 -77.631 0.977 11.608 
1051.303 0.979 10.963 0.19 -78.27 0.19 -78.27 0.979 10.963 
1100.879 0.981 10.337 0.179 -78.887 0.179 -78.887 0.981 10.337 
1152.792 0.983 9.73 0.169 -79.48 0.169 -79.48 0.983 9.73 
1207.153 0.985 9.14 0.159 -80.051 0.159 -80.051 0.985 9.14 
1264.078 0.987 8.568 0.149 -80.598 0.149 -80.598 0.987 8.568 
1323.687 0.988 8.012 0.139 -81.123 0.139 -81.123 0.988 8.012 
1386.107 0.989 7.471 0.13 -81.625 0.13 -81.625 0.989 7.471 
1451.471 0.991 6.944 0.121 -82.102 0.121 -82.102 0.991 6.944 
1519.916 0.992 6.43 0.112 -82.553 0.112 -82.553 0.992 6.43 
1591.59 0.993 5.929 0.103 -82.977 0.103 -82.977 0.993 5.929 
1666.643 0.994 5.439 0.095 -83.369 0.095 -83.369 0.994 5.439 
1745.235 0.994 4.961 0.086 -83.726 0.086 -83.726 0.994 4.961 
1827.534 0.995 4.491 0.078 -84.04 0.078 -84.04 0.995 4.491 
1913.713 0.995 4.031 0.07 -84.301 0.07 -84.301 0.995 4.031 
2003.957 0.996 3.579 0.062 -84.495 0.062 -84.495 0.996 3.579 
2098.456 0.996 3.134 0.055 -84.596 0.055 -84.596 0.996 3.134 
2197.411 0.997 2.695 0.047 -84.564 0.047 -84.564 0.997 2.695 
2301.032 0.997 2.262 0.04 -84.327 0.04 -84.327 0.997 2.262 
2409.54 0.997 1.833 0.032 -83.751 0.032 -83.751 0.997 1.833 
2523.164 0.997 1.408 0.025 -82.535 0.025 -82.535 0.997 1.408 
2642.147 0.997 0.986 0.017 -79.888 0.017 -79.888 0.997 0.986 
2766.741 0.997 0.567 0.01 -72.858 0.01 -72.858 0.997 0.567 
2897.209 0.997 0.148 4.076e-3 -39.322 4.076e-3 -39.322 0.997 0.148 
3033.831 0.997 -0.269 5.785e-3 54.059 5.785e-3 54.059 0.997 -0.269 
3176.894 0.996 -0.687 0.013 72.485 0.013 72.485 0.996 -0.687 
3326.704 0.996 -1.106 0.02 77.442 0.02 77.442 0.996 -1.106 
3483.579 0.995 -1.527 0.027 79.463 0.027 79.463 0.995 -1.527 
3647.851 0.995 -1.95 0.034 80.395 0.034 80.395 0.995 -1.95 
3819.87 0.994 -2.377 0.042 80.804 0.042 80.804 0.994 -2.377 
4000 0.993 -2.808 0.049 80.919 0.049 80.919 0.993 -2.808 
