# MHz S MA R 50

1 893.5e-6 44.616 0.999 -0.036 0.999 -0.036 893.5e-6 44.616 
1.047 917e-6 45.77 0.999 -0.038 0.999 -0.038 917e-6 45.77 
1.096 942e-6 46.92 0.999 -0.039 0.999 -0.039 942e-6 46.92 
1.148 968.5e-6 48.064 0.999 -0.041 0.999 -0.041 968.5e-6 48.064 
1.202 996.6e-6 49.2 0.999 -0.043 0.999 -0.043 996.6e-6 49.2 
1.259 1.026e-3 50.326 0.999 -0.045 0.999 -0.045 1.026e-3 50.326 
1.318 1.058e-3 51.441 0.999 -0.047 0.999 -0.047 1.058e-3 51.441 
1.38 1.091e-3 52.543 0.999 -0.05 0.999 -0.05 1.091e-3 52.543 
1.445 1.126e-3 53.631 0.999 -0.052 0.999 -0.052 1.126e-3 53.631 
1.514 1.164e-3 54.703 0.999 -0.054 0.999 -0.054 1.164e-3 54.703 
1.585 1.203e-3 55.757 0.999 -0.057 0.999 -0.057 1.203e-3 55.757 
1.66 1.245e-3 56.794 0.999 -0.06 0.999 -0.06 1.245e-3 56.794 
1.738 1.288e-3 57.811 0.999 -0.063 0.999 -0.063 1.288e-3 57.811 
1.82 1.335e-3 58.808 0.999 -0.065 0.999 -0.065 1.335e-3 58.808 
1.905 1.384e-3 59.784 0.999 -0.069 0.999 -0.069 1.384e-3 59.784 
1.995 1.435e-3 60.738 0.999 -0.072 0.999 -0.072 1.435e-3 60.738 
2.089 1.489e-3 61.671 0.999 -0.075 0.999 -0.075 1.489e-3 61.671 
2.188 1.546e-3 62.58 0.999 -0.079 0.999 -0.079 1.546e-3 62.58 
2.291 1.607e-3 63.467 0.999 -0.082 0.999 -0.082 1.607e-3 63.467 
2.399 1.67e-3 64.33 0.999 -0.086 0.999 -0.086 1.67e-3 64.33 
2.512 1.736e-3 65.17 0.999 -0.09 0.999 -0.09 1.736e-3 65.17 
2.63 1.807e-3 65.987 0.999 -0.095 0.999 -0.095 1.807e-3 65.987 
2.754 1.88e-3 66.78 0.999 -0.099 0.999 -0.099 1.88e-3 66.78 
2.884 1.958e-3 67.549 0.999 -0.104 0.999 -0.104 1.958e-3 67.549 
3.02 2.039e-3 68.296 0.999 -0.109 0.999 -0.109 2.039e-3 68.296 
3.162 2.125e-3 69.019 0.999 -0.114 0.999 -0.114 2.125e-3 69.019 
3.311 2.215e-3 69.72 0.999 -0.119 0.999 -0.119 2.215e-3 69.72 
3.467 2.309e-3 70.399 0.999 -0.125 0.999 -0.125 2.309e-3 70.399 
3.631 2.408e-3 71.055 0.999 -0.131 0.999 -0.131 2.408e-3 71.055 
3.802 2.512e-3 71.69 0.999 -0.137 0.999 -0.137 2.512e-3 71.69 
3.981 2.621e-3 72.303 0.999 -0.143 0.999 -0.143 2.621e-3 72.303 
4.169 2.736e-3 72.896 0.999 -0.15 0.999 -0.15 2.736e-3 72.896 
4.365 2.856e-3 73.468 0.999 -0.157 0.999 -0.157 2.856e-3 73.468 
4.571 2.983e-3 74.02 0.999 -0.164 0.999 -0.164 2.983e-3 74.02 
4.786 3.115e-3 74.553 0.999 -0.172 0.999 -0.172 3.115e-3 74.553 
5.012 3.254e-3 75.067 0.999 -0.18 0.999 -0.18 3.254e-3 75.067 
5.248 3.399e-3 75.562 0.999 -0.189 0.999 -0.189 3.399e-3 75.562 
5.495 3.552e-3 76.04 0.999 -0.198 0.999 -0.198 3.552e-3 76.04 
5.754 3.712e-3 76.5 0.999 -0.207 0.999 -0.207 3.712e-3 76.5 
6.026 3.88e-3 76.943 0.999 -0.217 0.999 -0.217 3.88e-3 76.943 
6.31 4.056e-3 77.37 0.999 -0.227 0.999 -0.227 4.056e-3 77.37 
6.607 4.24e-3 77.781 0.999 -0.238 0.999 -0.238 4.24e-3 77.781 
6.918 4.433e-3 78.176 0.999 -0.249 0.999 -0.249 4.433e-3 78.176 
7.244 4.636e-3 78.556 0.999 -0.261 0.999 -0.261 4.636e-3 78.556 
7.586 4.848e-3 78.922 0.999 -0.273 0.999 -0.273 4.848e-3 78.922 
7.943 5.07e-3 79.274 0.999 -0.286 0.999 -0.286 5.07e-3 79.274 
8.318 5.303e-3 79.612 0.999 -0.299 0.999 -0.299 5.303e-3 79.612 
8.71 5.547e-3 79.936 0.999 -0.313 0.999 -0.313 5.547e-3 79.936 
9.12 5.803e-3 80.248 0.999 -0.328 0.999 -0.328 5.803e-3 80.248 
9.55 6.071e-3 80.547 0.999 -0.343 0.999 -0.343 6.071e-3 80.547 
10 6.352e-3 80.835 0.999 -0.36 0.999 -0.36 6.352e-3 80.835 
10.471 6.646e-3 81.11 0.999 -0.377 0.999 -0.377 6.646e-3 81.11 
10.965 6.954e-3 81.375 0.999 -0.394 0.999 -0.394 6.954e-3 81.375 
11.482 7.277e-3 81.628 0.999 -0.413 0.999 -0.413 7.277e-3 81.628 
12.023 7.615e-3 81.871 0.999 -0.432 0.999 -0.432 7.615e-3 81.871 
12.589 7.969e-3 82.103 0.999 -0.453 0.999 -0.453 7.969e-3 82.103 
13.183 8.34e-3 82.326 0.999 -0.474 0.999 -0.474 8.34e-3 82.326 
13.804 8.728e-3 82.538 0.999 -0.496 0.999 -0.496 8.728e-3 82.538 
14.454 9.135e-3 82.742 0.999 -0.52 0.999 -0.52 9.135e-3 82.742 
15.136 9.561e-3 82.936 0.999 -0.544 0.999 -0.544 9.561e-3 82.936 
15.849 0.01 83.121 0.999 -0.57 0.999 -0.57 0.01 83.121 
16.596 0.01 83.297 0.999 -0.597 0.999 -0.597 0.01 83.297 
17.378 0.011 83.465 0.999 -0.625 0.999 -0.625 0.011 83.465 
18.197 0.011 83.625 0.999 -0.654 0.999 -0.654 0.011 83.625 
19.055 0.012 83.776 0.999 -0.685 0.999 -0.685 0.012 83.776 
19.953 0.013 83.92 0.999 -0.717 0.999 -0.717 0.013 83.92 
20.893 0.013 84.056 0.999 -0.751 0.999 -0.751 0.013 84.056 
21.878 0.014 84.184 0.999 -0.787 0.999 -0.787 0.014 84.184 
22.909 0.014 84.305 0.999 -0.824 0.999 -0.824 0.014 84.305 
23.988 0.015 84.419 0.999 -0.862 0.999 -0.862 0.015 84.419 
25.119 0.016 84.526 0.999 -0.903 0.999 -0.903 0.016 84.526 
26.303 0.017 84.625 0.999 -0.946 0.999 -0.946 0.017 84.625 
27.542 0.017 84.718 0.999 -0.99 0.999 -0.99 0.017 84.718 
28.84 0.018 84.804 0.999 -1.037 0.999 -1.037 0.018 84.804 
30.2 0.019 84.883 0.998 -1.086 0.998 -1.086 0.019 84.883 
31.623 0.02 84.955 0.998 -1.137 0.998 -1.137 0.02 84.955 
33.113 0.021 85.021 0.998 -1.19 0.998 -1.19 0.021 85.021 
34.674 0.022 85.08 0.998 -1.246 0.998 -1.246 0.022 85.08 
36.308 0.023 85.133 0.998 -1.305 0.998 -1.305 0.023 85.133 
38.019 0.024 85.179 0.998 -1.367 0.998 -1.367 0.024 85.179 
39.811 0.025 85.219 0.998 -1.431 0.998 -1.431 0.025 85.219 
41.687 0.026 85.252 0.998 -1.498 0.998 -1.498 0.026 85.252 
43.652 0.027 85.278 0.998 -1.569 0.998 -1.569 0.027 85.278 
45.709 0.029 85.298 0.998 -1.643 0.998 -1.643 0.029 85.298 
47.863 0.03 85.312 0.998 -1.72 0.998 -1.72 0.03 85.312 
50.119 0.031 85.319 0.998 -1.801 0.998 -1.801 0.031 85.319 
52.481 0.033 85.319 0.998 -1.886 0.998 -1.886 0.033 85.319 
54.954 0.034 85.312 0.998 -1.975 0.998 -1.975 0.034 85.312 
57.544 0.036 85.298 0.998 -2.067 0.998 -2.067 0.036 85.298 
60.256 0.038 85.278 0.998 -2.165 0.998 -2.165 0.038 85.278 
63.096 0.04 85.25 0.998 -2.267 0.998 -2.267 0.04 85.25 
66.069 0.041 85.215 0.997 -2.373 0.997 -2.373 0.041 85.215 
69.183 0.043 85.173 0.997 -2.485 0.997 -2.485 0.043 85.173 
72.444 0.045 85.124 0.997 -2.602 0.997 -2.602 0.045 85.124 
75.858 0.048 85.066 0.997 -2.724 0.997 -2.724 0.048 85.066 
79.433 0.05 85.001 0.997 -2.852 0.997 -2.852 0.05 85.001 
83.176 0.052 84.928 0.997 -2.987 0.997 -2.987 0.052 84.928 
87.096 0.055 84.847 0.997 -3.127 0.997 -3.127 0.055 84.847 
91.201 0.057 84.757 0.996 -3.274 0.996 -3.274 0.057 84.757 
95.499 0.06 84.659 0.996 -3.428 0.996 -3.428 0.06 84.659 
100 0.063 84.551 0.996 -3.589 0.996 -3.589 0.063 84.551 
104.713 0.066 84.434 0.996 -3.758 0.996 -3.758 0.066 84.434 
109.648 0.069 84.308 0.996 -3.934 0.996 -3.934 0.069 84.308 
114.815 0.072 84.172 0.995 -4.119 0.995 -4.119 0.072 84.172 
120.226 0.075 84.026 0.995 -4.312 0.995 -4.312 0.075 84.026 
125.893 0.079 83.87 0.995 -4.515 0.995 -4.515 0.079 83.87 
131.826 0.082 83.702 0.994 -4.727 0.994 -4.727 0.082 83.702 
138.038 0.086 83.524 0.994 -4.948 0.994 -4.948 0.086 83.524 
144.544 0.09 83.333 0.994 -5.18 0.994 -5.18 0.09 83.333 
151.356 0.095 83.131 0.993 -5.423 0.993 -5.423 0.095 83.131 
158.489 0.099 82.916 0.993 -5.677 0.993 -5.677 0.099 82.916 
165.959 0.104 82.688 0.992 -5.943 0.992 -5.943 0.104 82.688 
173.78 0.108 82.447 0.992 -6.221 0.992 -6.221 0.108 82.447 
181.97 0.113 82.192 0.991 -6.512 0.991 -6.512 0.113 82.192 
190.546 0.119 81.923 0.99 -6.817 0.99 -6.817 0.119 81.923 
199.526 0.124 81.638 0.99 -7.135 0.99 -7.135 0.124 81.638 
208.93 0.13 81.338 0.989 -7.468 0.989 -7.468 0.13 81.338 
218.776 0.136 81.021 0.988 -7.816 0.988 -7.816 0.136 81.021 
229.087 0.142 80.688 0.987 -8.18 0.987 -8.18 0.142 80.688 
239.883 0.149 80.337 0.986 -8.561 0.986 -8.561 0.149 80.337 
251.189 0.156 79.968 0.985 -8.959 0.985 -8.959 0.156 79.968 
263.027 0.163 79.58 0.984 -9.375 0.984 -9.375 0.163 79.58 
275.423 0.17 79.173 0.982 -9.81 0.982 -9.81 0.17 79.173 
288.403 0.178 78.745 0.981 -10.264 0.981 -10.264 0.178 78.745 
301.995 0.186 78.296 0.979 -10.738 0.979 -10.738 0.186 78.296 
316.228 0.195 77.825 0.978 -11.234 0.978 -11.234 0.195 77.825 
331.131 0.204 77.332 0.976 -11.752 0.976 -11.752 0.204 77.332 
346.737 0.213 76.815 0.974 -12.292 0.974 -12.292 0.213 76.815 
363.078 0.223 76.274 0.972 -12.856 0.972 -12.856 0.223 76.274 
380.189 0.233 75.708 0.969 -13.444 0.969 -13.444 0.233 75.708 
398.107 0.243 75.116 0.967 -14.057 0.967 -14.057 0.243 75.116 
416.869 0.254 74.497 0.964 -14.697 0.964 -14.697 0.254 74.497 
436.516 0.265 73.851 0.961 -15.364 0.961 -15.364 0.265 73.851 
457.088 0.277 73.176 0.957 -16.058 0.957 -16.058 0.277 73.176 
478.63 0.289 72.472 0.954 -16.782 0.954 -16.782 0.289 72.472 
501.187 0.301 71.738 0.95 -17.534 0.95 -17.534 0.301 71.738 
524.807 0.314 70.972 0.945 -18.317 0.945 -18.317 0.314 70.972 
549.541 0.328 70.176 0.941 -19.132 0.941 -19.132 0.328 70.176 
575.44 0.342 69.347 0.936 -19.977 0.936 -19.977 0.342 69.347 
602.56 0.356 68.485 0.93 -20.856 0.93 -20.856 0.356 68.485 
630.957 0.371 67.589 0.925 -21.767 0.925 -21.767 0.371 67.589 
660.693 0.386 66.659 0.918 -22.712 0.918 -22.712 0.386 66.659 
691.831 0.402 65.695 0.911 -23.691 0.911 -23.691 0.402 65.695 
724.436 0.418 64.696 0.904 -24.704 0.904 -24.704 0.418 64.696 
758.578 0.434 63.662 0.896 -25.752 0.896 -25.752 0.434 63.662 
794.328 0.451 62.593 0.888 -26.834 0.888 -26.834 0.451 62.593 
831.764 0.469 61.488 0.879 -27.951 0.879 -27.951 0.469 61.488 
870.964 0.486 60.349 0.869 -29.103 0.869 -29.103 0.486 60.349 
912.011 0.504 59.174 0.859 -30.289 0.859 -30.289 0.504 59.174 
954.993 0.523 57.966 0.848 -31.508 0.848 -31.508 0.523 57.966 
1000 0.541 56.724 0.836 -32.76 0.836 -32.76 0.541 56.724 
1047.129 0.56 55.45 0.824 -34.045 0.824 -34.045 0.56 55.45 
1096.478 0.579 54.143 0.811 -35.36 0.811 -35.36 0.579 54.143 
1148.154 0.598 52.806 0.797 -36.706 0.797 -36.706 0.598 52.806 
1202.264 0.617 51.44 0.782 -38.08 0.782 -38.08 0.617 51.44 
1258.925 0.636 50.047 0.767 -39.48 0.767 -39.48 0.636 50.047 
1318.257 0.655 48.627 0.75 -40.906 0.75 -40.906 0.655 48.627 
1380.384 0.674 47.183 0.734 -42.355 0.734 -42.355 0.674 47.183 
1445.44 0.692 45.718 0.716 -43.825 0.716 -43.825 0.692 45.718 
1513.561 0.711 44.232 0.698 -45.314 0.698 -45.314 0.711 44.232 
1584.893 0.729 42.729 0.679 -46.82 0.679 -46.82 0.729 42.729 
1659.587 0.747 41.21 0.659 -48.34 0.659 -48.34 0.747 41.21 
1737.801 0.765 39.678 0.638 -49.871 0.638 -49.871 0.765 39.678 
1819.701 0.782 38.135 0.618 -51.412 0.618 -51.412 0.782 38.135 
1905.461 0.798 36.583 0.596 -52.959 0.596 -52.959 0.798 36.583 
1995.262 0.814 35.026 0.574 -54.511 0.574 -54.511 0.814 35.026 
2089.296 0.83 33.464 0.551 -56.063 0.551 -56.063 0.83 33.464 
2187.762 0.844 31.9 0.528 -57.615 0.528 -57.615 0.844 31.9 
2290.868 0.859 30.337 0.505 -59.163 0.505 -59.163 0.859 30.337 
2398.833 0.872 28.775 0.481 -60.706 0.481 -60.706 0.872 28.775 
2511.886 0.885 27.217 0.457 -62.24 0.457 -62.24 0.885 27.217 
2630.268 0.897 25.663 0.433 -63.763 0.433 -63.763 0.897 25.663 
2754.229 0.908 24.116 0.409 -65.272 0.409 -65.272 0.908 24.116 
2884.032 0.919 22.577 0.384 -66.766 0.384 -66.766 0.919 22.577 
3019.952 0.929 21.045 0.359 -68.241 0.359 -68.241 0.929 21.045 
3162.278 0.938 19.523 0.334 -69.693 0.334 -69.693 0.938 19.523 
3311.311 0.946 18.01 0.309 -71.119 0.309 -71.119 0.946 18.01 
3467.369 0.954 16.506 0.284 -72.514 0.284 -72.514 0.954 16.506 
3630.781 0.961 15.013 0.259 -73.87 0.259 -73.87 0.961 15.013 
3801.894 0.967 13.529 0.234 -75.178 0.234 -75.178 0.967 13.529 
3981.072 0.972 12.054 0.209 -76.424 0.209 -76.424 0.972 12.054 
4168.694 0.977 10.589 0.184 -77.587 0.184 -77.587 0.977 10.589 
4365.158 0.981 9.132 0.159 -78.63 0.159 -78.63 0.981 9.132 
4570.882 0.984 7.683 0.134 -79.491 0.134 -79.491 0.984 7.683 
4786.301 0.987 6.241 0.109 -80.051 0.109 -80.051 0.987 6.241 
5011.872 0.989 4.805 0.084 -80.049 0.084 -80.049 0.989 4.805 
5248.075 0.99 3.375 0.059 -78.791 0.059 -78.791 0.99 3.375 
5495.409 0.991 1.95 0.035 -73.68 0.035 -73.68 0.991 1.95 
5754.399 0.991 0.528 0.013 -43.897 0.013 -43.897 0.991 0.528 
6025.596 0.99 -0.891 0.019 55.992 0.019 55.992 0.99 -0.891 
6309.573 0.988 -2.309 0.042 72.453 0.042 72.453 0.988 -2.309 
6606.934 0.986 -3.725 0.066 75.914 0.066 75.914 0.986 -3.725 
6918.31 0.983 -5.141 0.091 76.687 0.091 76.687 0.983 -5.141 
7244.36 0.98 -6.557 0.115 76.479 0.115 76.479 0.98 -6.557 
7585.776 0.975 -7.975 0.14 75.804 0.14 75.804 0.975 -7.975 
7943.282 0.97 -9.394 0.164 74.867 0.164 74.867 0.97 -9.394 
8317.638 0.964 -10.815 0.188 73.768 0.188 73.768 0.964 -10.815 
8709.636 0.958 -12.238 0.213 72.561 0.213 72.561 0.958 -12.238 
9120.108 0.951 -13.663 0.237 71.275 0.237 71.275 0.951 -13.663 
9549.926 0.943 -15.09 0.261 69.932 0.261 69.932 0.943 -15.09 
10000 0.934 -16.518 0.285 68.543 0.285 68.543 0.934 -16.518 
