# MHz S MA R 50

1 0.036 29.298 0.969 -1.046 0.969 -1.046 0.036 29.298 
1.047 0.037 30.335 0.969 -1.095 0.969 -1.095 0.037 30.335 
1.097 0.037 31.389 0.968 -1.147 0.968 -1.147 0.037 31.389 
1.148 0.038 32.46 0.968 -1.201 0.968 -1.201 0.038 32.46 
1.202 0.038 33.545 0.968 -1.257 0.968 -1.257 0.038 33.545 
1.259 0.039 34.643 0.968 -1.316 0.968 -1.316 0.039 34.643 
1.318 0.04 35.752 0.968 -1.378 0.968 -1.378 0.04 35.752 
1.381 0.041 36.87 0.968 -1.443 0.968 -1.443 0.041 36.87 
1.446 0.041 37.994 0.968 -1.511 0.968 -1.511 0.041 37.994 
1.514 0.042 39.123 0.968 -1.582 0.968 -1.582 0.042 39.123 
1.585 0.043 40.255 0.967 -1.656 0.967 -1.656 0.043 40.255 
1.66 0.044 41.386 0.967 -1.734 0.967 -1.734 0.044 41.386 
1.738 0.045 42.515 0.967 -1.816 0.967 -1.816 0.045 42.515 
1.82 0.046 43.639 0.967 -1.901 0.967 -1.901 0.046 43.639 
1.906 0.048 44.756 0.967 -1.99 0.967 -1.99 0.048 44.756 
1.996 0.049 45.864 0.967 -2.084 0.967 -2.084 0.049 45.864 
2.09 0.05 46.96 0.966 -2.182 0.966 -2.182 0.05 46.96 
2.188 0.052 48.042 0.966 -2.284 0.966 -2.284 0.052 48.042 
2.291 0.053 49.108 0.966 -2.391 0.966 -2.391 0.053 49.108 
2.399 0.055 50.156 0.966 -2.503 0.966 -2.503 0.055 50.156 
2.513 0.057 51.184 0.965 -2.621 0.965 -2.621 0.057 51.184 
2.631 0.058 52.189 0.965 -2.744 0.965 -2.744 0.058 52.189 
2.755 0.06 53.171 0.965 -2.873 0.965 -2.873 0.06 53.171 
2.885 0.062 54.127 0.965 -3.007 0.965 -3.007 0.062 54.127 
3.021 0.065 55.057 0.964 -3.148 0.964 -3.148 0.065 55.057 
3.163 0.067 55.958 0.964 -3.296 0.964 -3.296 0.067 55.958 
3.313 0.069 56.83 0.964 -3.45 0.964 -3.45 0.069 56.83 
3.469 0.072 57.671 0.963 -3.612 0.963 -3.612 0.072 57.671 
3.632 0.075 58.48 0.963 -3.781 0.963 -3.781 0.075 58.48 
3.803 0.077 59.257 0.963 -3.958 0.963 -3.958 0.077 59.257 
3.983 0.08 60.001 0.962 -4.143 0.962 -4.143 0.08 60.001 
4.171 0.083 60.711 0.962 -4.337 0.962 -4.337 0.083 60.711 
4.367 0.087 61.387 0.962 -4.54 0.962 -4.54 0.087 61.387 
4.573 0.09 62.028 0.961 -4.752 0.961 -4.752 0.09 62.028 
4.789 0.094 62.633 0.961 -4.974 0.961 -4.974 0.094 62.633 
5.014 0.098 63.203 0.96 -5.206 0.96 -5.206 0.098 63.203 
5.251 0.102 63.738 0.959 -5.449 0.959 -5.449 0.102 63.738 
5.498 0.106 64.236 0.959 -5.703 0.959 -5.703 0.106 64.236 
5.758 0.11 64.698 0.958 -5.968 0.958 -5.968 0.11 64.698 
6.029 0.115 65.123 0.957 -6.246 0.957 -6.246 0.115 65.123 
6.313 0.12 65.513 0.957 -6.537 0.957 -6.537 0.12 65.513 
6.611 0.125 65.865 0.956 -6.84 0.956 -6.84 0.125 65.865 
6.922 0.13 66.181 0.955 -7.158 0.955 -7.158 0.13 66.181 
7.249 0.136 66.461 0.954 -7.49 0.954 -7.49 0.136 66.461 
7.591 0.141 66.704 0.953 -7.837 0.953 -7.837 0.141 66.704 
7.948 0.148 66.91 0.952 -8.199 0.952 -8.199 0.148 66.91 
8.323 0.154 67.079 0.951 -8.578 0.951 -8.578 0.154 67.079 
8.716 0.161 67.211 0.949 -8.973 0.949 -8.973 0.161 67.211 
9.126 0.168 67.307 0.948 -9.387 0.948 -9.387 0.168 67.307 
9.557 0.175 67.365 0.947 -9.818 0.947 -9.818 0.175 67.365 
10.007 0.182 67.386 0.945 -10.268 0.945 -10.268 0.182 67.386 
10.479 0.19 67.37 0.943 -10.738 0.943 -10.738 0.19 67.37 
10.973 0.199 67.316 0.941 -11.229 0.941 -11.229 0.199 67.316 
11.49 0.207 67.225 0.939 -11.74 0.939 -11.74 0.207 67.225 
12.032 0.216 67.096 0.937 -12.274 0.937 -12.274 0.216 67.096 
12.599 0.226 66.929 0.935 -12.829 0.935 -12.829 0.226 66.929 
13.193 0.235 66.724 0.932 -13.409 0.932 -13.409 0.235 66.724 
13.815 0.245 66.481 0.93 -14.012 0.93 -14.012 0.245 66.481 
14.466 0.256 66.199 0.927 -14.64 0.927 -14.64 0.256 66.199 
15.148 0.267 65.879 0.924 -15.293 0.924 -15.293 0.267 65.879 
15.863 0.278 65.52 0.92 -15.973 0.92 -15.973 0.278 65.52 
16.61 0.29 65.121 0.917 -16.679 0.917 -16.679 0.29 65.121 
17.394 0.302 64.683 0.913 -17.413 0.913 -17.413 0.302 64.683 
18.213 0.315 64.207 0.908 -18.175 0.908 -18.175 0.315 64.207 
19.072 0.328 63.69 0.904 -18.965 0.904 -18.965 0.328 63.69 
19.971 0.341 63.135 0.899 -19.783 0.899 -19.783 0.341 63.135 
20.913 0.355 62.54 0.894 -20.631 0.894 -20.631 0.355 62.54 
21.899 0.369 61.906 0.888 -21.509 0.888 -21.509 0.369 61.906 
22.931 0.384 61.233 0.882 -22.416 0.882 -22.416 0.384 61.233 
24.012 0.399 60.521 0.876 -23.353 0.876 -23.353 0.399 60.521 
25.144 0.414 59.771 0.869 -24.319 0.869 -24.319 0.414 59.771 
26.33 0.43 58.984 0.861 -25.315 0.861 -25.315 0.43 58.984 
27.571 0.446 58.159 0.853 -26.34 0.853 -26.34 0.446 58.159 
28.871 0.462 57.298 0.845 -27.393 0.845 -27.393 0.462 57.298 
30.232 0.479 56.402 0.836 -28.474 0.836 -28.474 0.479 56.402 
31.657 0.496 55.472 0.827 -29.583 0.827 -29.583 0.496 55.472 
33.149 0.513 54.51 0.817 -30.717 0.817 -30.717 0.513 54.51 
34.712 0.53 53.515 0.807 -31.876 0.807 -31.876 0.53 53.515 
36.349 0.547 52.492 0.796 -33.058 0.796 -33.058 0.547 52.492 
38.062 0.565 51.44 0.784 -34.263 0.784 -34.263 0.565 51.44 
39.857 0.582 50.363 0.772 -35.487 0.772 -35.487 0.582 50.363 
41.736 0.6 49.262 0.76 -36.729 0.76 -36.729 0.6 49.262 
43.703 0.617 48.14 0.746 -37.988 0.746 -37.988 0.617 48.14 
45.763 0.634 46.998 0.733 -39.26 0.733 -39.26 0.634 46.998 
47.921 0.651 45.841 0.719 -40.543 0.719 -40.543 0.651 45.841 
50.18 0.668 44.67 0.704 -41.836 0.704 -41.836 0.668 44.67 
52.546 0.685 43.488 0.689 -43.135 0.689 -43.135 0.685 43.488 
55.023 0.701 42.298 0.674 -44.437 0.674 -44.437 0.701 42.298 
57.617 0.717 41.103 0.658 -45.741 0.658 -45.741 0.717 41.103 
60.333 0.733 39.905 0.642 -47.043 0.642 -47.043 0.733 39.905 
63.177 0.748 38.708 0.626 -48.341 0.626 -48.341 0.748 38.708 
66.156 0.763 37.514 0.61 -49.631 0.61 -49.631 0.763 37.514 
69.275 0.777 36.326 0.593 -50.913 0.593 -50.913 0.777 36.326 
72.54 0.791 35.146 0.576 -52.182 0.576 -52.182 0.791 35.146 
75.96 0.804 33.978 0.559 -53.438 0.559 -53.438 0.804 33.978 
79.541 0.817 32.822 0.543 -54.676 0.543 -54.676 0.817 32.822 
83.291 0.829 31.682 0.526 -55.897 0.526 -55.897 0.829 31.682 
87.218 0.84 30.559 0.509 -57.097 0.509 -57.097 0.84 30.559 
91.33 0.851 29.456 0.492 -58.275 0.492 -58.275 0.851 29.456 
95.635 0.862 28.373 0.476 -59.43 0.476 -59.43 0.862 28.373 
100.144 0.871 27.312 0.459 -60.56 0.459 -60.56 0.871 27.312 
104.865 0.881 26.275 0.443 -61.664 0.443 -61.664 0.881 26.275 
109.809 0.889 25.262 0.427 -62.741 0.427 -62.741 0.889 25.262 
114.985 0.898 24.275 0.411 -63.791 0.411 -63.791 0.898 24.275 
120.406 0.905 23.314 0.396 -64.812 0.396 -64.812 0.905 23.314 
126.083 0.913 22.379 0.381 -65.805 0.381 -65.805 0.913 22.379 
132.027 0.919 21.471 0.366 -66.768 0.366 -66.768 0.919 21.471 
138.251 0.926 20.59 0.352 -67.703 0.352 -67.703 0.926 20.59 
144.769 0.931 19.736 0.338 -68.608 0.338 -68.608 0.931 19.736 
151.593 0.937 18.909 0.324 -69.485 0.324 -69.485 0.937 18.909 
158.74 0.942 18.11 0.311 -70.332 0.311 -70.332 0.942 18.11 
166.224 0.947 17.337 0.298 -71.151 0.298 -71.151 0.947 17.337 
174.06 0.951 16.59 0.286 -71.942 0.286 -71.942 0.951 16.59 
182.266 0.955 15.87 0.274 -72.705 0.274 -72.705 0.955 15.87 
190.859 0.959 15.175 0.262 -73.441 0.262 -73.441 0.959 15.175 
199.856 0.962 14.505 0.251 -74.151 0.251 -74.151 0.962 14.505 
209.278 0.965 13.859 0.24 -74.834 0.24 -74.834 0.965 13.859 
219.144 0.968 13.237 0.229 -75.492 0.229 -75.492 0.968 13.237 
229.476 0.971 12.638 0.219 -76.126 0.219 -76.126 0.971 12.638 
240.294 0.974 12.062 0.209 -76.735 0.209 -76.735 0.974 12.062 
251.622 0.976 11.507 0.2 -77.322 0.2 -77.322 0.976 11.507 
263.485 0.978 10.973 0.19 -77.886 0.19 -77.886 0.978 10.973 
275.906 0.98 10.46 0.182 -78.428 0.182 -78.428 0.98 10.46 
288.913 0.982 9.966 0.173 -78.949 0.173 -78.949 0.982 9.966 
302.534 0.983 9.491 0.165 -79.449 0.165 -79.449 0.983 9.491 
316.796 0.985 9.034 0.157 -79.93 0.157 -79.93 0.985 9.034 
331.731 0.986 8.595 0.149 -80.391 0.149 -80.391 0.986 8.595 
347.37 0.987 8.172 0.142 -80.835 0.142 -80.835 0.987 8.172 
363.747 0.989 7.765 0.135 -81.26 0.135 -81.26 0.989 7.765 
380.895 0.99 7.373 0.128 -81.668 0.128 -81.668 0.99 7.373 
398.852 0.991 6.996 0.122 -82.059 0.122 -82.059 0.991 6.996 
417.655 0.991 6.633 0.116 -82.435 0.116 -82.435 0.991 6.633 
437.345 0.992 6.283 0.109 -82.794 0.109 -82.794 0.992 6.283 
457.963 0.993 5.945 0.104 -83.138 0.104 -83.138 0.993 5.945 
479.553 0.994 5.62 0.098 -83.466 0.098 -83.466 0.994 5.62 
502.161 0.994 5.306 0.092 -83.78 0.092 -83.78 0.994 5.306 
525.834 0.995 5.003 0.087 -84.079 0.087 -84.079 0.995 5.003 
550.624 0.995 4.71 0.082 -84.363 0.082 -84.363 0.995 4.71 
576.582 0.996 4.427 0.077 -84.632 0.077 -84.632 0.996 4.427 
603.765 0.996 4.152 0.072 -84.885 0.072 -84.885 0.996 4.152 
632.228 0.997 3.887 0.068 -85.123 0.068 -85.123 0.997 3.887 
662.034 0.997 3.629 0.063 -85.344 0.063 -85.344 0.997 3.629 
693.244 0.997 3.379 0.059 -85.546 0.059 -85.546 0.997 3.379 
725.927 0.997 3.135 0.055 -85.728 0.055 -85.728 0.997 3.135 
760.149 0.998 2.899 0.051 -85.888 0.051 -85.888 0.998 2.899 
795.985 0.998 2.668 0.047 -86.021 0.047 -86.021 0.998 2.668 
833.511 0.998 2.443 0.043 -86.124 0.043 -86.124 0.998 2.443 
872.806 0.998 2.223 0.039 -86.189 0.039 -86.189 0.998 2.223 
913.953 0.998 2.007 0.035 -86.205 0.035 -86.205 0.998 2.007 
957.04 0.998 1.796 0.031 -86.16 0.031 -86.16 0.998 1.796 
1002.158 0.998 1.589 0.028 -86.03 0.028 -86.03 0.998 1.589 
1049.404 0.999 1.385 0.024 -85.782 0.024 -85.782 0.999 1.385 
1098.876 0.999 1.184 0.021 -85.357 0.021 -85.357 0.999 1.184 
1150.681 0.999 0.985 0.017 -84.652 0.017 -84.652 0.999 0.985 
1204.929 0.999 0.789 0.014 -83.465 0.014 -83.465 0.999 0.789 
1261.733 0.998 0.594 0.01 -81.336 0.01 -81.336 0.998 0.594 
1321.216 0.998 0.4 7.161e-3 -76.967 7.161e-3 -76.967 0.998 0.4 
1383.503 0.998 0.208 3.996e-3 -64.999 3.996e-3 -64.999 0.998 0.208 
1448.726 0.998 0.016 1.82e-3 -8.727 1.82e-3 -8.727 0.998 0.016 
1517.024 0.998 -0.176 3.631e-3 57.583 3.631e-3 57.583 0.998 -0.176 
1588.542 0.998 -0.368 6.755e-3 71.595 6.755e-3 71.595 0.998 -0.368 
1663.432 0.998 -0.561 0.01 76.415 0.01 76.415 0.998 -0.561 
1741.852 0.997 -0.754 0.013 78.685 0.013 78.685 0.997 -0.754 
1823.969 0.997 -0.949 0.017 79.91 0.017 79.91 0.997 -0.949 
1909.958 0.997 -1.146 0.02 80.606 0.02 80.606 0.997 -1.146 
2000 0.997 -1.345 0.024 80.994 0.024 80.994 0.997 -1.345 
