# MHz S MA R 50

1 1.525e-3 47.721 0.999 -0.065 0.999 -0.065 1.525e-3 47.721 
1.047 1.571e-3 48.794 0.999 -0.068 0.999 -0.068 1.571e-3 48.794 
1.097 1.619e-3 49.858 0.999 -0.071 0.999 -0.071 1.619e-3 49.858 
1.148 1.67e-3 50.911 0.999 -0.074 0.999 -0.074 1.67e-3 50.911 
1.202 1.723e-3 51.952 0.999 -0.078 0.999 -0.078 1.723e-3 51.952 
1.259 1.78e-3 52.981 0.999 -0.082 0.999 -0.082 1.78e-3 52.981 
1.319 1.839e-3 53.995 0.999 -0.085 0.999 -0.085 1.839e-3 53.995 
1.381 1.902e-3 54.993 0.999 -0.089 0.999 -0.089 1.902e-3 54.993 
1.446 1.969e-3 55.976 0.999 -0.094 0.999 -0.094 1.969e-3 55.976 
1.514 2.039e-3 56.941 0.999 -0.098 0.999 -0.098 2.039e-3 56.941 
1.585 2.112e-3 57.889 0.999 -0.103 0.999 -0.103 2.112e-3 57.889 
1.66 2.19e-3 58.817 0.999 -0.107 0.999 -0.107 2.19e-3 58.817 
1.739 2.272e-3 59.727 0.999 -0.113 0.999 -0.113 2.272e-3 59.727 
1.821 2.358e-3 60.617 0.999 -0.118 0.999 -0.118 2.358e-3 60.617 
1.906 2.448e-3 61.486 0.999 -0.123 0.999 -0.123 2.448e-3 61.486 
1.996 2.543e-3 62.335 0.999 -0.129 0.999 -0.129 2.543e-3 62.335 
2.091 2.643e-3 63.164 0.999 -0.135 0.999 -0.135 2.643e-3 63.164 
2.189 2.749e-3 63.971 0.999 -0.142 0.999 -0.142 2.749e-3 63.971 
2.292 2.859e-3 64.757 0.999 -0.148 0.999 -0.148 2.859e-3 64.757 
2.4 2.976e-3 65.523 0.999 -0.155 0.999 -0.155 2.976e-3 65.523 
2.514 3.098e-3 66.267 0.999 -0.163 0.999 -0.163 3.098e-3 66.267 
2.632 3.226e-3 66.991 0.999 -0.17 0.999 -0.17 3.226e-3 66.991 
2.756 3.361e-3 67.693 0.999 -0.178 0.999 -0.178 3.361e-3 67.693 
2.886 3.503e-3 68.376 0.999 -0.187 0.999 -0.187 3.503e-3 68.376 
3.023 3.651e-3 69.037 0.999 -0.196 0.999 -0.196 3.651e-3 69.037 
3.165 3.807e-3 69.679 0.999 -0.205 0.999 -0.205 3.807e-3 69.679 
3.314 3.971e-3 70.301 0.999 -0.214 0.999 -0.214 3.971e-3 70.301 
3.471 4.143e-3 70.903 0.999 -0.225 0.999 -0.225 4.143e-3 70.903 
3.634 4.323e-3 71.486 0.999 -0.235 0.999 -0.235 4.323e-3 71.486 
3.806 4.512e-3 72.05 0.999 -0.246 0.999 -0.246 4.512e-3 72.05 
3.985 4.71e-3 72.596 0.999 -0.258 0.999 -0.258 4.71e-3 72.596 
4.173 4.918e-3 73.123 0.999 -0.27 0.999 -0.27 4.918e-3 73.123 
4.37 5.137e-3 73.633 0.999 -0.283 0.999 -0.283 5.137e-3 73.633 
4.576 5.365e-3 74.126 0.999 -0.296 0.999 -0.296 5.365e-3 74.126 
4.792 5.605e-3 74.602 0.999 -0.31 0.999 -0.31 5.605e-3 74.602 
5.018 5.857e-3 75.061 0.999 -0.325 0.999 -0.325 5.857e-3 75.061 
5.255 6.12e-3 75.504 0.998 -0.34 0.998 -0.34 6.12e-3 75.504 
5.503 6.396e-3 75.932 0.998 -0.356 0.998 -0.356 6.396e-3 75.932 
5.762 6.686e-3 76.344 0.998 -0.373 0.998 -0.373 6.686e-3 76.344 
6.034 6.989e-3 76.741 0.998 -0.39 0.998 -0.39 6.989e-3 76.741 
6.319 7.307e-3 77.124 0.998 -0.409 0.998 -0.409 7.307e-3 77.124 
6.617 7.64e-3 77.493 0.998 -0.428 0.998 -0.428 7.64e-3 77.493 
6.929 7.99e-3 77.848 0.998 -0.448 0.998 -0.448 7.99e-3 77.848 
7.256 8.355e-3 78.189 0.998 -0.469 0.998 -0.469 8.355e-3 78.189 
7.598 8.739e-3 78.518 0.998 -0.492 0.998 -0.492 8.739e-3 78.518 
7.956 9.14e-3 78.834 0.998 -0.515 0.998 -0.515 9.14e-3 78.834 
8.332 9.561e-3 79.137 0.998 -0.539 0.998 -0.539 9.561e-3 79.137 
8.725 0.01 79.429 0.998 -0.564 0.998 -0.564 0.01 79.429 
9.136 0.01 79.709 0.998 -0.591 0.998 -0.591 0.01 79.709 
9.567 0.011 79.977 0.998 -0.619 0.998 -0.619 0.011 79.977 
10.018 0.011 80.234 0.998 -0.648 0.998 -0.648 0.011 80.234 
10.491 0.012 80.481 0.998 -0.679 0.998 -0.679 0.012 80.481 
10.986 0.013 80.716 0.998 -0.711 0.998 -0.711 0.013 80.716 
11.504 0.013 80.942 0.998 -0.744 0.998 -0.744 0.013 80.942 
12.046 0.014 81.157 0.998 -0.779 0.998 -0.779 0.014 81.157 
12.615 0.014 81.362 0.998 -0.816 0.998 -0.816 0.014 81.362 
13.21 0.015 81.558 0.998 -0.854 0.998 -0.854 0.015 81.558 
13.833 0.016 81.744 0.998 -0.894 0.998 -0.894 0.016 81.744 
14.485 0.016 81.92 0.998 -0.937 0.998 -0.937 0.016 81.92 
15.168 0.017 82.088 0.998 -0.981 0.998 -0.981 0.017 82.088 
15.884 0.018 82.247 0.998 -1.027 0.998 -1.027 0.018 82.247 
16.633 0.019 82.396 0.998 -1.075 0.998 -1.075 0.019 82.396 
17.417 0.02 82.537 0.998 -1.126 0.998 -1.126 0.02 82.537 
18.239 0.021 82.67 0.998 -1.179 0.998 -1.179 0.021 82.67 
19.099 0.022 82.794 0.998 -1.235 0.998 -1.235 0.022 82.794 
20 0.023 82.909 0.997 -1.293 0.997 -1.293 0.023 82.909 
20.943 0.024 83.016 0.997 -1.354 0.997 -1.354 0.024 83.016 
21.931 0.025 83.115 0.997 -1.418 0.997 -1.418 0.025 83.115 
22.966 0.026 83.206 0.997 -1.484 0.997 -1.484 0.026 83.206 
24.049 0.027 83.288 0.997 -1.554 0.997 -1.554 0.027 83.288 
25.183 0.029 83.363 0.997 -1.627 0.997 -1.627 0.029 83.363 
26.371 0.03 83.429 0.997 -1.704 0.997 -1.704 0.03 83.429 
27.615 0.031 83.487 0.997 -1.784 0.997 -1.784 0.031 83.487 
28.917 0.033 83.537 0.997 -1.868 0.997 -1.868 0.033 83.537 
30.281 0.034 83.579 0.997 -1.956 0.997 -1.956 0.034 83.579 
31.709 0.036 83.613 0.997 -2.048 0.997 -2.048 0.036 83.613 
33.205 0.038 83.638 0.997 -2.145 0.997 -2.145 0.038 83.638 
34.771 0.039 83.655 0.996 -2.246 0.996 -2.246 0.039 83.655 
36.411 0.041 83.664 0.996 -2.352 0.996 -2.352 0.041 83.664 
38.129 0.043 83.664 0.996 -2.462 0.996 -2.462 0.043 83.664 
39.927 0.045 83.655 0.996 -2.578 0.996 -2.578 0.045 83.655 
41.81 0.047 83.638 0.996 -2.699 0.996 -2.699 0.047 83.638 
43.782 0.049 83.612 0.996 -2.826 0.996 -2.826 0.049 83.612 
45.847 0.052 83.577 0.996 -2.959 0.996 -2.959 0.052 83.577 
48.01 0.054 83.533 0.995 -3.098 0.995 -3.098 0.054 83.533 
50.274 0.057 83.479 0.995 -3.244 0.995 -3.244 0.057 83.479 
52.646 0.059 83.416 0.995 -3.397 0.995 -3.397 0.059 83.416 
55.129 0.062 83.343 0.995 -3.556 0.995 -3.556 0.062 83.343 
57.729 0.065 83.26 0.994 -3.723 0.994 -3.723 0.065 83.26 
60.452 0.068 83.166 0.994 -3.898 0.994 -3.898 0.068 83.166 
63.303 0.071 83.062 0.994 -4.081 0.994 -4.081 0.071 83.062 
66.289 0.075 82.947 0.994 -4.273 0.994 -4.273 0.075 82.947 
69.416 0.078 82.821 0.993 -4.473 0.993 -4.473 0.078 82.821 
72.69 0.082 82.683 0.993 -4.683 0.993 -4.683 0.082 82.683 
76.118 0.086 82.534 0.993 -4.903 0.993 -4.903 0.086 82.534 
79.709 0.09 82.372 0.992 -5.133 0.992 -5.133 0.09 82.372 
83.468 0.094 82.198 0.992 -5.373 0.992 -5.373 0.094 82.198 
87.405 0.098 82.01 0.991 -5.625 0.991 -5.625 0.098 82.01 
91.528 0.103 81.809 0.991 -5.888 0.991 -5.888 0.103 81.809 
95.845 0.107 81.595 0.99 -6.163 0.99 -6.163 0.107 81.595 
100.366 0.112 81.365 0.989 -6.451 0.989 -6.451 0.112 81.365 
105.099 0.118 81.121 0.989 -6.752 0.989 -6.752 0.118 81.121 
110.057 0.123 80.861 0.988 -7.068 0.988 -7.068 0.123 80.861 
115.248 0.129 80.586 0.987 -7.397 0.987 -7.397 0.129 80.586 
120.684 0.135 80.293 0.986 -7.742 0.986 -7.742 0.135 80.293 
126.376 0.141 79.984 0.985 -8.102 0.985 -8.102 0.141 79.984 
132.337 0.148 79.657 0.984 -8.478 0.984 -8.478 0.148 79.657 
138.578 0.154 79.311 0.983 -8.872 0.983 -8.872 0.154 79.311 
145.115 0.161 78.947 0.982 -9.283 0.982 -9.283 0.161 78.947 
151.959 0.169 78.563 0.981 -9.712 0.981 -9.712 0.169 78.563 
159.127 0.176 78.158 0.979 -10.161 0.979 -10.161 0.176 78.158 
166.632 0.185 77.732 0.978 -10.63 0.978 -10.63 0.185 77.732 
174.492 0.193 77.284 0.976 -11.119 0.976 -11.119 0.193 77.284 
182.722 0.202 76.814 0.974 -11.63 0.974 -11.63 0.202 76.814 
191.34 0.211 76.321 0.972 -12.163 0.972 -12.163 0.211 76.321 
200.365 0.22 75.803 0.97 -12.719 0.97 -12.719 0.22 75.803 
209.816 0.23 75.26 0.967 -13.298 0.967 -13.298 0.23 75.26 
219.712 0.24 74.692 0.965 -13.903 0.965 -13.903 0.24 74.692 
230.075 0.251 74.097 0.962 -14.532 0.962 -14.532 0.251 74.097 
240.927 0.262 73.476 0.959 -15.188 0.959 -15.188 0.262 73.476 
252.291 0.274 72.826 0.956 -15.871 0.956 -15.871 0.274 72.826 
264.191 0.285 72.148 0.952 -16.582 0.952 -16.582 0.285 72.148 
276.652 0.298 71.44 0.948 -17.321 0.948 -17.321 0.298 71.44 
289.7 0.311 70.703 0.944 -18.089 0.944 -18.089 0.311 70.703 
303.365 0.324 69.935 0.94 -18.886 0.94 -18.886 0.324 69.935 
317.673 0.337 69.135 0.935 -19.715 0.935 -19.715 0.337 69.135 
332.657 0.351 68.304 0.929 -20.574 0.929 -20.574 0.351 68.304 
348.347 0.366 67.441 0.924 -21.464 0.924 -21.464 0.366 67.441 
364.778 0.381 66.546 0.918 -22.386 0.918 -22.386 0.381 66.546 
381.983 0.396 65.618 0.911 -23.339 0.911 -23.339 0.396 65.618 
400 0.412 64.657 0.904 -24.325 0.904 -24.325 0.412 64.657 
418.867 0.428 63.664 0.896 -25.343 0.896 -25.343 0.428 63.664 
438.623 0.445 62.638 0.888 -26.393 0.888 -26.393 0.445 62.638 
459.312 0.461 61.579 0.88 -27.474 0.88 -27.474 0.461 61.579 
480.976 0.479 60.489 0.87 -28.587 0.87 -28.587 0.479 60.489 
503.662 0.496 59.367 0.861 -29.73 0.861 -29.73 0.496 59.367 
527.418 0.514 58.215 0.85 -30.904 0.85 -30.904 0.514 58.215 
552.295 0.532 57.033 0.839 -32.106 0.839 -32.106 0.532 57.033 
578.345 0.55 55.822 0.827 -33.336 0.827 -33.336 0.55 55.822 
605.623 0.568 54.585 0.815 -34.593 0.815 -34.593 0.568 54.585 
634.189 0.586 53.321 0.802 -35.874 0.802 -35.874 0.586 53.321 
664.101 0.604 52.034 0.788 -37.179 0.788 -37.179 0.604 52.034 
695.425 0.623 50.725 0.774 -38.506 0.774 -38.506 0.623 50.725 
728.226 0.641 49.395 0.759 -39.852 0.759 -39.852 0.641 49.395 
762.574 0.659 48.048 0.744 -41.215 0.744 -41.215 0.659 48.048 
798.542 0.677 46.685 0.728 -42.593 0.728 -42.593 0.677 46.685 
836.206 0.695 45.309 0.711 -43.984 0.711 -43.984 0.695 45.309 
875.648 0.712 43.922 0.694 -45.385 0.694 -45.385 0.712 43.922 
916.949 0.729 42.527 0.676 -46.793 0.676 -46.793 0.729 42.527 
960.199 0.746 41.126 0.658 -48.207 0.658 -48.207 0.746 41.126 
1005.488 0.762 39.722 0.639 -49.623 0.639 -49.623 0.762 39.722 
1052.914 0.778 38.317 0.62 -51.038 0.62 -51.038 0.778 38.317 
1102.576 0.793 36.914 0.601 -52.451 0.601 -52.451 0.793 36.914 
1154.581 0.808 35.516 0.581 -53.859 0.581 -53.859 0.808 35.516 
1209.039 0.822 34.124 0.561 -55.26 0.561 -55.26 0.822 34.124 
1266.065 0.835 32.74 0.541 -56.65 0.541 -56.65 0.835 32.74 
1325.782 0.848 31.367 0.521 -58.03 0.521 -58.03 0.848 31.367 
1388.314 0.861 30.007 0.5 -59.395 0.5 -59.395 0.861 30.007 
1453.797 0.873 28.66 0.48 -60.746 0.48 -60.746 0.873 28.66 
1522.368 0.884 27.328 0.459 -62.079 0.459 -62.079 0.884 27.328 
1594.173 0.894 26.014 0.439 -63.395 0.439 -63.395 0.894 26.014 
1669.365 0.904 24.716 0.418 -64.691 0.418 -64.691 0.904 24.716 
1748.103 0.913 23.437 0.398 -65.966 0.398 -65.966 0.913 23.437 
1830.556 0.922 22.177 0.377 -67.22 0.377 -67.22 0.922 22.177 
1916.897 0.93 20.936 0.357 -68.452 0.357 -68.452 0.93 20.936 
2007.311 0.938 19.715 0.337 -69.661 0.337 -69.661 0.938 19.715 
2101.989 0.945 18.513 0.318 -70.847 0.318 -70.847 0.945 18.513 
2201.133 0.951 17.33 0.298 -72.008 0.298 -72.008 0.951 17.33 
2304.953 0.957 16.166 0.278 -73.144 0.278 -73.144 0.957 16.166 
2413.671 0.963 15.021 0.259 -74.255 0.259 -74.255 0.963 15.021 
2527.516 0.968 13.894 0.24 -75.338 0.24 -75.338 0.968 13.894 
2646.73 0.972 12.784 0.221 -76.394 0.221 -76.394 0.972 12.784 
2771.568 0.976 11.69 0.203 -77.418 0.203 -77.418 0.976 11.69 
2902.294 0.98 10.611 0.184 -78.409 0.184 -78.409 0.98 10.611 
3039.186 0.983 9.547 0.166 -79.36 0.166 -79.36 0.983 9.547 
3182.534 0.986 8.496 0.148 -80.263 0.148 -80.263 0.986 8.496 
3332.644 0.988 7.457 0.13 -81.106 0.13 -81.106 0.988 7.457 
3489.834 0.99 6.428 0.112 -81.867 0.112 -81.867 0.99 6.428 
3654.438 0.992 5.409 0.094 -82.505 0.094 -82.505 0.992 5.409 
3826.806 0.993 4.399 0.077 -82.946 0.077 -82.946 0.993 4.399 
4007.304 0.995 3.395 0.059 -83.024 0.059 -83.024 0.995 3.395 
4196.316 0.995 2.396 0.042 -82.299 0.042 -82.299 0.995 2.396 
4394.242 0.996 1.401 0.025 -79.113 0.025 -79.113 0.996 1.401 
4601.504 0.996 0.409 8.348e-3 -58.424 8.348e-3 -58.424 0.996 0.409 
4818.542 0.995 -0.582 0.011 65.1 0.011 65.1 0.995 -0.582 
5045.817 0.995 -1.573 0.028 78.329 0.028 78.329 0.995 -1.573 
5283.812 0.994 -2.565 0.045 80.775 0.045 80.775 0.994 -2.565 
5533.032 0.992 -3.561 0.062 81.284 0.062 81.284 0.992 -3.561 
5794.008 0.991 -4.561 0.08 81.108 0.08 81.108 0.991 -4.561 
6067.292 0.989 -5.567 0.097 80.607 0.097 80.607 0.989 -5.567 
6353.467 0.986 -6.579 0.115 79.924 0.115 79.924 0.986 -6.579 
6653.139 0.984 -7.6 0.132 79.126 0.132 79.126 0.984 -7.6 
6966.946 0.98 -8.629 0.15 78.247 0.15 78.247 0.98 -8.629 
7295.554 0.977 -9.669 0.168 77.308 0.168 77.308 0.977 -9.669 
7639.662 0.973 -10.72 0.186 76.321 0.186 76.321 0.973 -10.72 
8000 0.969 -11.783 0.204 75.294 0.204 75.294 0.969 -11.783 
