# MHz S MA R 50

1 868e-6 38.97 0.999 -0.031 0.999 -0.031 868e-6 38.97 
1.047 886.8e-6 40.134 0.999 -0.033 0.999 -0.033 886.8e-6 40.134 
1.096 906.9e-6 41.303 0.999 -0.034 0.999 -0.034 906.9e-6 41.303 
1.148 928.2e-6 42.476 0.999 -0.036 0.999 -0.036 928.2e-6 42.476 
1.202 950.8e-6 43.65 0.999 -0.038 0.999 -0.038 950.8e-6 43.65 
1.259 974.9e-6 44.824 0.999 -0.039 0.999 -0.039 974.9e-6 44.824 
1.318 1e-3 45.995 0.999 -0.041 0.999 -0.041 1e-3 45.995 
1.38 1.028e-3 47.162 0.999 -0.043 0.999 -0.043 1.028e-3 47.162 
1.445 1.056e-3 48.323 0.999 -0.045 0.999 -0.045 1.056e-3 48.323 
1.514 1.087e-3 49.475 0.999 -0.047 0.999 -0.047 1.087e-3 49.475 
1.585 1.119e-3 50.617 0.999 -0.05 0.999 -0.05 1.119e-3 50.617 
1.66 1.154e-3 51.747 0.999 -0.052 0.999 -0.052 1.154e-3 51.747 
1.738 1.19e-3 52.864 0.999 -0.054 0.999 -0.054 1.19e-3 52.864 
1.82 1.228e-3 53.965 0.999 -0.057 0.999 -0.057 1.228e-3 53.965 
1.905 1.269e-3 55.051 0.999 -0.06 0.999 -0.06 1.269e-3 55.051 
1.995 1.312e-3 56.118 0.999 -0.062 0.999 -0.062 1.312e-3 56.118 
2.089 1.357e-3 57.166 0.999 -0.065 0.999 -0.065 1.357e-3 57.166 
2.188 1.405e-3 58.194 0.999 -0.068 0.999 -0.068 1.405e-3 58.194 
2.291 1.456e-3 59.202 0.999 -0.072 0.999 -0.072 1.456e-3 59.202 
2.399 1.509e-3 60.187 0.999 -0.075 0.999 -0.075 1.509e-3 60.187 
2.512 1.565e-3 61.15 0.999 -0.079 0.999 -0.079 1.565e-3 61.15 
2.63 1.625e-3 62.09 0.999 -0.082 0.999 -0.082 1.625e-3 62.09 
2.754 1.687e-3 63.007 0.999 -0.086 0.999 -0.086 1.687e-3 63.007 
2.884 1.753e-3 63.9 0.999 -0.09 0.999 -0.09 1.753e-3 63.9 
3.02 1.822e-3 64.768 0.999 -0.095 0.999 -0.095 1.822e-3 64.768 
3.162 1.895e-3 65.613 0.999 -0.099 0.999 -0.099 1.895e-3 65.613 
3.311 1.972e-3 66.433 0.999 -0.104 0.999 -0.104 1.972e-3 66.433 
3.467 2.052e-3 67.23 0.999 -0.109 0.999 -0.109 2.052e-3 67.23 
3.631 2.137e-3 68.002 0.999 -0.114 0.999 -0.114 2.137e-3 68.002 
3.802 2.226e-3 68.75 0.999 -0.119 0.999 -0.119 2.226e-3 68.75 
3.981 2.32e-3 69.475 0.999 -0.125 0.999 -0.125 2.32e-3 69.475 
4.169 2.418e-3 70.176 0.999 -0.13 0.999 -0.13 2.418e-3 70.176 
4.365 2.522e-3 70.854 0.999 -0.137 0.999 -0.137 2.522e-3 70.854 
4.571 2.63e-3 71.51 0.999 -0.143 0.999 -0.143 2.63e-3 71.51 
4.786 2.744e-3 72.143 0.999 -0.15 0.999 -0.15 2.744e-3 72.143 
5.012 2.864e-3 72.755 0.999 -0.157 0.999 -0.157 2.864e-3 72.755 
5.248 2.989e-3 73.345 0.999 -0.164 0.999 -0.164 2.989e-3 73.345 
5.495 3.121e-3 73.915 0.999 -0.172 0.999 -0.172 3.121e-3 73.915 
5.754 3.259e-3 74.464 0.999 -0.18 0.999 -0.18 3.259e-3 74.464 
6.026 3.404e-3 74.993 0.999 -0.189 0.999 -0.189 3.404e-3 74.993 
6.31 3.556e-3 75.503 0.999 -0.197 0.999 -0.197 3.556e-3 75.503 
6.607 3.716e-3 75.995 0.999 -0.207 0.999 -0.207 3.716e-3 75.995 
6.918 3.883e-3 76.468 0.999 -0.216 0.999 -0.216 3.883e-3 76.468 
7.244 4.058e-3 76.923 0.999 -0.227 0.999 -0.227 4.058e-3 76.923 
7.586 4.242e-3 77.361 0.999 -0.237 0.999 -0.237 4.242e-3 77.361 
7.943 4.434e-3 77.782 0.999 -0.249 0.999 -0.249 4.434e-3 77.782 
8.318 4.636e-3 78.188 0.999 -0.26 0.999 -0.26 4.636e-3 78.188 
8.71 4.848e-3 78.577 0.999 -0.273 0.999 -0.273 4.848e-3 78.577 
9.12 5.07e-3 78.951 0.999 -0.285 0.999 -0.285 5.07e-3 78.951 
9.55 5.302e-3 79.311 0.999 -0.299 0.999 -0.299 5.302e-3 79.311 
10 5.546e-3 79.656 0.999 -0.313 0.999 -0.313 5.546e-3 79.656 
10.471 5.801e-3 79.988 0.999 -0.328 0.999 -0.328 5.801e-3 79.988 
10.965 6.068e-3 80.306 0.999 -0.343 0.999 -0.343 6.068e-3 80.306 
11.482 6.349e-3 80.611 0.999 -0.359 0.999 -0.359 6.349e-3 80.611 
12.023 6.642e-3 80.903 0.999 -0.376 0.999 -0.376 6.642e-3 80.903 
12.589 6.95e-3 81.183 0.999 -0.394 0.999 -0.394 6.95e-3 81.183 
13.183 7.272e-3 81.452 0.999 -0.412 0.999 -0.412 7.272e-3 81.452 
13.804 7.609e-3 81.709 0.999 -0.432 0.999 -0.432 7.609e-3 81.709 
14.454 7.963e-3 81.955 0.999 -0.452 0.999 -0.452 7.963e-3 81.955 
15.136 8.333e-3 82.19 0.999 -0.474 0.999 -0.474 8.333e-3 82.19 
15.849 8.721e-3 82.415 0.999 -0.496 0.999 -0.496 8.721e-3 82.415 
16.596 9.127e-3 82.63 0.999 -0.519 0.999 -0.519 9.127e-3 82.63 
17.378 9.552e-3 82.835 0.999 -0.544 0.999 -0.544 9.552e-3 82.835 
18.197 9.998e-3 83.03 0.999 -0.569 0.999 -0.569 9.998e-3 83.03 
19.055 0.01 83.216 0.999 -0.596 0.999 -0.596 0.01 83.216 
19.953 0.011 83.393 0.999 -0.624 0.999 -0.624 0.011 83.393 
20.893 0.011 83.561 0.999 -0.654 0.999 -0.654 0.011 83.561 
21.878 0.012 83.721 0.999 -0.684 0.999 -0.684 0.012 83.721 
22.909 0.013 83.872 0.999 -0.717 0.999 -0.717 0.013 83.872 
23.988 0.013 84.016 0.999 -0.75 0.999 -0.75 0.013 84.016 
25.119 0.014 84.151 0.999 -0.786 0.999 -0.786 0.014 84.151 
26.303 0.014 84.278 0.999 -0.823 0.999 -0.823 0.014 84.278 
27.542 0.015 84.398 0.999 -0.861 0.999 -0.861 0.015 84.398 
28.84 0.016 84.51 0.999 -0.902 0.999 -0.902 0.016 84.51 
30.2 0.017 84.615 0.999 -0.945 0.999 -0.945 0.017 84.615 
31.623 0.017 84.713 0.999 -0.989 0.999 -0.989 0.017 84.713 
33.113 0.018 84.803 0.999 -1.036 0.999 -1.036 0.018 84.803 
34.674 0.019 84.887 0.998 -1.084 0.998 -1.084 0.019 84.887 
36.308 0.02 84.963 0.998 -1.135 0.998 -1.135 0.02 84.963 
38.019 0.021 85.033 0.998 -1.189 0.998 -1.189 0.021 85.033 
39.811 0.022 85.096 0.998 -1.245 0.998 -1.245 0.022 85.096 
41.687 0.023 85.152 0.998 -1.304 0.998 -1.304 0.023 85.152 
43.652 0.024 85.201 0.998 -1.365 0.998 -1.365 0.024 85.201 
45.709 0.025 85.243 0.998 -1.429 0.998 -1.429 0.025 85.243 
47.863 0.026 85.279 0.998 -1.497 0.998 -1.497 0.026 85.279 
50.119 0.027 85.308 0.998 -1.567 0.998 -1.567 0.027 85.308 
52.481 0.029 85.33 0.998 -1.641 0.998 -1.641 0.029 85.33 
54.954 0.03 85.346 0.998 -1.718 0.998 -1.718 0.03 85.346 
57.544 0.031 85.354 0.998 -1.799 0.998 -1.799 0.031 85.354 
60.256 0.033 85.356 0.998 -1.884 0.998 -1.884 0.033 85.356 
63.096 0.034 85.351 0.998 -1.972 0.998 -1.972 0.034 85.351 
66.069 0.036 85.339 0.998 -2.065 0.998 -2.065 0.036 85.339 
69.183 0.038 85.32 0.998 -2.162 0.998 -2.162 0.038 85.32 
72.444 0.04 85.294 0.998 -2.264 0.998 -2.264 0.04 85.294 
75.858 0.041 85.26 0.997 -2.371 0.997 -2.371 0.041 85.26 
79.433 0.043 85.219 0.997 -2.482 0.997 -2.482 0.043 85.219 
83.176 0.045 85.17 0.997 -2.599 0.997 -2.599 0.045 85.17 
87.096 0.048 85.114 0.997 -2.721 0.997 -2.721 0.048 85.114 
91.201 0.05 85.049 0.997 -2.849 0.997 -2.849 0.05 85.049 
95.499 0.052 84.977 0.997 -2.983 0.997 -2.983 0.052 84.977 
100 0.055 84.896 0.997 -3.123 0.997 -3.123 0.055 84.896 
104.713 0.057 84.807 0.996 -3.27 0.996 -3.27 0.057 84.807 
109.648 0.06 84.709 0.996 -3.424 0.996 -3.424 0.06 84.709 
114.815 0.063 84.602 0.996 -3.585 0.996 -3.585 0.063 84.602 
120.226 0.065 84.486 0.996 -3.753 0.996 -3.753 0.065 84.486 
125.893 0.069 84.36 0.996 -3.929 0.996 -3.929 0.069 84.36 
131.826 0.072 84.225 0.995 -4.114 0.995 -4.114 0.072 84.225 
138.038 0.075 84.079 0.995 -4.307 0.995 -4.307 0.075 84.079 
144.544 0.079 83.922 0.995 -4.509 0.995 -4.509 0.079 83.922 
151.356 0.082 83.755 0.994 -4.721 0.994 -4.721 0.082 83.755 
158.489 0.086 83.577 0.994 -4.942 0.994 -4.942 0.086 83.577 
165.959 0.09 83.387 0.994 -5.174 0.994 -5.174 0.09 83.387 
173.78 0.094 83.185 0.993 -5.416 0.993 -5.416 0.094 83.185 
181.97 0.099 82.97 0.993 -5.67 0.993 -5.67 0.099 82.97 
190.546 0.103 82.743 0.992 -5.935 0.992 -5.935 0.103 82.743 
199.526 0.108 82.502 0.992 -6.213 0.992 -6.213 0.108 82.502 
208.93 0.113 82.247 0.991 -6.503 0.991 -6.503 0.113 82.247 
218.776 0.119 81.978 0.99 -6.807 0.99 -6.807 0.119 81.978 
229.087 0.124 81.693 0.99 -7.124 0.99 -7.124 0.124 81.693 
239.883 0.13 81.394 0.989 -7.457 0.989 -7.457 0.13 81.394 
251.189 0.136 81.078 0.988 -7.804 0.988 -7.804 0.136 81.078 
263.027 0.142 80.745 0.987 -8.167 0.987 -8.167 0.142 80.745 
275.423 0.149 80.395 0.986 -8.547 0.986 -8.547 0.149 80.395 
288.403 0.155 80.027 0.985 -8.943 0.985 -8.943 0.155 80.027 
301.995 0.163 79.64 0.984 -9.358 0.984 -9.358 0.163 79.64 
316.228 0.17 79.233 0.983 -9.791 0.983 -9.791 0.17 79.233 
331.131 0.178 78.807 0.981 -10.244 0.981 -10.244 0.178 78.807 
346.737 0.186 78.359 0.98 -10.716 0.98 -10.716 0.186 78.359 
363.078 0.194 77.89 0.978 -11.21 0.978 -11.21 0.194 77.89 
380.189 0.203 77.399 0.976 -11.725 0.976 -11.725 0.203 77.399 
398.107 0.212 76.885 0.974 -12.263 0.974 -12.263 0.212 76.885 
416.869 0.222 76.346 0.972 -12.824 0.972 -12.824 0.222 76.346 
436.516 0.232 75.783 0.969 -13.408 0.969 -13.408 0.232 75.783 
457.088 0.242 75.194 0.967 -14.018 0.967 -14.018 0.242 75.194 
478.63 0.253 74.579 0.964 -14.654 0.964 -14.654 0.253 74.579 
501.187 0.264 73.937 0.961 -15.316 0.961 -15.316 0.264 73.937 
524.807 0.276 73.267 0.958 -16.005 0.958 -16.005 0.276 73.267 
549.541 0.288 72.569 0.954 -16.722 0.954 -16.722 0.288 72.569 
575.44 0.3 71.841 0.95 -17.468 0.95 -17.468 0.3 71.841 
602.56 0.313 71.083 0.946 -18.244 0.946 -18.244 0.313 71.083 
630.957 0.326 70.295 0.942 -19.049 0.942 -19.049 0.326 70.295 
660.693 0.34 69.475 0.937 -19.885 0.937 -19.885 0.34 69.475 
691.831 0.354 68.624 0.931 -20.753 0.931 -20.753 0.354 68.624 
724.436 0.369 67.74 0.926 -21.652 0.926 -21.652 0.369 67.74 
758.578 0.384 66.824 0.919 -22.584 0.919 -22.584 0.384 66.824 
794.328 0.4 65.875 0.913 -23.547 0.913 -23.547 0.4 65.875 
831.764 0.415 64.893 0.906 -24.544 0.906 -24.544 0.415 64.893 
870.964 0.432 63.878 0.898 -25.572 0.898 -25.572 0.432 63.878 
912.011 0.448 62.83 0.89 -26.634 0.89 -26.634 0.448 62.83 
954.993 0.465 61.749 0.881 -27.727 0.881 -27.727 0.465 61.749 
1000 0.483 60.636 0.872 -28.852 0.872 -28.852 0.483 60.636 
1047.129 0.5 59.491 0.862 -30.009 0.862 -30.009 0.5 59.491 
1096.478 0.518 58.316 0.851 -31.196 0.851 -31.196 0.518 58.316 
1148.154 0.536 57.11 0.84 -32.413 0.84 -32.413 0.536 57.11 
1202.264 0.554 55.875 0.828 -33.658 0.828 -33.658 0.554 55.875 
1258.925 0.573 54.613 0.815 -34.931 0.815 -34.931 0.573 54.613 
1318.257 0.591 53.324 0.802 -36.229 0.802 -36.229 0.591 53.324 
1380.384 0.609 52.011 0.788 -37.552 0.788 -37.552 0.609 52.011 
1445.44 0.628 50.676 0.774 -38.896 0.774 -38.896 0.628 50.676 
1513.561 0.646 49.319 0.758 -40.261 0.758 -40.261 0.646 49.319 
1584.893 0.665 47.944 0.743 -41.643 0.743 -41.643 0.665 47.944 
1659.587 0.683 46.553 0.726 -43.042 0.726 -43.042 0.683 46.553 
1737.801 0.7 45.148 0.709 -44.454 0.709 -44.454 0.7 45.148 
1819.701 0.718 43.731 0.691 -45.877 0.691 -45.877 0.718 43.731 
1905.461 0.735 42.306 0.673 -47.308 0.673 -47.308 0.735 42.306 
1995.262 0.752 40.874 0.654 -48.745 0.654 -48.745 0.752 40.874 
2089.296 0.768 39.437 0.635 -50.185 0.635 -50.185 0.768 39.437 
2187.762 0.784 38 0.616 -51.625 0.616 -51.625 0.784 38 
2290.868 0.799 36.563 0.596 -53.064 0.596 -53.064 0.799 36.563 
2398.833 0.814 35.13 0.575 -54.499 0.575 -54.499 0.814 35.13 
2511.886 0.828 33.702 0.555 -55.926 0.555 -55.926 0.828 33.702 
2630.268 0.842 32.282 0.534 -57.345 0.534 -57.345 0.842 32.282 
2754.229 0.855 30.871 0.513 -58.753 0.513 -58.753 0.855 30.871 
2884.032 0.867 29.472 0.492 -60.148 0.492 -60.148 0.867 29.472 
3019.952 0.879 28.085 0.471 -61.528 0.471 -61.528 0.879 28.085 
3162.278 0.89 26.713 0.45 -62.892 0.45 -62.892 0.89 26.713 
3311.311 0.901 25.355 0.428 -64.237 0.428 -64.237 0.901 25.355 
3467.369 0.91 24.014 0.407 -65.564 0.407 -65.564 0.91 24.014 
3630.781 0.92 22.69 0.386 -66.869 0.386 -66.869 0.92 22.69 
3801.894 0.928 21.383 0.365 -68.153 0.365 -68.153 0.928 21.383 
3981.072 0.936 20.094 0.344 -69.414 0.344 -69.414 0.936 20.094 
4168.694 0.944 18.822 0.323 -70.65 0.323 -70.65 0.944 18.822 
4365.158 0.95 17.569 0.302 -71.86 0.302 -71.86 0.95 17.569 
4570.882 0.957 16.333 0.281 -73.043 0.281 -73.043 0.957 16.333 
4786.301 0.962 15.114 0.261 -74.197 0.261 -74.197 0.962 15.114 
5011.872 0.967 13.912 0.24 -75.318 0.24 -75.318 0.967 13.912 
5248.075 0.972 12.726 0.22 -76.403 0.22 -76.403 0.972 12.726 
5495.409 0.976 11.555 0.2 -77.446 0.2 -77.446 0.976 11.555 
5754.399 0.98 10.398 0.181 -78.44 0.181 -78.44 0.98 10.398 
6025.596 0.983 9.254 0.161 -79.372 0.161 -79.372 0.983 9.254 
6309.573 0.986 8.123 0.141 -80.223 0.141 -80.223 0.986 8.123 
6606.934 0.988 7.003 0.122 -80.961 0.122 -80.961 0.988 7.003 
6918.31 0.99 5.892 0.103 -81.53 0.103 -81.53 0.99 5.892 
7244.36 0.992 4.79 0.084 -81.82 0.084 -81.82 0.992 4.79 
7585.776 0.993 3.695 0.065 -81.596 0.065 -81.596 0.993 3.695 
7943.282 0.993 2.606 0.046 -80.234 0.046 -80.234 0.993 2.606 
8317.638 0.993 1.522 0.027 -75.421 0.027 -75.421 0.993 1.522 
8709.636 0.993 0.441 0.01 -48.697 0.01 -48.697 0.993 0.441 
9120.108 0.993 -0.638 0.013 56.482 0.013 56.482 0.993 -0.638 
9549.926 0.992 -1.717 0.031 73.682 0.031 73.682 0.992 -1.717 
10000 0.99 -2.796 0.05 77.357 0.05 77.357 0.99 -2.796 
