# MHz S MA R 50

1 1.175e-3 14.518 0.999 -0.017 0.999 -0.017 1.175e-3 14.518 
1.047 1.182e-3 15.131 0.999 -0.018 0.999 -0.018 1.182e-3 15.131 
1.097 1.189e-3 15.767 0.999 -0.019 0.999 -0.019 1.189e-3 15.767 
1.148 1.197e-3 16.425 0.999 -0.019 0.999 -0.019 1.197e-3 16.425 
1.203 1.205e-3 17.107 0.999 -0.02 0.999 -0.02 1.205e-3 17.107 
1.259 1.213e-3 17.813 0.999 -0.021 0.999 -0.021 1.213e-3 17.813 
1.319 1.222e-3 18.542 0.999 -0.022 0.999 -0.022 1.222e-3 18.542 
1.381 1.231e-3 19.296 0.999 -0.023 0.999 -0.023 1.231e-3 19.296 
1.446 1.241e-3 20.074 0.999 -0.024 0.999 -0.024 1.241e-3 20.074 
1.514 1.252e-3 20.877 0.999 -0.026 0.999 -0.026 1.252e-3 20.877 
1.586 1.263e-3 21.705 0.999 -0.027 0.999 -0.027 1.263e-3 21.705 
1.661 1.276e-3 22.557 0.999 -0.028 0.999 -0.028 1.276e-3 22.557 
1.739 1.288e-3 23.434 0.999 -0.029 0.999 -0.029 1.288e-3 23.434 
1.821 1.302e-3 24.335 0.999 -0.031 0.999 -0.031 1.302e-3 24.335 
1.907 1.317e-3 25.26 0.999 -0.032 0.999 -0.032 1.317e-3 25.26 
1.997 1.332e-3 26.209 0.999 -0.034 0.999 -0.034 1.332e-3 26.209 
2.092 1.349e-3 27.18 0.999 -0.035 0.999 -0.035 1.349e-3 27.18 
2.19 1.367e-3 28.175 0.999 -0.037 0.999 -0.037 1.367e-3 28.175 
2.294 1.385e-3 29.191 0.999 -0.039 0.999 -0.039 1.385e-3 29.191 
2.402 1.406e-3 30.227 0.999 -0.041 0.999 -0.041 1.406e-3 30.227 
2.515 1.427e-3 31.283 0.999 -0.043 0.999 -0.043 1.427e-3 31.283 
2.634 1.45e-3 32.358 0.999 -0.045 0.999 -0.045 1.45e-3 32.358 
2.758 1.474e-3 33.45 0.999 -0.047 0.999 -0.047 1.474e-3 33.45 
2.889 1.5e-3 34.557 0.999 -0.049 0.999 -0.049 1.5e-3 34.557 
3.025 1.528e-3 35.679 0.999 -0.051 0.999 -0.051 1.528e-3 35.679 
3.168 1.557e-3 36.813 0.999 -0.054 0.999 -0.054 1.557e-3 36.813 
3.317 1.589e-3 37.959 0.999 -0.056 0.999 -0.056 1.589e-3 37.959 
3.474 1.622e-3 39.113 0.999 -0.059 0.999 -0.059 1.622e-3 39.113 
3.638 1.658e-3 40.274 0.999 -0.061 0.999 -0.061 1.658e-3 40.274 
3.809 1.695e-3 41.441 0.999 -0.064 0.999 -0.064 1.695e-3 41.441 
3.989 1.736e-3 42.611 0.999 -0.067 0.999 -0.067 1.736e-3 42.611 
4.178 1.778e-3 43.782 0.999 -0.071 0.999 -0.071 1.778e-3 43.782 
4.375 1.824e-3 44.952 0.999 -0.074 0.999 -0.074 1.824e-3 44.952 
4.581 1.872e-3 46.119 0.999 -0.077 0.999 -0.077 1.872e-3 46.119 
4.797 1.923e-3 47.281 0.999 -0.081 0.999 -0.081 1.923e-3 47.281 
5.024 1.978e-3 48.437 0.999 -0.085 0.999 -0.085 1.978e-3 48.437 
5.261 2.035e-3 49.584 0.999 -0.089 0.999 -0.089 2.035e-3 49.584 
5.509 2.096e-3 50.721 0.999 -0.093 0.999 -0.093 2.096e-3 50.721 
5.769 2.161e-3 51.845 0.999 -0.097 0.999 -0.097 2.161e-3 51.845 
6.042 2.229e-3 52.955 0.999 -0.102 0.999 -0.102 2.229e-3 52.955 
6.327 2.302e-3 54.05 0.999 -0.107 0.999 -0.107 2.302e-3 54.05 
6.625 2.378e-3 55.129 0.999 -0.112 0.999 -0.112 2.378e-3 55.129 
6.938 2.459e-3 56.189 0.999 -0.117 0.999 -0.117 2.459e-3 56.189 
7.266 2.545e-3 57.23 0.999 -0.123 0.999 -0.123 2.545e-3 57.23 
7.609 2.635e-3 58.251 0.999 -0.129 0.999 -0.129 2.635e-3 58.251 
7.968 2.73e-3 59.25 0.999 -0.135 0.999 -0.135 2.73e-3 59.25 
8.344 2.831e-3 60.228 0.999 -0.141 0.999 -0.141 2.831e-3 60.228 
8.738 2.937e-3 61.183 0.999 -0.148 0.999 -0.148 2.937e-3 61.183 
9.15 3.048e-3 62.115 0.999 -0.155 0.999 -0.155 3.048e-3 62.115 
9.582 3.166e-3 63.023 0.999 -0.162 0.999 -0.162 3.166e-3 63.023 
10.034 3.29e-3 63.908 0.999 -0.17 0.999 -0.17 3.29e-3 63.908 
10.508 3.42e-3 64.768 0.999 -0.178 0.999 -0.178 3.42e-3 64.768 
11.004 3.558e-3 65.604 0.999 -0.186 0.999 -0.186 3.558e-3 65.604 
11.523 3.702e-3 66.415 0.999 -0.195 0.999 -0.195 3.702e-3 66.415 
12.067 3.854e-3 67.203 0.999 -0.204 0.999 -0.204 3.854e-3 67.203 
12.637 4.014e-3 67.966 0.999 -0.213 0.999 -0.213 4.014e-3 67.966 
13.233 4.182e-3 68.705 0.998 -0.224 0.998 -0.224 4.182e-3 68.705 
13.858 4.358e-3 69.421 0.998 -0.234 0.998 -0.234 4.358e-3 69.421 
14.512 4.543e-3 70.113 0.998 -0.245 0.998 -0.245 4.543e-3 70.113 
15.197 4.738e-3 70.782 0.998 -0.257 0.998 -0.257 4.738e-3 70.782 
15.914 4.942e-3 71.428 0.998 -0.269 0.998 -0.269 4.942e-3 71.428 
16.665 5.157e-3 72.052 0.998 -0.282 0.998 -0.282 5.157e-3 72.052 
17.452 5.382e-3 72.654 0.998 -0.295 0.998 -0.295 5.382e-3 72.654 
18.275 5.618e-3 73.234 0.998 -0.309 0.998 -0.309 5.618e-3 73.234 
19.138 5.866e-3 73.794 0.998 -0.323 0.998 -0.323 5.866e-3 73.794 
20.041 6.127e-3 74.333 0.998 -0.339 0.998 -0.339 6.127e-3 74.333 
20.987 6.4e-3 74.852 0.998 -0.355 0.998 -0.355 6.4e-3 74.852 
21.978 6.686e-3 75.351 0.998 -0.371 0.998 -0.371 6.686e-3 75.351 
23.015 6.986e-3 75.832 0.998 -0.389 0.998 -0.389 6.986e-3 75.832 
24.101 7.301e-3 76.294 0.998 -0.407 0.998 -0.407 7.301e-3 76.294 
25.239 7.631e-3 76.737 0.998 -0.426 0.998 -0.426 7.631e-3 76.737 
26.43 7.977e-3 77.164 0.998 -0.446 0.998 -0.446 7.977e-3 77.164 
27.678 8.34e-3 77.573 0.998 -0.467 0.998 -0.467 8.34e-3 77.573 
28.984 8.721e-3 77.966 0.998 -0.49 0.998 -0.49 8.721e-3 77.966 
30.352 9.119e-3 78.343 0.998 -0.513 0.998 -0.513 9.119e-3 78.343 
31.785 9.537e-3 78.704 0.998 -0.537 0.998 -0.537 9.537e-3 78.704 
33.285 9.975e-3 79.05 0.998 -0.562 0.998 -0.562 9.975e-3 79.05 
34.856 0.01 79.381 0.998 -0.589 0.998 -0.589 0.01 79.381 
36.501 0.011 79.698 0.998 -0.616 0.998 -0.616 0.011 79.698 
38.224 0.011 80.001 0.998 -0.646 0.998 -0.646 0.011 80.001 
40.028 0.012 80.29 0.998 -0.676 0.998 -0.676 0.012 80.29 
41.918 0.012 80.566 0.998 -0.708 0.998 -0.708 0.012 80.566 
43.896 0.013 80.83 0.998 -0.741 0.998 -0.741 0.013 80.83 
45.968 0.014 81.081 0.998 -0.776 0.998 -0.776 0.014 81.081 
48.138 0.014 81.319 0.998 -0.813 0.998 -0.813 0.014 81.319 
50.41 0.015 81.546 0.998 -0.851 0.998 -0.851 0.015 81.546 
52.789 0.016 81.762 0.998 -0.891 0.998 -0.891 0.016 81.762 
55.281 0.016 81.966 0.998 -0.933 0.998 -0.933 0.016 81.966 
57.89 0.017 82.16 0.998 -0.977 0.998 -0.977 0.017 82.16 
60.623 0.018 82.342 0.998 -1.024 0.998 -1.024 0.018 82.342 
63.484 0.019 82.514 0.998 -1.072 0.998 -1.072 0.019 82.514 
66.48 0.02 82.676 0.998 -1.122 0.998 -1.122 0.02 82.676 
69.618 0.021 82.828 0.998 -1.175 0.998 -1.175 0.021 82.828 
72.904 0.022 82.969 0.998 -1.231 0.998 -1.231 0.022 82.969 
76.345 0.023 83.101 0.998 -1.289 0.998 -1.289 0.023 83.101 
79.949 0.024 83.224 0.997 -1.35 0.997 -1.35 0.024 83.224 
83.722 0.025 83.337 0.997 -1.413 0.997 -1.413 0.025 83.337 
87.674 0.026 83.44 0.997 -1.48 0.997 -1.48 0.026 83.44 
91.812 0.027 83.535 0.997 -1.55 0.997 -1.55 0.027 83.535 
96.146 0.028 83.62 0.997 -1.623 0.997 -1.623 0.028 83.62 
100.684 0.03 83.696 0.997 -1.699 0.997 -1.699 0.03 83.696 
105.436 0.031 83.763 0.997 -1.779 0.997 -1.779 0.031 83.763 
110.413 0.033 83.821 0.997 -1.863 0.997 -1.863 0.033 83.821 
115.624 0.034 83.87 0.997 -1.951 0.997 -1.951 0.034 83.87 
121.082 0.036 83.91 0.997 -2.043 0.997 -2.043 0.036 83.91 
126.797 0.037 83.942 0.997 -2.139 0.997 -2.139 0.037 83.942 
132.782 0.039 83.964 0.997 -2.24 0.997 -2.24 0.039 83.964 
139.049 0.041 83.977 0.997 -2.346 0.997 -2.346 0.041 83.977 
145.612 0.043 83.981 0.996 -2.456 0.996 -2.456 0.043 83.981 
152.485 0.045 83.976 0.996 -2.572 0.996 -2.572 0.045 83.976 
159.682 0.047 83.961 0.996 -2.693 0.996 -2.693 0.047 83.961 
167.219 0.049 83.937 0.996 -2.82 0.996 -2.82 0.049 83.937 
175.112 0.052 83.904 0.996 -2.953 0.996 -2.953 0.052 83.904 
183.377 0.054 83.861 0.996 -3.092 0.996 -3.092 0.054 83.861 
192.033 0.057 83.808 0.995 -3.237 0.995 -3.237 0.057 83.808 
201.096 0.059 83.746 0.995 -3.39 0.995 -3.39 0.059 83.746 
210.588 0.062 83.673 0.995 -3.549 0.995 -3.549 0.062 83.673 
220.528 0.065 83.589 0.995 -3.716 0.995 -3.716 0.065 83.589 
230.937 0.068 83.495 0.995 -3.891 0.995 -3.891 0.068 83.495 
241.837 0.071 83.39 0.994 -4.074 0.994 -4.074 0.071 83.39 
253.252 0.074 83.274 0.994 -4.266 0.994 -4.266 0.074 83.274 
265.205 0.078 83.147 0.994 -4.467 0.994 -4.467 0.078 83.147 
277.723 0.082 83.007 0.993 -4.677 0.993 -4.677 0.082 83.007 
290.831 0.085 82.856 0.993 -4.896 0.993 -4.896 0.085 82.856 
304.559 0.089 82.691 0.993 -5.126 0.993 -5.126 0.089 82.691 
318.934 0.094 82.515 0.992 -5.367 0.992 -5.367 0.094 82.515 
333.987 0.098 82.324 0.992 -5.619 0.992 -5.619 0.098 82.324 
349.752 0.103 82.12 0.991 -5.883 0.991 -5.883 0.103 82.12 
366.26 0.107 81.902 0.991 -6.158 0.991 -6.158 0.107 81.902 
383.547 0.112 81.669 0.99 -6.447 0.99 -6.447 0.112 81.669 
401.651 0.118 81.421 0.989 -6.749 0.989 -6.749 0.118 81.421 
420.609 0.123 81.158 0.989 -7.065 0.989 -7.065 0.123 81.158 
440.461 0.129 80.878 0.988 -7.396 0.988 -7.396 0.129 80.878 
461.251 0.135 80.581 0.987 -7.742 0.987 -7.742 0.135 80.581 
483.022 0.141 80.266 0.986 -8.103 0.986 -8.103 0.141 80.266 
505.821 0.148 79.934 0.985 -8.481 0.985 -8.481 0.148 79.934 
529.695 0.154 79.583 0.984 -8.877 0.984 -8.877 0.154 79.583 
554.697 0.161 79.212 0.983 -9.29 0.983 -9.29 0.161 79.212 
580.879 0.169 78.822 0.981 -9.723 0.981 -9.723 0.169 78.822 
608.296 0.177 78.41 0.98 -10.174 0.98 -10.174 0.177 78.41 
637.008 0.185 77.977 0.978 -10.647 0.978 -10.647 0.185 77.977 
667.074 0.193 77.521 0.977 -11.14 0.977 -11.14 0.193 77.521 
698.56 0.202 77.043 0.975 -11.655 0.975 -11.655 0.202 77.043 
731.532 0.211 76.54 0.973 -12.194 0.973 -12.194 0.211 76.54 
766.06 0.221 76.012 0.971 -12.756 0.971 -12.756 0.221 76.012 
802.218 0.231 75.458 0.968 -13.342 0.968 -13.342 0.231 75.458 
840.083 0.241 74.878 0.966 -13.955 0.966 -13.955 0.241 74.878 
879.735 0.252 74.27 0.963 -14.593 0.963 -14.593 0.252 74.27 
921.258 0.263 73.634 0.96 -15.26 0.96 -15.26 0.263 73.634 
964.742 0.275 72.968 0.956 -15.954 0.956 -15.954 0.275 72.968 
1010.277 0.287 72.273 0.953 -16.678 0.953 -16.678 0.287 72.273 
1057.962 0.3 71.546 0.949 -17.432 0.949 -17.432 0.3 71.546 
1107.898 0.313 70.787 0.944 -18.218 0.944 -18.218 0.313 70.787 
1160.191 0.326 69.995 0.94 -19.035 0.94 -19.035 0.326 69.995 
1214.952 0.34 69.169 0.935 -19.885 0.935 -19.885 0.34 69.169 
1272.297 0.355 68.309 0.929 -20.768 0.929 -20.768 0.355 68.309 
1332.35 0.37 67.413 0.923 -21.687 0.923 -21.687 0.37 67.413 
1395.237 0.385 66.482 0.917 -22.64 0.917 -22.64 0.385 66.482 
1461.092 0.401 65.514 0.91 -23.629 0.91 -23.629 0.401 65.514 
1530.055 0.417 64.509 0.903 -24.654 0.903 -24.654 0.417 64.509 
1602.273 0.434 63.466 0.895 -25.716 0.895 -25.716 0.434 63.466 
1677.901 0.451 62.385 0.886 -26.815 0.886 -26.815 0.451 62.385 
1757.097 0.469 61.266 0.877 -27.952 0.877 -27.952 0.469 61.266 
1840.032 0.487 60.108 0.867 -29.126 0.867 -29.126 0.487 60.108 
1926.882 0.505 58.912 0.856 -30.337 0.856 -30.337 0.505 58.912 
2017.83 0.524 57.678 0.845 -31.586 0.845 -31.586 0.524 57.678 
2113.072 0.543 56.406 0.833 -32.871 0.833 -32.871 0.543 56.406 
2212.809 0.562 55.096 0.82 -34.193 0.82 -34.193 0.562 55.096 
2317.253 0.581 53.75 0.807 -35.551 0.807 -35.551 0.581 53.75 
2426.627 0.601 52.367 0.792 -36.943 0.792 -36.943 0.601 52.367 
2541.164 0.621 50.949 0.777 -38.37 0.777 -38.37 0.621 50.949 
2661.107 0.641 49.498 0.76 -39.828 0.76 -39.828 0.641 49.498 
2786.711 0.66 48.014 0.743 -41.318 0.743 -41.318 0.66 48.014 
2918.243 0.68 46.498 0.725 -42.837 0.725 -42.837 0.68 46.498 
3055.984 0.699 44.954 0.707 -44.383 0.707 -44.383 0.699 44.954 
3200.226 0.719 43.381 0.687 -45.954 0.687 -45.954 0.719 43.381 
3351.277 0.738 41.783 0.666 -47.549 0.666 -47.549 0.738 41.783 
3509.457 0.757 40.162 0.645 -49.164 0.645 -49.164 0.757 40.162 
3675.103 0.775 38.518 0.623 -50.797 0.623 -50.797 0.775 38.518 
3848.568 0.793 36.856 0.6 -52.446 0.6 -52.446 0.793 36.856 
4030.22 0.81 35.175 0.576 -54.107 0.576 -54.107 0.81 35.175 
4220.446 0.827 33.48 0.552 -55.778 0.552 -55.778 0.827 33.48 
4419.651 0.843 31.772 0.527 -57.456 0.527 -57.456 0.843 31.772 
4628.258 0.858 30.053 0.501 -59.136 0.501 -59.136 0.858 30.053 
4846.711 0.873 28.324 0.475 -60.816 0.475 -60.816 0.873 28.324 
5075.476 0.887 26.589 0.448 -62.491 0.448 -62.491 0.887 26.589 
5315.038 0.9 24.849 0.42 -64.157 0.42 -64.157 0.9 24.849 
5565.907 0.912 23.104 0.392 -65.809 0.392 -65.809 0.912 23.104 
5828.618 0.924 21.358 0.364 -67.441 0.364 -67.441 0.924 21.358 
6103.728 0.934 19.611 0.336 -69.044 0.336 -69.044 0.934 19.611 
6391.823 0.944 17.863 0.307 -70.608 0.307 -70.608 0.944 17.863 
6693.517 0.952 16.118 0.278 -72.12 0.278 -72.12 0.952 16.118 
7009.451 0.96 14.374 0.248 -73.559 0.248 -73.559 0.96 14.374 
7340.296 0.966 12.633 0.219 -74.895 0.219 -74.895 0.966 12.633 
7686.758 0.972 10.895 0.189 -76.079 0.189 -76.079 0.972 10.895 
8049.572 0.977 9.16 0.16 -77.023 0.16 -77.023 0.977 9.16 
8429.511 0.98 7.43 0.13 -77.566 0.13 -77.566 0.98 7.43 
8827.384 0.983 5.704 0.1 -77.349 0.1 -77.349 0.983 5.704 
9244.035 0.985 3.982 0.071 -75.427 0.071 -75.427 0.985 3.982 
9680.353 0.985 2.265 0.042 -68.284 0.042 -68.284 0.985 2.265 
10137.265 0.985 0.551 0.018 -32.091 0.018 -32.091 0.985 0.551 
10615.743 0.984 -1.157 0.026 50.102 0.026 50.102 0.984 -1.157 
11116.806 0.981 -2.861 0.053 67.827 0.053 67.827 0.981 -2.861 
11641.518 0.978 -4.56 0.082 72.069 0.082 72.069 0.978 -4.56 
12190.997 0.974 -6.253 0.111 73.123 0.111 73.123 0.974 -6.253 
12766.411 0.968 -7.942 0.14 72.972 0.14 72.972 0.968 -7.942 
13368.985 0.962 -9.624 0.169 72.24 0.169 72.24 0.962 -9.624 
14000 0.955 -11.299 0.198 71.184 0.198 71.184 0.955 -11.299 
