# MHz S MA R 50

1 3.693e-3 46.703 0.997 -0.154 0.997 -0.154 3.693e-3 46.703 
1.047 3.8e-3 47.798 0.997 -0.162 0.997 -0.162 3.8e-3 47.798 
1.097 3.914e-3 48.885 0.997 -0.169 0.997 -0.169 3.914e-3 48.885 
1.149 4.033e-3 49.962 0.997 -0.177 0.997 -0.177 4.033e-3 49.962 
1.203 4.16e-3 51.028 0.997 -0.186 0.997 -0.186 4.16e-3 51.028 
1.26 4.294e-3 52.082 0.997 -0.195 0.997 -0.195 4.294e-3 52.082 
1.32 4.435e-3 53.121 0.997 -0.204 0.997 -0.204 4.435e-3 53.121 
1.383 4.584e-3 54.145 0.997 -0.213 0.997 -0.213 4.584e-3 54.145 
1.448 4.741e-3 55.153 0.997 -0.224 0.997 -0.224 4.741e-3 55.153 
1.517 4.907e-3 56.144 0.997 -0.234 0.997 -0.234 4.907e-3 56.144 
1.588 5.082e-3 57.117 0.997 -0.245 0.997 -0.245 5.082e-3 57.117 
1.664 5.267e-3 58.07 0.997 -0.257 0.997 -0.257 5.267e-3 58.07 
1.742 5.461e-3 59.004 0.997 -0.269 0.997 -0.269 5.461e-3 59.004 
1.825 5.666e-3 59.917 0.997 -0.282 0.997 -0.282 5.666e-3 59.917 
1.911 5.882e-3 60.809 0.997 -0.295 0.997 -0.295 5.882e-3 60.809 
2.002 6.109e-3 61.68 0.997 -0.309 0.997 -0.309 6.109e-3 61.68 
2.097 6.348e-3 62.529 0.997 -0.324 0.997 -0.324 6.348e-3 62.529 
2.196 6.599e-3 63.357 0.997 -0.339 0.997 -0.339 6.599e-3 63.357 
2.3 6.863e-3 64.162 0.997 -0.355 0.997 -0.355 6.863e-3 64.162 
2.409 7.142e-3 64.945 0.997 -0.372 0.997 -0.372 7.142e-3 64.945 
2.523 7.434e-3 65.705 0.997 -0.389 0.997 -0.389 7.434e-3 65.705 
2.643 7.741e-3 66.443 0.997 -0.408 0.997 -0.408 7.741e-3 66.443 
2.768 8.064e-3 67.16 0.997 -0.427 0.997 -0.427 8.064e-3 67.16 
2.899 8.403e-3 67.854 0.997 -0.447 0.997 -0.447 8.403e-3 67.854 
3.036 8.759e-3 68.526 0.997 -0.469 0.997 -0.469 8.759e-3 68.526 
3.18 9.133e-3 69.176 0.997 -0.491 0.997 -0.491 9.133e-3 69.176 
3.331 9.525e-3 69.806 0.997 -0.514 0.997 -0.514 9.525e-3 69.806 
3.488 9.938e-3 70.414 0.997 -0.538 0.997 -0.538 9.938e-3 70.414 
3.653 0.01 71.001 0.997 -0.564 0.997 -0.564 0.01 71.001 
3.826 0.011 71.568 0.997 -0.59 0.997 -0.59 0.011 71.568 
4.008 0.011 72.115 0.997 -0.618 0.997 -0.618 0.011 72.115 
4.198 0.012 72.642 0.997 -0.648 0.997 -0.648 0.012 72.642 
4.396 0.012 73.15 0.996 -0.678 0.996 -0.678 0.012 73.15 
4.605 0.013 73.639 0.996 -0.71 0.996 -0.71 0.013 73.639 
4.823 0.013 74.109 0.996 -0.744 0.996 -0.744 0.013 74.109 
5.051 0.014 74.561 0.996 -0.779 0.996 -0.779 0.014 74.561 
5.29 0.015 74.996 0.996 -0.816 0.996 -0.816 0.015 74.996 
5.541 0.015 75.412 0.996 -0.855 0.996 -0.855 0.015 75.412 
5.803 0.016 75.812 0.996 -0.895 0.996 -0.895 0.016 75.812 
6.078 0.017 76.195 0.996 -0.937 0.996 -0.937 0.017 76.195 
6.366 0.018 76.562 0.996 -0.982 0.996 -0.982 0.018 76.562 
6.667 0.018 76.913 0.996 -1.028 0.996 -1.028 0.018 76.913 
6.983 0.019 77.248 0.996 -1.077 0.996 -1.077 0.019 77.248 
7.314 0.02 77.568 0.996 -1.128 0.996 -1.128 0.02 77.568 
7.66 0.021 77.873 0.996 -1.181 0.996 -1.181 0.021 77.873 
8.023 0.022 78.163 0.996 -1.237 0.996 -1.237 0.022 78.163 
8.403 0.023 78.439 0.996 -1.295 0.996 -1.295 0.023 78.439 
8.801 0.024 78.701 0.996 -1.357 0.996 -1.357 0.024 78.701 
9.218 0.025 78.949 0.995 -1.421 0.995 -1.421 0.025 78.949 
9.655 0.026 79.183 0.995 -1.488 0.995 -1.488 0.026 79.183 
10.112 0.028 79.404 0.995 -1.558 0.995 -1.558 0.028 79.404 
10.591 0.029 79.611 0.995 -1.632 0.995 -1.632 0.029 79.611 
11.092 0.03 79.806 0.995 -1.709 0.995 -1.709 0.03 79.806 
11.618 0.032 79.987 0.995 -1.79 0.995 -1.79 0.032 79.987 
12.168 0.033 80.156 0.995 -1.874 0.995 -1.874 0.033 80.156 
12.744 0.035 80.313 0.995 -1.963 0.995 -1.963 0.035 80.313 
13.348 0.036 80.457 0.995 -2.056 0.995 -2.056 0.036 80.457 
13.98 0.038 80.589 0.995 -2.153 0.995 -2.153 0.038 80.589 
14.642 0.04 80.708 0.994 -2.254 0.994 -2.254 0.04 80.708 
15.335 0.041 80.815 0.994 -2.361 0.994 -2.361 0.041 80.815 
16.062 0.043 80.91 0.994 -2.472 0.994 -2.472 0.043 80.91 
16.822 0.045 80.993 0.994 -2.589 0.994 -2.589 0.045 80.993 
17.619 0.048 81.064 0.994 -2.711 0.994 -2.711 0.048 81.064 
18.454 0.05 81.122 0.994 -2.839 0.994 -2.839 0.05 81.122 
19.328 0.052 81.168 0.993 -2.973 0.993 -2.973 0.052 81.168 
20.243 0.055 81.202 0.993 -3.114 0.993 -3.114 0.055 81.202 
21.202 0.057 81.224 0.993 -3.261 0.993 -3.261 0.057 81.224 
22.206 0.06 81.233 0.993 -3.414 0.993 -3.414 0.06 81.233 
23.258 0.063 81.23 0.992 -3.575 0.992 -3.575 0.063 81.23 
24.359 0.066 81.214 0.992 -3.744 0.992 -3.744 0.066 81.214 
25.513 0.069 81.185 0.992 -3.92 0.992 -3.92 0.069 81.185 
26.721 0.072 81.143 0.991 -4.105 0.991 -4.105 0.072 81.143 
27.987 0.075 81.088 0.991 -4.298 0.991 -4.298 0.075 81.088 
29.312 0.079 81.02 0.991 -4.501 0.991 -4.501 0.079 81.02 
30.7 0.082 80.937 0.99 -4.712 0.99 -4.712 0.082 80.937 
32.154 0.086 80.841 0.99 -4.934 0.99 -4.934 0.086 80.841 
33.677 0.09 80.73 0.989 -5.166 0.989 -5.166 0.09 80.73 
35.272 0.094 80.605 0.989 -5.409 0.989 -5.409 0.094 80.605 
36.943 0.099 80.464 0.988 -5.662 0.988 -5.662 0.099 80.464 
38.693 0.104 80.309 0.988 -5.928 0.988 -5.928 0.104 80.309 
40.525 0.108 80.137 0.987 -6.206 0.987 -6.206 0.108 80.137 
42.444 0.113 79.95 0.987 -6.497 0.987 -6.497 0.113 79.95 
44.455 0.119 79.746 0.986 -6.801 0.986 -6.801 0.119 79.746 
46.56 0.124 79.524 0.985 -7.119 0.985 -7.119 0.124 79.524 
48.765 0.13 79.286 0.984 -7.452 0.984 -7.452 0.13 79.286 
51.075 0.136 79.029 0.983 -7.799 0.983 -7.799 0.136 79.029 
53.494 0.142 78.753 0.982 -8.163 0.982 -8.163 0.142 78.753 
56.027 0.149 78.459 0.981 -8.543 0.981 -8.543 0.149 78.459 
58.681 0.156 78.144 0.98 -8.94 0.98 -8.94 0.156 78.144 
61.46 0.163 77.809 0.979 -9.355 0.979 -9.355 0.163 77.809 
64.371 0.17 77.454 0.977 -9.789 0.977 -9.789 0.17 77.454 
67.42 0.178 77.076 0.976 -10.241 0.976 -10.241 0.178 77.076 
70.613 0.186 76.677 0.974 -10.714 0.974 -10.714 0.186 76.677 
73.957 0.195 76.254 0.972 -11.208 0.972 -11.208 0.195 76.254 
77.46 0.203 75.808 0.97 -11.723 0.97 -11.723 0.203 75.808 
81.128 0.213 75.337 0.968 -12.26 0.968 -12.26 0.213 75.337 
84.971 0.222 74.842 0.966 -12.82 0.966 -12.82 0.222 74.842 
88.995 0.232 74.32 0.964 -13.405 0.964 -13.405 0.232 74.32 
93.21 0.242 73.772 0.961 -14.013 0.961 -14.013 0.242 73.772 
97.624 0.253 73.198 0.958 -14.647 0.958 -14.647 0.253 73.198 
102.248 0.264 72.595 0.955 -15.307 0.955 -15.307 0.264 72.595 
107.091 0.276 71.964 0.951 -15.994 0.951 -15.994 0.276 71.964 
112.163 0.288 71.303 0.948 -16.709 0.948 -16.709 0.288 71.303 
117.475 0.3 70.613 0.944 -17.451 0.944 -17.451 0.3 70.613 
123.039 0.313 69.893 0.94 -18.222 0.94 -18.222 0.313 69.893 
128.866 0.326 69.142 0.935 -19.023 0.935 -19.023 0.326 69.142 
134.969 0.34 68.36 0.93 -19.853 0.93 -19.853 0.34 68.36 
141.361 0.354 67.546 0.925 -20.714 0.925 -20.714 0.354 67.546 
148.056 0.368 66.7 0.919 -21.604 0.919 -21.604 0.368 66.7 
155.069 0.383 65.823 0.913 -22.526 0.913 -22.526 0.383 65.823 
162.413 0.399 64.913 0.906 -23.478 0.906 -23.478 0.399 64.913 
170.105 0.414 63.971 0.899 -24.461 0.899 -24.461 0.414 63.971 
178.161 0.43 62.998 0.891 -25.475 0.891 -25.475 0.43 62.998 
186.599 0.447 61.993 0.883 -26.519 0.883 -26.519 0.447 61.993 
195.437 0.463 60.957 0.875 -27.593 0.875 -27.593 0.463 60.957 
204.693 0.48 59.891 0.865 -28.696 0.865 -28.696 0.48 59.891 
214.388 0.498 58.795 0.856 -29.828 0.856 -29.828 0.498 58.795 
224.541 0.515 57.671 0.845 -30.986 0.845 -30.986 0.515 57.671 
235.176 0.533 56.52 0.834 -32.171 0.834 -32.171 0.533 56.52 
246.314 0.55 55.343 0.823 -33.381 0.823 -33.381 0.55 55.343 
257.98 0.568 54.142 0.811 -34.614 0.811 -34.614 0.568 54.142 
270.198 0.586 52.918 0.798 -35.869 0.798 -35.869 0.586 52.918 
282.995 0.604 51.675 0.785 -37.143 0.785 -37.143 0.604 51.675 
296.398 0.622 50.412 0.771 -38.434 0.771 -38.434 0.622 50.412 
310.436 0.639 49.134 0.756 -39.741 0.756 -39.741 0.639 49.134 
325.139 0.657 47.842 0.741 -41.06 0.741 -41.06 0.657 47.842 
340.538 0.674 46.539 0.726 -42.39 0.726 -42.39 0.674 46.539 
356.666 0.691 45.228 0.71 -43.727 0.71 -43.727 0.691 45.228 
373.558 0.708 43.911 0.694 -45.069 0.694 -45.069 0.708 43.911 
391.25 0.724 42.591 0.677 -46.413 0.677 -46.413 0.724 42.591 
409.781 0.74 41.271 0.66 -47.757 0.66 -47.757 0.74 41.271 
429.188 0.756 39.953 0.642 -49.098 0.642 -49.098 0.756 39.953 
449.515 0.771 38.64 0.625 -50.433 0.625 -50.433 0.771 38.64 
470.805 0.786 37.335 0.607 -51.759 0.607 -51.759 0.786 37.335 
493.103 0.8 36.04 0.588 -53.075 0.588 -53.075 0.8 36.04 
516.457 0.813 34.757 0.57 -54.377 0.57 -54.377 0.813 34.757 
540.917 0.826 33.489 0.552 -55.664 0.552 -55.664 0.826 33.489 
566.536 0.838 32.238 0.533 -56.934 0.533 -56.934 0.838 32.238 
593.368 0.85 31.005 0.515 -58.184 0.515 -58.184 0.85 31.005 
621.47 0.861 29.793 0.497 -59.414 0.497 -59.414 0.861 29.793 
650.904 0.871 28.602 0.479 -60.621 0.479 -60.621 0.871 28.602 
681.732 0.881 27.434 0.461 -61.804 0.461 -61.804 0.881 27.434 
714.019 0.891 26.29 0.443 -62.963 0.443 -62.963 0.891 26.29 
747.836 0.9 25.17 0.425 -64.096 0.425 -64.096 0.9 25.17 
783.255 0.908 24.076 0.408 -65.203 0.408 -65.203 0.908 24.076 
820.351 0.916 23.009 0.391 -66.282 0.391 -66.282 0.916 23.009 
859.204 0.923 21.967 0.374 -67.335 0.374 -67.335 0.923 21.967 
899.897 0.93 20.952 0.358 -68.359 0.358 -68.359 0.93 20.952 
942.517 0.936 19.964 0.341 -69.357 0.341 -69.357 0.936 19.964 
987.156 0.942 19.001 0.326 -70.326 0.326 -70.326 0.942 19.001 
1033.909 0.947 18.065 0.31 -71.269 0.31 -71.269 0.947 18.065 
1082.877 0.952 17.155 0.295 -72.184 0.295 -72.184 0.952 17.155 
1134.163 0.957 16.269 0.28 -73.072 0.28 -73.072 0.957 16.269 
1187.879 0.961 15.409 0.266 -73.934 0.266 -73.934 0.961 15.409 
1244.138 0.965 14.572 0.252 -74.77 0.252 -74.77 0.965 14.572 
1303.062 0.969 13.758 0.238 -75.58 0.238 -75.58 0.969 13.758 
1364.777 0.972 12.967 0.224 -76.365 0.224 -76.365 0.972 12.967 
1429.415 0.975 12.197 0.211 -77.125 0.211 -77.125 0.975 12.197 
1497.114 0.978 11.448 0.198 -77.861 0.198 -77.861 0.978 11.448 
1568.019 0.98 10.719 0.186 -78.573 0.186 -78.573 0.98 10.719 
1642.283 0.983 10.008 0.174 -79.26 0.174 -79.26 0.983 10.008 
1720.063 0.985 9.315 0.162 -79.924 0.162 -79.924 0.985 9.315 
1801.528 0.987 8.639 0.15 -80.562 0.15 -80.562 0.987 8.639 
1886.851 0.988 7.978 0.139 -81.175 0.139 -81.175 0.988 7.978 
1976.214 0.99 7.332 0.128 -81.761 0.128 -81.761 0.99 7.332 
2069.811 0.991 6.699 0.117 -82.318 0.117 -82.318 0.991 6.699 
2167.84 0.992 6.079 0.106 -82.842 0.106 -82.842 0.992 6.079 
2270.512 0.993 5.471 0.095 -83.327 0.095 -83.327 0.993 5.471 
2378.046 0.994 4.873 0.085 -83.765 0.085 -83.765 0.994 4.873 
2490.674 0.995 4.284 0.075 -84.142 0.075 -84.142 0.995 4.284 
2608.635 0.996 3.703 0.065 -84.435 0.065 -84.435 0.996 3.703 
2732.184 0.996 3.13 0.055 -84.603 0.055 -84.603 0.996 3.13 
2861.584 0.997 2.563 0.045 -84.569 0.045 -84.569 0.997 2.563 
2997.112 0.997 2.001 0.035 -84.174 0.035 -84.174 0.997 2.001 
3139.06 0.997 1.442 0.025 -83.007 0.025 -83.007 0.997 1.442 
3287.73 0.997 0.887 0.016 -79.664 0.016 -79.664 0.997 0.887 
3443.441 0.997 0.334 6.434e-3 -64.586 6.434e-3 -64.586 0.997 0.334 
3606.527 0.997 -0.219 4.792e-3 52.556 4.792e-3 52.556 0.997 -0.219 
3777.337 0.997 -0.771 0.014 76.288 0.014 76.288 0.997 -0.771 
3956.237 0.996 -1.325 0.023 80.525 0.023 80.525 0.996 -1.325 
4143.61 0.996 -1.881 0.033 81.935 0.033 81.935 0.996 -1.881 
4339.857 0.995 -2.44 0.043 82.419 0.043 82.419 0.995 -2.44 
4545.398 0.994 -3.004 0.053 82.485 0.053 82.485 0.994 -3.004 
4760.675 0.994 -3.573 0.062 82.323 0.062 82.323 0.994 -3.573 
4986.147 0.993 -4.148 0.072 82.02 0.072 82.02 0.993 -4.148 
5222.297 0.991 -4.73 0.083 81.622 0.083 81.622 0.991 -4.73 
5469.633 0.99 -5.321 0.093 81.155 0.093 81.155 0.99 -5.321 
5728.682 0.988 -5.92 0.103 80.634 0.103 80.634 0.988 -5.92 
6000 0.987 -6.53 0.114 80.068 0.114 80.068 0.987 -6.53 
