# MHz S MA R 50

1 2.678e-3 44.514 0.998 -0.108 0.998 -0.108 2.678e-3 44.514 
1.047 2.752e-3 45.621 0.998 -0.113 0.998 -0.113 2.752e-3 45.621 
1.097 2.829e-3 46.724 0.998 -0.118 0.998 -0.118 2.829e-3 46.724 
1.149 2.911e-3 47.82 0.998 -0.124 0.998 -0.124 2.911e-3 47.82 
1.203 2.998e-3 48.908 0.998 -0.13 0.998 -0.13 2.998e-3 48.908 
1.26 3.09e-3 49.986 0.998 -0.136 0.998 -0.136 3.09e-3 49.986 
1.32 3.186e-3 51.054 0.998 -0.142 0.998 -0.142 3.186e-3 51.054 
1.383 3.289e-3 52.109 0.998 -0.149 0.998 -0.149 3.289e-3 52.109 
1.448 3.397e-3 53.15 0.998 -0.156 0.998 -0.156 3.397e-3 53.15 
1.517 3.511e-3 54.176 0.998 -0.163 0.998 -0.163 3.511e-3 54.176 
1.588 3.632e-3 55.186 0.998 -0.171 0.998 -0.171 3.632e-3 55.186 
1.664 3.759e-3 56.179 0.998 -0.179 0.998 -0.179 3.759e-3 56.179 
1.742 3.893e-3 57.154 0.998 -0.188 0.998 -0.188 3.893e-3 57.154 
1.825 4.034e-3 58.11 0.998 -0.197 0.998 -0.197 4.034e-3 58.11 
1.911 4.183e-3 59.046 0.998 -0.206 0.998 -0.206 4.183e-3 59.046 
2.002 4.34e-3 59.962 0.998 -0.216 0.998 -0.216 4.34e-3 59.962 
2.097 4.505e-3 60.857 0.998 -0.226 0.998 -0.226 4.505e-3 60.857 
2.196 4.679e-3 61.731 0.998 -0.237 0.998 -0.237 4.679e-3 61.731 
2.3 4.862e-3 62.584 0.998 -0.248 0.998 -0.248 4.862e-3 62.584 
2.409 5.055e-3 63.415 0.998 -0.26 0.998 -0.26 5.055e-3 63.415 
2.523 5.257e-3 64.223 0.998 -0.272 0.998 -0.272 5.257e-3 64.223 
2.643 5.47e-3 65.01 0.998 -0.285 0.998 -0.285 5.47e-3 65.01 
2.768 5.694e-3 65.775 0.998 -0.298 0.998 -0.298 5.694e-3 65.775 
2.899 5.93e-3 66.517 0.998 -0.312 0.998 -0.312 5.93e-3 66.517 
3.036 6.177e-3 67.238 0.998 -0.327 0.998 -0.327 6.177e-3 67.238 
3.18 6.437e-3 67.937 0.998 -0.343 0.998 -0.343 6.437e-3 67.937 
3.331 6.709e-3 68.614 0.998 -0.359 0.998 -0.359 6.709e-3 68.614 
3.488 6.996e-3 69.27 0.998 -0.376 0.998 -0.376 6.996e-3 69.27 
3.653 7.297e-3 69.905 0.998 -0.394 0.998 -0.394 7.297e-3 69.905 
3.826 7.612e-3 70.519 0.997 -0.412 0.997 -0.412 7.612e-3 70.519 
4.008 7.944e-3 71.112 0.997 -0.432 0.997 -0.432 7.944e-3 71.112 
4.198 8.291e-3 71.686 0.997 -0.452 0.997 -0.452 8.291e-3 71.686 
4.396 8.656e-3 72.239 0.997 -0.474 0.997 -0.474 8.656e-3 72.239 
4.605 9.039e-3 72.774 0.997 -0.496 0.997 -0.496 9.039e-3 72.774 
4.823 9.441e-3 73.289 0.997 -0.519 0.997 -0.519 9.441e-3 73.289 
5.051 9.862e-3 73.785 0.997 -0.544 0.997 -0.544 9.862e-3 73.785 
5.29 0.01 74.264 0.997 -0.57 0.997 -0.57 0.01 74.264 
5.541 0.011 74.724 0.997 -0.597 0.997 -0.597 0.011 74.724 
5.803 0.011 75.167 0.997 -0.625 0.997 -0.625 0.011 75.167 
6.078 0.012 75.594 0.997 -0.655 0.997 -0.655 0.012 75.594 
6.366 0.012 76.003 0.997 -0.686 0.997 -0.686 0.012 76.003 
6.667 0.013 76.396 0.997 -0.718 0.997 -0.718 0.013 76.396 
6.983 0.013 76.774 0.997 -0.752 0.997 -0.752 0.013 76.774 
7.314 0.014 77.136 0.997 -0.788 0.997 -0.788 0.014 77.136 
7.66 0.015 77.483 0.997 -0.825 0.997 -0.825 0.015 77.483 
8.023 0.015 77.815 0.997 -0.864 0.997 -0.864 0.015 77.815 
8.403 0.016 78.132 0.997 -0.905 0.997 -0.905 0.016 78.132 
8.801 0.017 78.436 0.997 -0.947 0.997 -0.947 0.017 78.436 
9.218 0.018 78.726 0.997 -0.992 0.997 -0.992 0.018 78.726 
9.655 0.018 79.002 0.997 -1.039 0.997 -1.039 0.018 79.002 
10.112 0.019 79.265 0.997 -1.088 0.997 -1.088 0.019 79.265 
10.591 0.02 79.515 0.997 -1.14 0.997 -1.14 0.02 79.515 
11.092 0.021 79.753 0.996 -1.194 0.996 -1.194 0.021 79.753 
11.618 0.022 79.978 0.996 -1.25 0.996 -1.25 0.022 79.978 
12.168 0.023 80.19 0.996 -1.309 0.996 -1.309 0.023 80.19 
12.744 0.024 80.391 0.996 -1.371 0.996 -1.371 0.024 80.391 
13.348 0.025 80.58 0.996 -1.436 0.996 -1.436 0.025 80.58 
13.98 0.026 80.758 0.996 -1.504 0.996 -1.504 0.026 80.758 
14.642 0.028 80.923 0.996 -1.575 0.996 -1.575 0.028 80.923 
15.335 0.029 81.078 0.996 -1.65 0.996 -1.65 0.029 81.078 
16.062 0.03 81.221 0.996 -1.728 0.996 -1.728 0.03 81.221 
16.822 0.032 81.354 0.996 -1.809 0.996 -1.809 0.032 81.354 
17.619 0.033 81.475 0.996 -1.895 0.996 -1.895 0.033 81.475 
18.454 0.035 81.585 0.995 -1.984 0.995 -1.984 0.035 81.585 
19.328 0.036 81.684 0.995 -2.078 0.995 -2.078 0.036 81.684 
20.243 0.038 81.773 0.995 -2.176 0.995 -2.176 0.038 81.773 
21.202 0.04 81.851 0.995 -2.279 0.995 -2.279 0.04 81.851 
22.206 0.042 81.918 0.995 -2.387 0.995 -2.387 0.042 81.918 
23.258 0.044 81.974 0.995 -2.5 0.995 -2.5 0.044 81.974 
24.359 0.046 82.019 0.995 -2.618 0.995 -2.618 0.046 82.019 
25.513 0.048 82.053 0.994 -2.741 0.994 -2.741 0.048 82.053 
26.721 0.05 82.076 0.994 -2.871 0.994 -2.871 0.05 82.076 
27.987 0.053 82.089 0.994 -3.006 0.994 -3.006 0.053 82.089 
29.312 0.055 82.09 0.994 -3.148 0.994 -3.148 0.055 82.09 
30.7 0.058 82.08 0.994 -3.297 0.994 -3.297 0.058 82.08 
32.154 0.06 82.058 0.993 -3.452 0.993 -3.452 0.06 82.058 
33.677 0.063 82.025 0.993 -3.615 0.993 -3.615 0.063 82.025 
35.272 0.066 81.98 0.993 -3.786 0.993 -3.786 0.066 81.98 
36.943 0.069 81.923 0.993 -3.964 0.993 -3.964 0.069 81.923 
38.693 0.073 81.853 0.992 -4.151 0.992 -4.151 0.073 81.853 
40.525 0.076 81.772 0.992 -4.346 0.992 -4.346 0.076 81.772 
42.444 0.08 81.677 0.992 -4.551 0.992 -4.551 0.08 81.677 
44.455 0.083 81.57 0.991 -4.765 0.991 -4.765 0.083 81.57 
46.56 0.087 81.449 0.991 -4.989 0.991 -4.989 0.087 81.449 
48.765 0.091 81.315 0.99 -5.224 0.99 -5.224 0.091 81.315 
51.075 0.095 81.166 0.99 -5.469 0.99 -5.469 0.095 81.166 
53.494 0.1 81.003 0.989 -5.726 0.989 -5.726 0.1 81.003 
56.027 0.105 80.826 0.989 -5.995 0.989 -5.995 0.105 80.826 
58.681 0.109 80.633 0.988 -6.276 0.988 -6.276 0.109 80.633 
61.46 0.115 80.424 0.987 -6.57 0.987 -6.57 0.115 80.424 
64.371 0.12 80.199 0.987 -6.878 0.987 -6.878 0.12 80.199 
67.42 0.125 79.958 0.986 -7.2 0.986 -7.2 0.125 79.958 
70.613 0.131 79.699 0.985 -7.536 0.985 -7.536 0.131 79.699 
73.957 0.137 79.423 0.984 -7.888 0.984 -7.888 0.137 79.423 
77.46 0.144 79.129 0.983 -8.256 0.983 -8.256 0.144 79.129 
81.128 0.15 78.815 0.982 -8.64 0.982 -8.64 0.15 78.815 
84.971 0.157 78.482 0.981 -9.042 0.981 -9.042 0.157 78.482 
88.995 0.165 78.129 0.979 -9.462 0.979 -9.462 0.165 78.129 
93.21 0.172 77.756 0.978 -9.9 0.978 -9.9 0.172 77.756 
97.624 0.18 77.36 0.977 -10.358 0.977 -10.358 0.18 77.36 
102.248 0.188 76.943 0.975 -10.837 0.975 -10.837 0.188 76.943 
107.091 0.197 76.503 0.973 -11.336 0.973 -11.336 0.197 76.503 
112.163 0.206 76.04 0.971 -11.857 0.971 -11.857 0.206 76.04 
117.475 0.215 75.552 0.969 -12.401 0.969 -12.401 0.215 75.552 
123.039 0.225 75.039 0.967 -12.968 0.967 -12.968 0.225 75.039 
128.866 0.235 74.5 0.964 -13.559 0.964 -13.559 0.235 74.5 
134.969 0.245 73.935 0.961 -14.175 0.961 -14.175 0.245 73.935 
141.361 0.256 73.343 0.959 -14.817 0.959 -14.817 0.256 73.343 
148.056 0.267 72.724 0.955 -15.485 0.955 -15.485 0.267 72.724 
155.069 0.279 72.075 0.952 -16.18 0.952 -16.18 0.279 72.075 
162.413 0.291 71.398 0.948 -16.903 0.948 -16.903 0.291 71.398 
170.105 0.303 70.69 0.944 -17.654 0.944 -17.654 0.303 70.69 
178.161 0.316 69.953 0.94 -18.435 0.94 -18.435 0.316 69.953 
186.599 0.33 69.184 0.935 -19.245 0.935 -19.245 0.33 69.184 
195.437 0.344 68.384 0.93 -20.085 0.93 -20.085 0.344 68.384 
204.693 0.358 67.553 0.925 -20.956 0.925 -20.956 0.358 67.553 
214.388 0.372 66.689 0.919 -21.857 0.919 -21.857 0.372 66.689 
224.541 0.387 65.793 0.912 -22.79 0.912 -22.79 0.387 65.793 
235.176 0.403 64.865 0.906 -23.754 0.906 -23.754 0.403 64.865 
246.314 0.419 63.905 0.898 -24.749 0.898 -24.749 0.419 63.905 
257.98 0.435 62.913 0.891 -25.775 0.891 -25.775 0.435 62.913 
270.198 0.451 61.889 0.882 -26.832 0.882 -26.832 0.451 61.889 
282.995 0.468 60.834 0.873 -27.919 0.873 -27.919 0.468 60.834 
296.398 0.485 59.749 0.864 -29.035 0.864 -29.035 0.485 59.749 
310.436 0.503 58.634 0.854 -30.181 0.854 -30.181 0.503 58.634 
325.139 0.52 57.49 0.843 -31.354 0.843 -31.354 0.52 57.49 
340.538 0.538 56.319 0.832 -32.554 0.832 -32.554 0.538 56.319 
356.666 0.556 55.121 0.821 -33.779 0.821 -33.779 0.556 55.121 
373.558 0.574 53.9 0.808 -35.027 0.808 -35.027 0.574 53.9 
391.25 0.592 52.655 0.795 -36.298 0.795 -36.298 0.592 52.655 
409.781 0.61 51.39 0.782 -37.588 0.782 -37.588 0.61 51.39 
429.188 0.628 50.106 0.767 -38.896 0.767 -38.896 0.628 50.106 
449.515 0.646 48.806 0.753 -40.22 0.753 -40.22 0.646 48.806 
470.805 0.663 47.493 0.737 -41.557 0.737 -41.557 0.663 47.493 
493.103 0.681 46.167 0.721 -42.904 0.721 -42.904 0.681 46.167 
516.457 0.698 44.833 0.705 -44.26 0.705 -44.26 0.698 44.833 
540.917 0.715 43.493 0.688 -45.621 0.688 -45.621 0.715 43.493 
566.536 0.731 42.15 0.671 -46.984 0.671 -46.984 0.731 42.15 
593.368 0.747 40.806 0.654 -48.348 0.654 -48.348 0.747 40.806 
621.47 0.763 39.463 0.636 -49.709 0.636 -49.709 0.763 39.463 
650.904 0.778 38.126 0.617 -51.065 0.617 -51.065 0.778 38.126 
681.732 0.792 36.795 0.599 -52.413 0.599 -52.413 0.792 36.795 
714.019 0.807 35.474 0.58 -53.75 0.58 -53.75 0.807 35.474 
747.836 0.82 34.164 0.562 -55.076 0.562 -55.076 0.82 34.164 
783.255 0.833 32.869 0.543 -56.386 0.543 -56.386 0.833 32.869 
820.351 0.845 31.589 0.524 -57.68 0.524 -57.68 0.845 31.589 
859.204 0.857 30.327 0.505 -58.956 0.505 -58.956 0.857 30.327 
899.897 0.868 29.084 0.486 -60.212 0.486 -60.212 0.868 29.084 
942.517 0.878 27.861 0.467 -61.446 0.467 -61.446 0.878 27.861 
987.156 0.888 26.66 0.449 -62.658 0.449 -62.658 0.888 26.66 
1033.909 0.898 25.482 0.43 -63.846 0.43 -63.846 0.898 25.482 
1082.877 0.906 24.328 0.412 -65.009 0.412 -65.009 0.906 24.328 
1134.163 0.915 23.197 0.394 -66.147 0.394 -66.147 0.915 23.197 
1187.879 0.922 22.091 0.376 -67.26 0.376 -67.26 0.922 22.091 
1244.138 0.929 21.01 0.359 -68.346 0.359 -68.346 0.929 21.01 
1303.062 0.936 19.953 0.341 -69.406 0.341 -69.406 0.936 19.953 
1364.777 0.942 18.921 0.324 -70.44 0.324 -70.44 0.942 18.921 
1429.415 0.948 17.913 0.308 -71.448 0.308 -71.448 0.948 17.913 
1497.114 0.953 16.929 0.291 -72.429 0.291 -72.429 0.953 16.929 
1568.019 0.958 15.969 0.275 -73.385 0.275 -73.385 0.958 15.969 
1642.283 0.963 15.031 0.259 -74.314 0.259 -74.314 0.963 15.031 
1720.063 0.967 14.116 0.244 -75.218 0.244 -75.218 0.967 14.116 
1801.528 0.971 13.222 0.229 -76.097 0.229 -76.097 0.971 13.222 
1886.851 0.974 12.348 0.214 -76.95 0.214 -76.95 0.974 12.348 
1976.214 0.977 11.494 0.199 -77.778 0.199 -77.778 0.977 11.494 
2069.811 0.98 10.659 0.185 -78.579 0.185 -78.579 0.98 10.659 
2167.84 0.983 9.841 0.171 -79.355 0.171 -79.355 0.983 9.841 
2270.512 0.985 9.039 0.157 -80.102 0.157 -80.102 0.985 9.039 
2378.046 0.987 8.253 0.144 -80.82 0.144 -80.82 0.987 8.253 
2490.674 0.989 7.481 0.13 -81.504 0.13 -81.504 0.989 7.481 
2608.635 0.991 6.722 0.117 -82.151 0.117 -82.151 0.991 6.722 
2732.184 0.992 5.975 0.104 -82.751 0.104 -82.751 0.992 5.975 
2861.584 0.993 5.239 0.091 -83.293 0.091 -83.293 0.993 5.239 
2997.112 0.995 4.512 0.079 -83.753 0.079 -83.753 0.995 4.512 
3139.06 0.995 3.793 0.066 -84.092 0.066 -84.092 0.995 3.793 
3287.73 0.996 3.081 0.054 -84.235 0.054 -84.235 0.996 3.081 
3443.441 0.997 2.375 0.042 -84.015 0.042 -84.015 0.997 2.375 
3606.527 0.997 1.673 0.029 -82.988 0.029 -82.988 0.997 1.673 
3777.337 0.997 0.975 0.017 -79.473 0.017 -79.473 0.997 0.975 
3956.237 0.997 0.278 5.721e-3 -57.871 5.721e-3 -57.871 0.997 0.278 
4143.61 0.997 -0.417 7.952e-3 65.868 7.952e-3 65.868 0.997 -0.417 
4339.857 0.996 -1.113 0.02 78.954 0.02 78.954 0.996 -1.113 
4545.398 0.996 -1.811 0.032 81.631 0.032 81.631 0.996 -1.811 
4760.675 0.995 -2.512 0.044 82.413 0.044 82.413 0.995 -2.512 
4986.147 0.994 -3.216 0.056 82.522 0.056 82.522 0.994 -3.216 
5222.297 0.993 -3.926 0.069 82.311 0.069 82.311 0.993 -3.926 
5469.633 0.992 -4.643 0.081 81.92 0.081 81.92 0.992 -4.643 
5728.682 0.99 -5.366 0.094 81.416 0.094 81.416 0.99 -5.366 
6000 0.989 -6.099 0.106 80.833 0.106 80.833 0.989 -6.099 
