# MHz S MA R 50

1 0.048 25.498 0.957 -1.24 0.957 -1.24 0.048 25.498 
1.047 0.049 26.454 0.957 -1.298 0.957 -1.298 0.049 26.454 
1.097 0.049 27.432 0.957 -1.359 0.957 -1.359 0.049 27.432 
1.148 0.05 28.43 0.956 -1.423 0.956 -1.423 0.05 28.43 
1.202 0.051 29.448 0.956 -1.49 0.956 -1.49 0.051 29.448 
1.259 0.051 30.483 0.956 -1.56 0.956 -1.56 0.051 30.483 
1.318 0.052 31.535 0.956 -1.634 0.956 -1.634 0.052 31.535 
1.381 0.053 32.601 0.956 -1.71 0.956 -1.71 0.053 32.601 
1.446 0.054 33.68 0.956 -1.791 0.956 -1.791 0.054 33.68 
1.514 0.055 34.77 0.955 -1.875 0.955 -1.875 0.055 34.77 
1.585 0.056 35.87 0.955 -1.963 0.955 -1.963 0.056 35.87 
1.66 0.057 36.976 0.955 -2.055 0.955 -2.055 0.057 36.976 
1.738 0.058 38.087 0.955 -2.152 0.955 -2.152 0.058 38.087 
1.82 0.059 39.2 0.955 -2.253 0.955 -2.253 0.059 39.2 
1.906 0.061 40.313 0.955 -2.358 0.955 -2.358 0.061 40.313 
1.996 0.062 41.423 0.954 -2.469 0.954 -2.469 0.062 41.423 
2.09 0.064 42.528 0.954 -2.585 0.954 -2.585 0.064 42.528 
2.188 0.065 43.626 0.954 -2.706 0.954 -2.706 0.065 43.626 
2.291 0.067 44.714 0.954 -2.833 0.954 -2.833 0.067 44.714 
2.399 0.069 45.789 0.953 -2.966 0.953 -2.966 0.069 45.789 
2.513 0.071 46.849 0.953 -3.105 0.953 -3.105 0.071 46.849 
2.631 0.073 47.892 0.953 -3.25 0.953 -3.25 0.073 47.892 
2.755 0.075 48.916 0.952 -3.403 0.952 -3.403 0.075 48.916 
2.885 0.077 49.918 0.952 -3.562 0.952 -3.562 0.077 49.918 
3.021 0.08 50.896 0.952 -3.729 0.952 -3.729 0.08 50.896 
3.163 0.082 51.849 0.951 -3.903 0.951 -3.903 0.082 51.849 
3.313 0.085 52.775 0.951 -4.086 0.951 -4.086 0.085 52.775 
3.469 0.088 53.671 0.951 -4.277 0.951 -4.277 0.088 53.671 
3.632 0.091 54.537 0.95 -4.477 0.95 -4.477 0.091 54.537 
3.803 0.094 55.371 0.95 -4.686 0.95 -4.686 0.094 55.371 
3.983 0.098 56.172 0.949 -4.905 0.949 -4.905 0.098 56.172 
4.171 0.101 56.938 0.949 -5.134 0.949 -5.134 0.101 56.938 
4.367 0.105 57.669 0.948 -5.373 0.948 -5.373 0.105 57.669 
4.573 0.109 58.364 0.947 -5.624 0.947 -5.624 0.109 58.364 
4.789 0.113 59.022 0.947 -5.886 0.947 -5.886 0.113 59.022 
5.014 0.118 59.641 0.946 -6.16 0.946 -6.16 0.118 59.641 
5.251 0.122 60.222 0.945 -6.446 0.945 -6.446 0.122 60.222 
5.498 0.127 60.765 0.944 -6.746 0.944 -6.746 0.127 60.765 
5.758 0.132 61.267 0.944 -7.059 0.944 -7.059 0.132 61.267 
6.029 0.138 61.73 0.943 -7.386 0.943 -7.386 0.138 61.73 
6.313 0.143 62.153 0.942 -7.728 0.942 -7.728 0.143 62.153 
6.611 0.149 62.535 0.941 -8.086 0.941 -8.086 0.149 62.535 
6.922 0.155 62.877 0.939 -8.459 0.939 -8.459 0.155 62.877 
7.249 0.162 63.177 0.938 -8.849 0.938 -8.849 0.162 63.177 
7.591 0.168 63.437 0.937 -9.257 0.937 -9.257 0.168 63.437 
7.948 0.176 63.655 0.935 -9.682 0.935 -9.682 0.176 63.655 
8.323 0.183 63.831 0.934 -10.126 0.934 -10.126 0.183 63.831 
8.716 0.191 63.966 0.932 -10.59 0.932 -10.59 0.191 63.966 
9.126 0.199 64.059 0.93 -11.074 0.93 -11.074 0.199 64.059 
9.557 0.207 64.11 0.928 -11.578 0.928 -11.578 0.207 64.11 
10.007 0.216 64.119 0.926 -12.105 0.926 -12.105 0.216 64.119 
10.479 0.225 64.086 0.924 -12.653 0.924 -12.653 0.225 64.086 
10.973 0.235 64.011 0.922 -13.225 0.922 -13.225 0.235 64.011 
11.49 0.244 63.893 0.919 -13.82 0.919 -13.82 0.244 63.893 
12.032 0.255 63.732 0.916 -14.44 0.916 -14.44 0.255 63.732 
12.599 0.265 63.529 0.913 -15.085 0.913 -15.085 0.265 63.529 
13.193 0.277 63.283 0.91 -15.756 0.91 -15.756 0.277 63.283 
13.815 0.288 62.995 0.906 -16.453 0.906 -16.453 0.288 62.995 
14.466 0.3 62.663 0.902 -17.178 0.902 -17.178 0.3 62.663 
15.148 0.312 62.289 0.898 -17.93 0.898 -17.93 0.312 62.289 
15.863 0.325 61.872 0.894 -18.711 0.894 -18.711 0.325 61.872 
16.61 0.338 61.412 0.889 -19.52 0.889 -19.52 0.338 61.412 
17.394 0.352 60.91 0.884 -20.358 0.884 -20.358 0.352 60.91 
18.213 0.366 60.365 0.879 -21.225 0.879 -21.225 0.366 60.365 
19.072 0.38 59.778 0.873 -22.122 0.873 -22.122 0.38 59.778 
19.971 0.395 59.149 0.867 -23.049 0.867 -23.049 0.395 59.149 
20.913 0.41 58.48 0.86 -24.005 0.86 -24.005 0.41 58.48 
21.899 0.426 57.769 0.853 -24.991 0.853 -24.991 0.426 57.769 
22.931 0.442 57.019 0.845 -26.005 0.845 -26.005 0.442 57.019 
24.012 0.458 56.23 0.837 -27.049 0.837 -27.049 0.458 56.23 
25.144 0.474 55.403 0.828 -28.12 0.828 -28.12 0.474 55.403 
26.33 0.491 54.54 0.819 -29.218 0.819 -29.218 0.491 54.54 
27.571 0.508 53.641 0.81 -30.343 0.81 -30.343 0.508 53.641 
28.871 0.525 52.708 0.8 -31.493 0.8 -31.493 0.525 52.708 
30.232 0.542 51.743 0.789 -32.667 0.789 -32.667 0.542 51.743 
31.657 0.56 50.747 0.778 -33.863 0.778 -33.863 0.56 50.747 
33.149 0.577 49.723 0.766 -35.079 0.766 -35.079 0.577 49.723 
34.712 0.594 48.673 0.754 -36.314 0.754 -36.314 0.594 48.673 
36.349 0.612 47.6 0.741 -37.566 0.741 -37.566 0.612 47.6 
38.062 0.629 46.505 0.728 -38.832 0.728 -38.832 0.629 46.505 
39.857 0.646 45.391 0.714 -40.11 0.714 -40.11 0.646 45.391 
41.736 0.663 44.261 0.7 -41.398 0.7 -41.398 0.663 44.261 
43.703 0.68 43.119 0.685 -42.693 0.685 -42.693 0.68 43.119 
45.763 0.696 41.965 0.67 -43.993 0.67 -43.993 0.696 41.965 
47.921 0.712 40.805 0.655 -45.294 0.655 -45.294 0.712 40.805 
50.18 0.728 39.64 0.639 -46.595 0.639 -46.595 0.728 39.64 
52.546 0.743 38.473 0.623 -47.892 0.623 -47.892 0.743 38.473 
55.023 0.758 37.307 0.607 -49.182 0.607 -49.182 0.758 37.307 
57.617 0.773 36.146 0.591 -50.464 0.591 -50.464 0.773 36.146 
60.333 0.786 34.991 0.574 -51.735 0.574 -51.735 0.786 34.991 
63.177 0.8 33.845 0.558 -52.993 0.558 -52.993 0.8 33.845 
66.156 0.813 32.711 0.541 -54.235 0.541 -54.235 0.813 32.711 
69.275 0.825 31.59 0.525 -55.458 0.525 -55.458 0.825 31.59 
72.54 0.836 30.485 0.508 -56.663 0.508 -56.663 0.836 30.485 
75.96 0.848 29.398 0.491 -57.845 0.491 -57.845 0.848 29.398 
79.541 0.858 28.331 0.475 -59.005 0.475 -59.005 0.858 28.331 
83.291 0.868 27.284 0.459 -60.14 0.459 -60.14 0.868 27.284 
87.218 0.878 26.26 0.443 -61.25 0.443 -61.25 0.878 26.26 
91.33 0.886 25.259 0.427 -62.333 0.427 -62.333 0.886 25.259 
95.635 0.895 24.283 0.412 -63.388 0.412 -63.388 0.895 24.283 
100.144 0.903 23.332 0.396 -64.415 0.396 -64.415 0.903 23.332 
104.865 0.91 22.406 0.381 -65.414 0.381 -65.414 0.91 22.406 
109.809 0.917 21.507 0.367 -66.384 0.367 -66.384 0.917 21.507 
114.985 0.923 20.635 0.353 -67.325 0.353 -67.325 0.923 20.635 
120.406 0.929 19.789 0.339 -68.236 0.339 -68.236 0.929 19.789 
126.083 0.935 18.969 0.325 -69.118 0.325 -69.118 0.935 18.969 
132.027 0.94 18.177 0.312 -69.972 0.312 -69.972 0.94 18.177 
138.251 0.945 17.41 0.299 -70.797 0.299 -70.797 0.945 17.41 
144.769 0.949 16.67 0.287 -71.593 0.287 -71.593 0.949 16.67 
151.593 0.953 15.956 0.275 -72.361 0.275 -72.361 0.953 15.956 
158.74 0.957 15.267 0.263 -73.102 0.263 -73.102 0.957 15.267 
166.224 0.961 14.603 0.252 -73.817 0.252 -73.817 0.961 14.603 
174.06 0.964 13.963 0.241 -74.504 0.241 -74.504 0.964 13.963 
182.266 0.967 13.347 0.231 -75.167 0.231 -75.167 0.967 13.347 
190.859 0.97 12.755 0.221 -75.804 0.221 -75.804 0.97 12.755 
199.856 0.972 12.184 0.211 -76.417 0.211 -76.417 0.972 12.184 
209.278 0.975 11.636 0.202 -77.007 0.202 -77.007 0.975 11.636 
219.144 0.977 11.108 0.193 -77.574 0.193 -77.574 0.977 11.108 
229.476 0.979 10.601 0.184 -78.118 0.184 -78.118 0.979 10.601 
240.294 0.981 10.114 0.176 -78.642 0.176 -78.642 0.981 10.114 
251.622 0.982 9.645 0.168 -79.144 0.168 -79.144 0.982 9.645 
263.485 0.984 9.196 0.16 -79.627 0.16 -79.627 0.984 9.196 
275.906 0.985 8.763 0.152 -80.09 0.152 -80.09 0.985 8.763 
288.913 0.987 8.348 0.145 -80.535 0.145 -80.535 0.987 8.348 
302.534 0.988 7.949 0.138 -80.962 0.138 -80.962 0.988 7.949 
316.796 0.989 7.565 0.132 -81.371 0.132 -81.371 0.989 7.565 
331.731 0.99 7.197 0.125 -81.764 0.125 -81.764 0.99 7.197 
347.37 0.991 6.842 0.119 -82.14 0.119 -82.14 0.991 6.842 
363.747 0.992 6.502 0.113 -82.501 0.113 -82.501 0.992 6.502 
380.895 0.992 6.174 0.108 -82.847 0.108 -82.847 0.992 6.174 
398.852 0.993 5.859 0.102 -83.178 0.102 -83.178 0.993 5.859 
417.655 0.994 5.556 0.097 -83.495 0.097 -83.495 0.994 5.556 
437.345 0.994 5.264 0.092 -83.798 0.092 -83.798 0.994 5.264 
457.963 0.995 4.983 0.087 -84.087 0.087 -84.087 0.995 4.983 
479.553 0.995 4.712 0.082 -84.363 0.082 -84.363 0.995 4.712 
502.161 0.996 4.45 0.078 -84.625 0.078 -84.625 0.996 4.45 
525.834 0.996 4.198 0.073 -84.875 0.073 -84.875 0.996 4.198 
550.624 0.996 3.955 0.069 -85.111 0.069 -85.111 0.996 3.955 
576.582 0.997 3.719 0.065 -85.333 0.065 -85.333 0.997 3.719 
603.765 0.997 3.492 0.061 -85.542 0.061 -85.542 0.997 3.492 
632.228 0.997 3.271 0.057 -85.736 0.057 -85.736 0.997 3.271 
662.034 0.998 3.057 0.053 -85.914 0.053 -85.914 0.998 3.057 
693.244 0.998 2.85 0.05 -86.075 0.05 -86.075 0.998 2.85 
725.927 0.998 2.649 0.046 -86.218 0.046 -86.218 0.998 2.649 
760.149 0.998 2.453 0.043 -86.339 0.043 -86.339 0.998 2.453 
795.985 0.998 2.262 0.039 -86.436 0.039 -86.436 0.998 2.262 
833.511 0.998 2.076 0.036 -86.503 0.036 -86.503 0.998 2.076 
872.806 0.999 1.895 0.033 -86.535 0.033 -86.535 0.999 1.895 
913.953 0.999 1.717 0.03 -86.522 0.03 -86.522 0.999 1.717 
957.04 0.999 1.543 0.027 -86.451 0.027 -86.451 0.999 1.543 
1002.158 0.999 1.372 0.024 -86.302 0.024 -86.302 0.999 1.372 
1049.404 0.999 1.205 0.021 -86.046 0.021 -86.046 0.999 1.205 
1098.876 0.999 1.039 0.018 -85.633 0.018 -85.633 0.999 1.039 
1150.681 0.999 0.876 0.015 -84.978 0.015 -84.978 0.999 0.876 
1204.929 0.999 0.715 0.013 -83.924 0.013 -83.924 0.999 0.715 
1261.733 0.999 0.556 9.777e-3 -82.135 9.777e-3 -82.135 0.999 0.556 
1321.216 0.999 0.397 7.059e-3 -78.771 7.059e-3 -78.771 0.999 0.397 
1383.503 0.999 0.24 4.42e-3 -71.016 4.42e-3 -71.016 0.999 0.24 
1448.726 0.998 0.083 2.103e-3 -43.409 2.103e-3 -43.409 0.998 0.083 
1517.024 0.998 -0.074 2.087e-3 37.94 2.087e-3 37.94 0.998 -0.074 
1588.542 0.998 -0.23 4.394e-3 65.923 4.394e-3 65.923 0.998 -0.23 
1663.432 0.998 -0.387 7.027e-3 73.725 7.027e-3 73.725 0.998 -0.387 
1741.852 0.998 -0.545 9.737e-3 77.078 9.737e-3 77.078 0.998 -0.545 
1823.969 0.998 -0.704 0.012 78.831 0.012 78.831 0.998 -0.704 
1909.958 0.997 -0.863 0.015 79.836 0.015 79.836 0.997 -0.863 
2000 0.997 -1.025 0.018 80.427 0.018 80.427 0.997 -1.025 
