# MHz S MA R 50

1 0.036 24.251 0.967 -0.871 0.967 -0.871 0.036 24.251 
1.047 0.036 25.184 0.967 -0.912 0.967 -0.912 0.036 25.184 
1.097 0.037 26.141 0.967 -0.955 0.967 -0.955 0.037 26.141 
1.148 0.037 27.12 0.967 -1 0.967 -1 0.037 27.12 
1.202 0.037 28.121 0.967 -1.047 0.967 -1.047 0.037 28.121 
1.259 0.038 29.143 0.967 -1.096 0.967 -1.096 0.038 29.143 
1.318 0.039 30.184 0.967 -1.147 0.967 -1.147 0.039 30.184 
1.381 0.039 31.243 0.967 -1.201 0.967 -1.201 0.039 31.243 
1.446 0.04 32.319 0.967 -1.258 0.967 -1.258 0.04 32.319 
1.514 0.04 33.409 0.967 -1.317 0.967 -1.317 0.04 33.409 
1.585 0.041 34.513 0.966 -1.379 0.966 -1.379 0.041 34.513 
1.66 0.042 35.629 0.966 -1.444 0.966 -1.444 0.042 35.629 
1.738 0.043 36.753 0.966 -1.512 0.966 -1.512 0.043 36.753 
1.82 0.043 37.885 0.966 -1.583 0.966 -1.583 0.043 37.885 
1.906 0.044 39.021 0.966 -1.657 0.966 -1.657 0.044 39.021 
1.996 0.045 40.16 0.966 -1.735 0.966 -1.735 0.045 40.16 
2.09 0.046 41.299 0.966 -1.816 0.966 -1.816 0.046 41.299 
2.188 0.047 42.436 0.965 -1.902 0.965 -1.902 0.047 42.436 
2.291 0.049 43.568 0.965 -1.991 0.965 -1.991 0.049 43.568 
2.399 0.05 44.693 0.965 -2.085 0.965 -2.085 0.05 44.693 
2.513 0.051 45.809 0.965 -2.183 0.965 -2.183 0.051 45.809 
2.631 0.053 46.912 0.965 -2.285 0.965 -2.285 0.053 46.912 
2.755 0.054 48.002 0.965 -2.392 0.965 -2.392 0.054 48.002 
2.885 0.056 49.074 0.964 -2.505 0.964 -2.505 0.056 49.074 
3.021 0.057 50.129 0.964 -2.622 0.964 -2.622 0.057 50.129 
3.163 0.059 51.162 0.964 -2.745 0.964 -2.745 0.059 51.162 
3.313 0.061 52.173 0.964 -2.874 0.964 -2.874 0.061 52.173 
3.469 0.063 53.16 0.963 -3.009 0.963 -3.009 0.063 53.16 
3.632 0.065 54.12 0.963 -3.15 0.963 -3.15 0.065 54.12 
3.803 0.068 55.053 0.963 -3.298 0.963 -3.298 0.068 55.053 
3.983 0.07 55.957 0.963 -3.453 0.963 -3.453 0.07 55.957 
4.171 0.072 56.831 0.962 -3.614 0.962 -3.614 0.072 56.831 
4.367 0.075 57.673 0.962 -3.784 0.962 -3.784 0.075 57.673 
4.573 0.078 58.483 0.962 -3.961 0.962 -3.961 0.078 58.483 
4.789 0.081 59.259 0.961 -4.146 0.961 -4.146 0.081 59.259 
5.014 0.084 60.001 0.961 -4.34 0.961 -4.34 0.084 60.001 
5.251 0.087 60.709 0.96 -4.543 0.96 -4.543 0.087 60.709 
5.498 0.091 61.381 0.96 -4.756 0.96 -4.756 0.091 61.381 
5.758 0.094 62.018 0.959 -4.978 0.959 -4.978 0.094 62.018 
6.029 0.098 62.618 0.959 -5.21 0.959 -5.21 0.098 62.618 
6.313 0.102 63.182 0.958 -5.453 0.958 -5.453 0.102 63.182 
6.611 0.106 63.709 0.958 -5.708 0.958 -5.708 0.106 63.709 
6.922 0.111 64.198 0.957 -5.974 0.957 -5.974 0.111 64.198 
7.249 0.115 64.651 0.956 -6.252 0.956 -6.252 0.115 64.651 
7.591 0.12 65.066 0.956 -6.543 0.956 -6.543 0.12 65.066 
7.948 0.125 65.444 0.955 -6.847 0.955 -6.847 0.125 65.444 
8.323 0.13 65.785 0.954 -7.165 0.954 -7.165 0.13 65.785 
8.716 0.136 66.088 0.953 -7.497 0.953 -7.497 0.136 66.088 
9.126 0.142 66.353 0.952 -7.844 0.952 -7.844 0.142 66.353 
9.557 0.148 66.581 0.951 -8.207 0.951 -8.207 0.148 66.581 
10.007 0.154 66.771 0.95 -8.587 0.95 -8.587 0.154 66.771 
10.479 0.161 66.923 0.949 -8.983 0.949 -8.983 0.161 66.923 
10.973 0.168 67.037 0.947 -9.397 0.947 -9.397 0.168 67.037 
11.49 0.175 67.113 0.946 -9.829 0.946 -9.829 0.175 67.113 
12.032 0.183 67.151 0.944 -10.28 0.944 -10.28 0.183 67.151 
12.599 0.191 67.151 0.942 -10.751 0.942 -10.751 0.191 67.151 
13.193 0.199 67.113 0.941 -11.242 0.941 -11.242 0.199 67.113 
13.815 0.208 67.036 0.939 -11.754 0.939 -11.754 0.208 67.036 
14.466 0.217 66.921 0.937 -12.288 0.937 -12.288 0.217 66.921 
15.148 0.226 66.767 0.934 -12.845 0.934 -12.845 0.226 66.767 
15.863 0.236 66.574 0.932 -13.426 0.932 -13.426 0.236 66.574 
16.61 0.246 66.342 0.929 -14.03 0.929 -14.03 0.246 66.342 
17.394 0.256 66.071 0.926 -14.659 0.926 -14.659 0.256 66.071 
18.213 0.267 65.76 0.923 -15.314 0.923 -15.314 0.267 65.76 
19.072 0.279 65.41 0.92 -15.995 0.92 -15.995 0.279 65.41 
19.971 0.29 65.02 0.916 -16.703 0.916 -16.703 0.29 65.02 
20.913 0.303 64.59 0.912 -17.438 0.912 -17.438 0.303 64.59 
21.899 0.315 64.121 0.908 -18.201 0.908 -18.201 0.315 64.121 
22.931 0.328 63.611 0.903 -18.993 0.903 -18.993 0.328 63.611 
24.012 0.342 63.062 0.898 -19.813 0.898 -19.813 0.342 63.062 
25.144 0.355 62.472 0.893 -20.663 0.893 -20.663 0.355 62.472 
26.33 0.37 61.843 0.888 -21.543 0.888 -21.543 0.37 61.843 
27.571 0.384 61.175 0.882 -22.452 0.882 -22.452 0.384 61.175 
28.871 0.399 60.467 0.875 -23.391 0.875 -23.391 0.399 60.467 
30.232 0.415 59.721 0.868 -24.359 0.868 -24.359 0.415 59.721 
31.657 0.43 58.936 0.861 -25.357 0.861 -25.357 0.43 58.936 
33.149 0.446 58.115 0.853 -26.385 0.853 -26.385 0.446 58.115 
34.712 0.463 57.256 0.845 -27.44 0.845 -27.44 0.463 57.256 
36.349 0.479 56.362 0.836 -28.524 0.836 -28.524 0.479 56.362 
38.062 0.496 55.433 0.827 -29.635 0.827 -29.635 0.496 55.433 
39.857 0.513 54.472 0.817 -30.772 0.817 -30.772 0.513 54.472 
41.736 0.531 53.478 0.806 -31.934 0.806 -31.934 0.531 53.478 
43.703 0.548 52.455 0.795 -33.119 0.795 -33.119 0.548 52.455 
45.763 0.565 51.404 0.784 -34.326 0.784 -34.326 0.565 51.404 
47.921 0.583 50.326 0.772 -35.553 0.772 -35.553 0.583 50.326 
50.18 0.6 49.225 0.759 -36.799 0.759 -36.799 0.6 49.225 
52.546 0.618 48.102 0.746 -38.06 0.746 -38.06 0.618 48.102 
55.023 0.635 46.96 0.732 -39.335 0.732 -39.335 0.635 46.96 
57.617 0.652 45.802 0.718 -40.622 0.718 -40.622 0.652 45.802 
60.333 0.669 44.63 0.704 -41.917 0.704 -41.917 0.669 44.63 
63.177 0.686 43.447 0.689 -43.219 0.689 -43.219 0.686 43.447 
66.156 0.702 42.255 0.673 -44.524 0.673 -44.524 0.702 42.255 
69.275 0.718 41.059 0.658 -45.831 0.658 -45.831 0.718 41.059 
72.54 0.734 39.859 0.642 -47.136 0.642 -47.136 0.734 39.859 
75.96 0.749 38.66 0.626 -48.436 0.626 -48.436 0.749 38.66 
79.541 0.764 37.465 0.609 -49.73 0.609 -49.73 0.764 37.465 
83.291 0.778 36.275 0.592 -51.014 0.592 -51.014 0.778 36.275 
87.218 0.792 35.093 0.576 -52.286 0.576 -52.286 0.792 35.093 
91.33 0.805 33.923 0.559 -53.544 0.559 -53.544 0.805 33.923 
95.635 0.818 32.765 0.542 -54.785 0.542 -54.785 0.818 32.765 
100.144 0.83 31.623 0.525 -56.008 0.525 -56.008 0.83 31.623 
104.865 0.841 30.498 0.508 -57.211 0.508 -57.211 0.841 30.498 
109.809 0.852 29.393 0.491 -58.391 0.491 -58.391 0.852 29.393 
114.985 0.863 28.308 0.475 -59.548 0.475 -59.548 0.863 28.308 
120.406 0.872 27.245 0.458 -60.68 0.458 -60.68 0.872 27.245 
126.083 0.882 26.206 0.442 -61.787 0.442 -61.787 0.882 26.206 
132.027 0.89 25.191 0.426 -62.866 0.426 -62.866 0.89 25.191 
138.251 0.899 24.201 0.41 -63.918 0.41 -63.918 0.899 24.201 
144.769 0.906 23.237 0.395 -64.941 0.395 -64.941 0.906 23.237 
151.593 0.914 22.3 0.38 -65.936 0.38 -65.936 0.914 22.3 
158.74 0.92 21.389 0.365 -66.902 0.365 -66.902 0.92 21.389 
166.224 0.927 20.505 0.35 -67.839 0.35 -67.839 0.927 20.505 
174.06 0.932 19.649 0.336 -68.746 0.336 -68.746 0.932 19.649 
182.266 0.938 18.819 0.323 -69.625 0.323 -69.625 0.938 18.819 
190.859 0.943 18.017 0.309 -70.474 0.309 -70.474 0.943 18.017 
199.856 0.947 17.241 0.296 -71.296 0.296 -71.296 0.947 17.241 
209.278 0.952 16.491 0.284 -72.089 0.284 -72.089 0.952 16.491 
219.144 0.956 15.767 0.272 -72.855 0.272 -72.855 0.956 15.767 
229.476 0.96 15.068 0.26 -73.593 0.26 -73.593 0.96 15.068 
240.294 0.963 14.395 0.249 -74.305 0.249 -74.305 0.963 14.395 
251.622 0.966 13.745 0.238 -74.991 0.238 -74.991 0.966 13.745 
263.485 0.969 13.119 0.227 -75.652 0.227 -75.652 0.969 13.119 
275.906 0.972 12.516 0.217 -76.288 0.217 -76.288 0.972 12.516 
288.913 0.974 11.935 0.207 -76.9 0.207 -76.9 0.974 11.935 
302.534 0.976 11.375 0.197 -77.489 0.197 -77.489 0.976 11.375 
316.796 0.979 10.836 0.188 -78.056 0.188 -78.056 0.979 10.836 
331.731 0.98 10.318 0.179 -78.601 0.179 -78.601 0.98 10.318 
347.37 0.982 9.818 0.171 -79.124 0.171 -79.124 0.982 9.818 
363.747 0.984 9.337 0.162 -79.627 0.162 -79.627 0.984 9.337 
380.895 0.985 8.874 0.154 -80.11 0.154 -80.11 0.985 8.874 
398.852 0.987 8.428 0.147 -80.574 0.147 -80.574 0.987 8.428 
417.655 0.988 7.998 0.139 -81.019 0.139 -81.019 0.988 7.998 
437.345 0.989 7.584 0.132 -81.446 0.132 -81.446 0.989 7.584 
457.963 0.99 7.185 0.125 -81.855 0.125 -81.855 0.99 7.185 
479.553 0.991 6.8 0.118 -82.246 0.118 -82.246 0.991 6.8 
502.161 0.992 6.428 0.112 -82.621 0.112 -82.621 0.992 6.428 
525.834 0.993 6.069 0.106 -82.979 0.106 -82.979 0.993 6.069 
550.624 0.993 5.723 0.1 -83.32 0.1 -83.32 0.993 5.723 
576.582 0.994 5.388 0.094 -83.644 0.094 -83.644 0.994 5.388 
603.765 0.995 5.063 0.088 -83.951 0.088 -83.951 0.995 5.063 
632.228 0.995 4.75 0.083 -84.241 0.083 -84.241 0.995 4.75 
662.034 0.996 4.445 0.078 -84.512 0.078 -84.512 0.996 4.445 
693.244 0.996 4.15 0.072 -84.765 0.072 -84.765 0.996 4.15 
725.927 0.996 3.864 0.067 -84.997 0.067 -84.997 0.996 3.864 
760.149 0.997 3.585 0.063 -85.205 0.063 -85.205 0.997 3.585 
795.985 0.997 3.314 0.058 -85.389 0.058 -85.389 0.997 3.314 
833.511 0.997 3.049 0.053 -85.542 0.053 -85.542 0.997 3.049 
872.806 0.997 2.791 0.049 -85.66 0.049 -85.66 0.997 2.791 
913.953 0.998 2.539 0.044 -85.735 0.044 -85.735 0.998 2.539 
957.04 0.998 2.292 0.04 -85.755 0.04 -85.755 0.998 2.292 
1002.158 0.998 2.05 0.036 -85.704 0.036 -85.704 0.998 2.05 
1049.404 0.998 1.812 0.032 -85.557 0.032 -85.557 0.998 1.812 
1098.876 0.998 1.578 0.028 -85.272 0.028 -85.272 0.998 1.578 
1150.681 0.998 1.347 0.024 -84.785 0.024 -84.785 0.998 1.347 
1204.929 0.998 1.119 0.02 -83.975 0.02 -83.975 0.998 1.119 
1261.733 0.998 0.894 0.016 -82.605 0.016 -82.605 0.998 0.894 
1321.216 0.998 0.67 0.012 -80.138 0.012 -80.138 0.998 0.67 
1383.503 0.998 0.449 8.086e-3 -75.048 8.086e-3 -75.048 0.998 0.449 
1448.726 0.998 0.228 4.529e-3 -61.096 4.529e-3 -61.096 0.998 0.228 
1517.024 0.998 7.427e-3 2.343e-3 -3.163 2.343e-3 -3.163 0.998 7.427e-3 
1588.542 0.997 -0.213 4.489e-3 55.545 4.489e-3 55.545 0.997 -0.213 
1663.432 0.997 -0.433 8.034e-3 69.679 8.034e-3 69.679 0.997 -0.433 
1741.852 0.997 -0.654 0.012 74.789 0.012 74.789 0.997 -0.654 
1823.969 0.997 -0.876 0.016 77.235 0.016 77.235 0.997 -0.876 
1909.958 0.996 -1.099 0.02 78.562 0.02 78.562 0.996 -1.099 
2000 0.996 -1.325 0.023 79.314 0.023 79.314 0.996 -1.325 
