# MHz S MA R 50

1 8.056e-3 35.259 0.993 -0.268 0.993 -0.268 8.056e-3 35.259 
1.047 8.212e-3 36.368 0.993 -0.281 0.993 -0.281 8.212e-3 36.368 
1.097 8.378e-3 37.488 0.993 -0.294 0.993 -0.294 8.378e-3 37.488 
1.148 8.555e-3 38.616 0.993 -0.308 0.993 -0.308 8.555e-3 38.616 
1.202 8.743e-3 39.751 0.993 -0.322 0.993 -0.322 8.743e-3 39.751 
1.259 8.942e-3 40.89 0.993 -0.338 0.993 -0.338 8.942e-3 40.89 
1.318 9.154e-3 42.033 0.993 -0.354 0.993 -0.354 9.154e-3 42.033 
1.381 9.379e-3 43.176 0.993 -0.37 0.993 -0.37 9.379e-3 43.176 
1.446 9.618e-3 44.318 0.993 -0.388 0.993 -0.388 9.618e-3 44.318 
1.514 9.872e-3 45.456 0.993 -0.406 0.993 -0.406 9.872e-3 45.456 
1.585 0.01 46.59 0.993 -0.425 0.993 -0.425 0.01 46.59 
1.66 0.01 47.717 0.993 -0.445 0.993 -0.445 0.01 47.717 
1.738 0.011 48.835 0.993 -0.466 0.993 -0.466 0.011 48.835 
1.82 0.011 49.942 0.993 -0.488 0.993 -0.488 0.011 49.942 
1.906 0.011 51.037 0.993 -0.511 0.993 -0.511 0.011 51.037 
1.996 0.012 52.117 0.993 -0.535 0.993 -0.535 0.012 52.117 
2.09 0.012 53.182 0.993 -0.56 0.993 -0.56 0.012 53.182 
2.189 0.013 54.231 0.993 -0.587 0.993 -0.587 0.013 54.231 
2.292 0.013 55.26 0.993 -0.614 0.993 -0.614 0.013 55.26 
2.4 0.013 56.271 0.993 -0.643 0.993 -0.643 0.013 56.271 
2.513 0.014 57.261 0.993 -0.674 0.993 -0.674 0.014 57.261 
2.632 0.014 58.229 0.993 -0.705 0.993 -0.705 0.014 58.229 
2.756 0.015 59.175 0.992 -0.738 0.992 -0.738 0.015 59.175 
2.886 0.015 60.097 0.992 -0.773 0.992 -0.773 0.015 60.097 
3.022 0.016 60.996 0.992 -0.81 0.992 -0.81 0.016 60.996 
3.164 0.017 61.871 0.992 -0.848 0.992 -0.848 0.017 61.871 
3.314 0.017 62.721 0.992 -0.888 0.992 -0.888 0.017 62.721 
3.47 0.018 63.546 0.992 -0.93 0.992 -0.93 0.018 63.546 
3.633 0.019 64.345 0.992 -0.973 0.992 -0.973 0.019 64.345 
3.805 0.019 65.12 0.992 -1.019 0.992 -1.019 0.019 65.12 
3.984 0.02 65.869 0.992 -1.067 0.992 -1.067 0.02 65.869 
4.172 0.021 66.592 0.992 -1.117 0.992 -1.117 0.021 66.592 
4.369 0.022 67.29 0.992 -1.17 0.992 -1.17 0.022 67.29 
4.575 0.023 67.963 0.992 -1.225 0.992 -1.225 0.023 67.963 
4.791 0.024 68.611 0.992 -1.283 0.992 -1.283 0.024 68.611 
5.016 0.025 69.234 0.991 -1.343 0.991 -1.343 0.025 69.234 
5.253 0.026 69.832 0.991 -1.406 0.991 -1.406 0.026 69.832 
5.501 0.027 70.406 0.991 -1.472 0.991 -1.472 0.027 70.406 
5.76 0.028 70.955 0.991 -1.542 0.991 -1.542 0.028 70.955 
6.032 0.029 71.481 0.991 -1.614 0.991 -1.614 0.029 71.481 
6.316 0.031 71.984 0.991 -1.69 0.991 -1.69 0.031 71.984 
6.614 0.032 72.463 0.991 -1.77 0.991 -1.77 0.032 72.463 
6.926 0.034 72.919 0.991 -1.853 0.991 -1.853 0.034 72.919 
7.253 0.035 73.353 0.991 -1.94 0.991 -1.94 0.035 73.353 
7.595 0.037 73.765 0.99 -2.031 0.99 -2.031 0.037 73.765 
7.953 0.038 74.155 0.99 -2.127 0.99 -2.127 0.038 74.155 
8.328 0.04 74.524 0.99 -2.227 0.99 -2.227 0.04 74.524 
8.72 0.042 74.871 0.99 -2.331 0.99 -2.331 0.042 74.871 
9.132 0.044 75.198 0.99 -2.441 0.99 -2.441 0.044 75.198 
9.562 0.046 75.504 0.99 -2.556 0.99 -2.556 0.046 75.504 
10.013 0.048 75.789 0.989 -2.676 0.989 -2.676 0.048 75.789 
10.485 0.05 76.055 0.989 -2.802 0.989 -2.802 0.05 76.055 
10.98 0.052 76.3 0.989 -2.933 0.989 -2.933 0.052 76.3 
11.498 0.054 76.526 0.989 -3.071 0.989 -3.071 0.054 76.526 
12.04 0.057 76.732 0.988 -3.215 0.988 -3.215 0.057 76.732 
12.608 0.06 76.919 0.988 -3.366 0.988 -3.366 0.06 76.919 
13.202 0.062 77.087 0.988 -3.524 0.988 -3.524 0.062 77.087 
13.825 0.065 77.236 0.988 -3.689 0.988 -3.689 0.065 77.236 
14.477 0.068 77.366 0.987 -3.862 0.987 -3.862 0.068 77.366 
15.159 0.071 77.477 0.987 -4.043 0.987 -4.043 0.071 77.477 
15.874 0.075 77.568 0.987 -4.233 0.987 -4.233 0.075 77.568 
16.623 0.078 77.641 0.986 -4.431 0.986 -4.431 0.078 77.641 
17.406 0.082 77.695 0.986 -4.638 0.986 -4.638 0.082 77.695 
18.227 0.085 77.73 0.985 -4.856 0.985 -4.856 0.085 77.73 
19.087 0.089 77.746 0.985 -5.083 0.985 -5.083 0.089 77.746 
19.987 0.093 77.743 0.984 -5.32 0.984 -5.32 0.093 77.743 
20.929 0.098 77.72 0.984 -5.569 0.984 -5.569 0.098 77.72 
21.916 0.102 77.678 0.983 -5.829 0.983 -5.829 0.102 77.678 
22.95 0.107 77.616 0.983 -6.101 0.983 -6.101 0.107 77.616 
24.032 0.112 77.534 0.982 -6.385 0.982 -6.385 0.112 77.534 
25.165 0.117 77.432 0.981 -6.683 0.981 -6.683 0.117 77.432 
26.352 0.122 77.31 0.98 -6.994 0.98 -6.994 0.122 77.31 
27.595 0.128 77.167 0.98 -7.319 0.98 -7.319 0.128 77.167 
28.896 0.134 77.002 0.979 -7.659 0.979 -7.659 0.134 77.002 
30.258 0.14 76.816 0.978 -8.014 0.978 -8.014 0.14 76.816 
31.685 0.146 76.608 0.977 -8.385 0.977 -8.385 0.146 76.608 
33.179 0.153 76.377 0.975 -8.773 0.975 -8.773 0.153 76.377 
34.744 0.16 76.124 0.974 -9.179 0.974 -9.179 0.16 76.124 
36.383 0.167 75.848 0.973 -9.602 0.973 -9.602 0.167 75.848 
38.098 0.175 75.547 0.971 -10.044 0.971 -10.044 0.175 75.547 
39.895 0.183 75.223 0.97 -10.505 0.97 -10.505 0.183 75.223 
41.776 0.191 74.873 0.968 -10.987 0.968 -10.987 0.191 74.873 
43.746 0.2 74.498 0.966 -11.49 0.966 -11.49 0.2 74.498 
45.809 0.209 74.097 0.964 -12.014 0.964 -12.014 0.209 74.097 
47.969 0.218 73.669 0.962 -12.56 0.962 -12.56 0.218 73.669 
50.231 0.228 73.214 0.959 -13.13 0.959 -13.13 0.228 73.214 
52.6 0.238 72.731 0.957 -13.724 0.957 -13.724 0.238 72.731 
55.08 0.248 72.22 0.954 -14.342 0.954 -14.342 0.248 72.22 
57.678 0.259 71.68 0.951 -14.986 0.951 -14.986 0.259 71.68 
60.397 0.27 71.11 0.948 -15.656 0.948 -15.656 0.27 71.11 
63.246 0.282 70.51 0.944 -16.352 0.944 -16.352 0.282 70.51 
66.228 0.294 69.88 0.94 -17.076 0.94 -17.076 0.294 69.88 
69.351 0.307 69.218 0.936 -17.828 0.936 -17.828 0.307 69.218 
72.621 0.319 68.525 0.932 -18.608 0.932 -18.608 0.319 68.525 
76.046 0.333 67.8 0.927 -19.418 0.927 -19.418 0.333 67.8 
79.632 0.347 67.043 0.922 -20.257 0.922 -20.257 0.347 67.043 
83.387 0.361 66.253 0.916 -21.125 0.916 -21.125 0.361 66.253 
87.319 0.375 65.431 0.91 -22.024 0.91 -22.024 0.375 65.431 
91.437 0.39 64.576 0.904 -22.953 0.904 -22.953 0.39 64.576 
95.749 0.406 63.688 0.897 -23.912 0.897 -23.912 0.406 63.688 
100.264 0.421 62.768 0.89 -24.901 0.89 -24.901 0.421 62.768 
104.992 0.437 61.816 0.882 -25.92 0.882 -25.92 0.437 61.816 
109.943 0.454 60.833 0.874 -26.968 0.874 -26.968 0.454 60.833 
115.127 0.47 59.818 0.865 -28.045 0.865 -28.045 0.47 59.818 
120.556 0.487 58.773 0.856 -29.151 0.856 -29.151 0.487 58.773 
126.241 0.505 57.7 0.846 -30.283 0.846 -30.283 0.505 57.7 
132.194 0.522 56.598 0.835 -31.442 0.835 -31.442 0.522 56.598 
138.428 0.539 55.469 0.824 -32.625 0.824 -32.625 0.539 55.469 
144.956 0.557 54.316 0.813 -33.832 0.813 -33.832 0.557 54.316 
151.791 0.575 53.139 0.8 -35.06 0.8 -35.06 0.575 53.139 
158.949 0.592 51.941 0.788 -36.308 0.788 -36.308 0.592 51.941 
166.445 0.61 50.723 0.774 -37.574 0.774 -37.574 0.61 50.723 
174.294 0.628 49.489 0.761 -38.855 0.761 -38.855 0.628 49.489 
182.513 0.645 48.239 0.746 -40.15 0.746 -40.15 0.645 48.239 
191.119 0.662 46.977 0.731 -41.456 0.731 -41.456 0.662 46.977 
200.132 0.679 45.706 0.716 -42.77 0.716 -42.77 0.679 45.706 
209.569 0.696 44.427 0.7 -44.09 0.7 -44.09 0.696 44.427 
219.452 0.712 43.144 0.684 -45.412 0.684 -45.412 0.712 43.144 
229.8 0.728 41.859 0.668 -46.735 0.668 -46.735 0.728 41.859 
240.637 0.744 40.576 0.651 -48.056 0.651 -48.056 0.744 40.576 
251.984 0.759 39.296 0.634 -49.372 0.634 -49.372 0.759 39.296 
263.867 0.774 38.023 0.616 -50.68 0.616 -50.68 0.774 38.023 
276.31 0.788 36.759 0.599 -51.978 0.599 -51.978 0.788 36.759 
289.339 0.802 35.506 0.581 -53.264 0.581 -53.264 0.802 35.506 
302.984 0.815 34.266 0.563 -54.535 0.563 -54.535 0.815 34.266 
317.271 0.827 33.043 0.545 -55.789 0.545 -55.789 0.827 33.043 
332.232 0.839 31.837 0.528 -57.024 0.528 -57.024 0.839 31.837 
347.899 0.85 30.65 0.51 -58.239 0.51 -58.239 0.85 30.65 
364.305 0.861 29.485 0.492 -59.432 0.492 -59.432 0.861 29.485 
381.484 0.871 28.342 0.475 -60.601 0.475 -60.601 0.871 28.342 
399.473 0.881 27.223 0.458 -61.745 0.458 -61.745 0.881 27.223 
418.311 0.89 26.129 0.44 -62.863 0.44 -62.863 0.89 26.129 
438.037 0.899 25.06 0.424 -63.955 0.424 -63.955 0.899 25.06 
458.693 0.907 24.018 0.407 -65.02 0.407 -65.02 0.907 24.018 
480.323 0.914 23.002 0.391 -66.057 0.391 -66.057 0.914 23.002 
502.973 0.921 22.014 0.375 -67.066 0.375 -67.066 0.921 22.014 
526.692 0.928 21.053 0.359 -68.046 0.359 -68.046 0.928 21.053 
551.528 0.934 20.118 0.344 -68.999 0.344 -68.999 0.934 20.118 
577.536 0.939 19.211 0.329 -69.922 0.329 -69.922 0.939 19.211 
604.771 0.945 18.331 0.315 -70.818 0.315 -70.818 0.945 18.331 
633.289 0.949 17.478 0.3 -71.686 0.3 -71.686 0.949 17.478 
663.153 0.954 16.65 0.287 -72.527 0.287 -72.527 0.954 16.65 
694.425 0.958 15.848 0.273 -73.34 0.273 -73.34 0.958 15.848 
727.171 0.962 15.072 0.26 -74.127 0.26 -74.127 0.962 15.072 
761.462 0.966 14.319 0.247 -74.888 0.247 -74.888 0.966 14.319 
797.369 0.969 13.59 0.235 -75.624 0.235 -75.624 0.969 13.59 
834.97 0.972 12.884 0.223 -76.334 0.223 -76.334 0.972 12.884 
874.344 0.975 12.201 0.211 -77.02 0.211 -77.02 0.975 12.201 
915.575 0.977 11.538 0.2 -77.682 0.2 -77.682 0.977 11.538 
958.75 0.979 10.896 0.189 -78.321 0.189 -78.321 0.979 10.896 
1003.961 0.982 10.273 0.178 -78.937 0.178 -78.937 0.982 10.273 
1051.303 0.983 9.669 0.168 -79.53 0.168 -79.53 0.983 9.669 
1100.879 0.985 9.083 0.158 -80.101 0.158 -80.101 0.985 9.083 
1152.792 0.987 8.514 0.148 -80.649 0.148 -80.649 0.987 8.514 
1207.153 0.988 7.961 0.139 -81.175 0.139 -81.175 0.988 7.961 
1264.078 0.99 7.422 0.129 -81.679 0.129 -81.679 0.99 7.422 
1323.687 0.991 6.898 0.12 -82.158 0.12 -82.158 0.991 6.898 
1386.107 0.992 6.387 0.111 -82.613 0.111 -82.613 0.992 6.387 
1451.471 0.993 5.889 0.103 -83.041 0.103 -83.041 0.993 5.889 
1519.916 0.994 5.402 0.094 -83.44 0.094 -83.44 0.994 5.402 
1591.59 0.994 4.925 0.086 -83.804 0.086 -83.804 0.994 4.925 
1666.643 0.995 4.458 0.078 -84.129 0.078 -84.129 0.995 4.458 
1745.235 0.996 4 0.07 -84.404 0.07 -84.404 0.996 4 
1827.534 0.996 3.55 0.062 -84.615 0.062 -84.615 0.996 3.55 
1913.713 0.996 3.107 0.054 -84.739 0.054 -84.739 0.996 3.107 
2003.957 0.997 2.671 0.047 -84.74 0.047 -84.74 0.997 2.671 
2098.456 0.997 2.239 0.039 -84.549 0.039 -84.549 0.997 2.239 
2197.411 0.997 1.813 0.032 -84.039 0.032 -84.039 0.997 1.813 
2301.032 0.997 1.39 0.024 -82.927 0.024 -82.927 0.997 1.39 
2409.54 0.997 0.97 0.017 -80.457 0.017 -80.457 0.997 0.97 
2523.164 0.997 0.552 0.01 -73.733 0.01 -73.733 0.997 0.552 
2642.147 0.997 0.135 3.728e-3 -39.08 3.728e-3 -39.08 0.997 0.135 
2766.741 0.997 -0.281 5.798e-3 57.502 5.798e-3 57.502 0.997 -0.281 
2897.209 0.997 -0.697 0.013 74.054 0.013 74.054 0.997 -0.697 
3033.831 0.996 -1.115 0.02 78.482 0.02 78.482 0.996 -1.115 
3176.894 0.996 -1.534 0.027 80.273 0.027 80.273 0.996 -1.534 
3326.704 0.995 -1.956 0.034 81.081 0.034 81.081 0.995 -1.956 
3483.579 0.995 -2.382 0.042 81.415 0.042 81.415 0.995 -2.382 
3647.851 0.994 -2.811 0.049 81.482 0.049 81.482 0.994 -2.811 
3819.87 0.993 -3.246 0.057 81.38 0.057 81.38 0.993 -3.246 
4000 0.992 -3.686 0.065 81.164 0.065 81.164 0.992 -3.686 
