# MHz S MA R 50

1 0.01 41.151 0.992 -0.393 0.992 -0.393 0.01 41.151 
1.047 0.011 42.281 0.992 -0.412 0.992 -0.412 0.011 42.281 
1.097 0.011 43.411 0.992 -0.431 0.992 -0.431 0.011 43.411 
1.149 0.011 44.538 0.992 -0.451 0.992 -0.451 0.011 44.538 
1.203 0.011 45.662 0.992 -0.473 0.992 -0.473 0.011 45.662 
1.26 0.012 46.78 0.992 -0.495 0.992 -0.495 0.012 46.78 
1.32 0.012 47.89 0.992 -0.519 0.992 -0.519 0.012 47.89 
1.383 0.012 48.991 0.992 -0.543 0.992 -0.543 0.012 48.991 
1.448 0.013 50.08 0.992 -0.569 0.992 -0.569 0.013 50.08 
1.517 0.013 51.157 0.992 -0.596 0.992 -0.596 0.013 51.157 
1.589 0.014 52.219 0.992 -0.624 0.992 -0.624 0.014 52.219 
1.664 0.014 53.265 0.992 -0.653 0.992 -0.653 0.014 53.265 
1.743 0.015 54.293 0.992 -0.684 0.992 -0.684 0.015 54.293 
1.825 0.015 55.304 0.991 -0.717 0.991 -0.717 0.015 55.304 
1.912 0.016 56.294 0.991 -0.751 0.991 -0.751 0.016 56.294 
2.002 0.016 57.264 0.991 -0.786 0.991 -0.786 0.016 57.264 
2.097 0.017 58.212 0.991 -0.823 0.991 -0.823 0.017 58.212 
2.196 0.017 59.138 0.991 -0.862 0.991 -0.862 0.017 59.138 
2.3 0.018 60.04 0.991 -0.903 0.991 -0.903 0.018 60.04 
2.409 0.019 60.919 0.991 -0.946 0.991 -0.946 0.019 60.919 
2.523 0.019 61.773 0.991 -0.99 0.991 -0.99 0.019 61.773 
2.643 0.02 62.603 0.991 -1.037 0.991 -1.037 0.02 62.603 
2.768 0.021 63.408 0.991 -1.086 0.991 -1.086 0.021 63.408 
2.899 0.022 64.188 0.991 -1.137 0.991 -1.137 0.022 64.188 
3.037 0.023 64.943 0.991 -1.191 0.991 -1.191 0.023 64.943 
3.18 0.024 65.672 0.99 -1.248 0.99 -1.248 0.024 65.672 
3.331 0.025 66.376 0.99 -1.306 0.99 -1.306 0.025 66.376 
3.489 0.026 67.055 0.99 -1.368 0.99 -1.368 0.026 67.055 
3.654 0.027 67.708 0.99 -1.433 0.99 -1.433 0.027 67.708 
3.827 0.028 68.337 0.99 -1.501 0.99 -1.501 0.028 68.337 
4.008 0.029 68.94 0.99 -1.572 0.99 -1.572 0.029 68.94 
4.198 0.03 69.519 0.99 -1.646 0.99 -1.646 0.03 69.519 
4.397 0.032 70.073 0.99 -1.724 0.99 -1.724 0.032 70.073 
4.605 0.033 70.603 0.99 -1.805 0.99 -1.805 0.033 70.603 
4.824 0.034 71.11 0.989 -1.89 0.989 -1.89 0.034 71.11 
5.052 0.036 71.592 0.989 -1.979 0.989 -1.979 0.036 71.592 
5.291 0.038 72.052 0.989 -2.073 0.989 -2.073 0.038 72.052 
5.542 0.039 72.488 0.989 -2.171 0.989 -2.171 0.039 72.488 
5.804 0.041 72.901 0.989 -2.273 0.989 -2.273 0.041 72.901 
6.079 0.043 73.292 0.989 -2.381 0.989 -2.381 0.043 73.292 
6.367 0.045 73.661 0.988 -2.493 0.988 -2.493 0.045 73.661 
6.669 0.047 74.008 0.988 -2.61 0.988 -2.61 0.047 74.008 
6.985 0.049 74.334 0.988 -2.734 0.988 -2.734 0.049 74.334 
7.316 0.051 74.637 0.988 -2.863 0.988 -2.863 0.051 74.637 
7.662 0.053 74.92 0.987 -2.998 0.987 -2.998 0.053 74.92 
8.025 0.056 75.182 0.987 -3.139 0.987 -3.139 0.056 75.182 
8.405 0.058 75.423 0.987 -3.287 0.987 -3.287 0.058 75.423 
8.803 0.061 75.643 0.987 -3.442 0.987 -3.442 0.061 75.643 
9.22 0.064 75.842 0.986 -3.604 0.986 -3.604 0.064 75.842 
9.657 0.067 76.022 0.986 -3.773 0.986 -3.773 0.067 76.022 
10.115 0.07 76.181 0.986 -3.951 0.986 -3.951 0.07 76.181 
10.594 0.073 76.32 0.985 -4.137 0.985 -4.137 0.073 76.32 
11.095 0.077 76.438 0.985 -4.332 0.985 -4.332 0.077 76.438 
11.621 0.08 76.537 0.984 -4.535 0.984 -4.535 0.08 76.537 
12.172 0.084 76.615 0.984 -4.748 0.984 -4.748 0.084 76.615 
12.748 0.088 76.673 0.984 -4.971 0.984 -4.971 0.088 76.673 
13.352 0.092 76.711 0.983 -5.205 0.983 -5.205 0.092 76.711 
13.984 0.096 76.728 0.982 -5.449 0.982 -5.449 0.096 76.728 
14.647 0.1 76.725 0.982 -5.704 0.982 -5.704 0.1 76.725 
15.34 0.105 76.701 0.981 -5.972 0.981 -5.972 0.105 76.701 
16.067 0.11 76.656 0.981 -6.251 0.981 -6.251 0.11 76.656 
16.828 0.115 76.59 0.98 -6.544 0.98 -6.544 0.115 76.59 
17.625 0.12 76.503 0.979 -6.849 0.979 -6.849 0.12 76.503 
18.46 0.126 76.394 0.978 -7.169 0.978 -7.169 0.126 76.394 
19.335 0.131 76.264 0.977 -7.504 0.977 -7.504 0.131 76.264 
20.25 0.137 76.11 0.976 -7.853 0.976 -7.853 0.137 76.11 
21.21 0.144 75.935 0.975 -8.219 0.975 -8.219 0.144 75.935 
22.214 0.15 75.736 0.974 -8.6 0.974 -8.6 0.15 75.736 
23.266 0.157 75.513 0.973 -8.999 0.973 -8.999 0.157 75.513 
24.368 0.164 75.267 0.971 -9.416 0.971 -9.416 0.164 75.267 
25.523 0.172 74.996 0.97 -9.852 0.97 -9.852 0.172 74.996 
26.732 0.18 74.701 0.968 -10.306 0.968 -10.306 0.18 74.701 
27.998 0.188 74.38 0.967 -10.781 0.967 -10.781 0.188 74.38 
29.324 0.196 74.033 0.965 -11.276 0.965 -11.276 0.196 74.033 
30.713 0.205 73.659 0.963 -11.793 0.963 -11.793 0.205 73.659 
32.168 0.214 73.258 0.96 -12.332 0.96 -12.332 0.214 73.258 
33.692 0.224 72.83 0.958 -12.894 0.958 -12.894 0.224 72.83 
35.287 0.234 72.374 0.956 -13.48 0.956 -13.48 0.234 72.374 
36.959 0.244 71.888 0.953 -14.09 0.953 -14.09 0.244 71.888 
38.71 0.255 71.373 0.95 -14.725 0.95 -14.725 0.255 71.373 
40.543 0.266 70.829 0.947 -15.387 0.947 -15.387 0.266 70.829 
42.464 0.277 70.254 0.943 -16.074 0.943 -16.074 0.277 70.254 
44.475 0.289 69.647 0.939 -16.79 0.939 -16.79 0.289 69.647 
46.582 0.302 69.01 0.935 -17.533 0.935 -17.533 0.302 69.01 
48.788 0.315 68.34 0.931 -18.304 0.931 -18.304 0.315 68.34 
51.099 0.328 67.638 0.926 -19.105 0.926 -19.105 0.328 67.638 
53.519 0.341 66.903 0.921 -19.934 0.921 -19.934 0.341 66.903 
56.054 0.356 66.136 0.916 -20.794 0.916 -20.794 0.356 66.136 
58.71 0.37 65.336 0.91 -21.683 0.91 -21.683 0.37 65.336 
61.491 0.385 64.502 0.904 -22.603 0.904 -22.603 0.385 64.502 
64.403 0.4 63.636 0.897 -23.553 0.897 -23.553 0.4 63.636 
67.454 0.416 62.736 0.89 -24.533 0.89 -24.533 0.416 62.736 
70.649 0.432 61.804 0.882 -25.543 0.882 -25.543 0.432 61.804 
73.995 0.448 60.84 0.874 -26.583 0.874 -26.583 0.448 60.84 
77.5 0.465 59.845 0.865 -27.651 0.865 -27.651 0.465 59.845 
81.171 0.481 58.819 0.856 -28.748 0.856 -28.748 0.481 58.819 
85.016 0.498 57.763 0.847 -29.873 0.847 -29.873 0.498 57.763 
89.043 0.516 56.679 0.836 -31.023 0.836 -31.023 0.516 56.679 
93.261 0.533 55.567 0.825 -32.199 0.825 -32.199 0.533 55.567 
97.678 0.551 54.43 0.814 -33.399 0.814 -33.399 0.551 54.43 
102.305 0.569 53.269 0.802 -34.62 0.802 -34.62 0.569 53.269 
107.151 0.586 52.086 0.789 -35.862 0.789 -35.862 0.586 52.086 
112.226 0.604 50.883 0.776 -37.122 0.776 -37.122 0.604 50.883 
117.542 0.621 49.662 0.763 -38.398 0.763 -38.398 0.621 49.662 
123.11 0.639 48.425 0.748 -39.687 0.748 -39.687 0.639 48.425 
128.941 0.656 47.176 0.734 -40.988 0.734 -40.988 0.656 47.176 
135.049 0.673 45.916 0.719 -42.298 0.719 -42.298 0.673 45.916 
141.446 0.69 44.649 0.703 -43.614 0.703 -43.614 0.69 44.649 
148.145 0.707 43.377 0.687 -44.933 0.687 -44.933 0.707 43.377 
155.163 0.723 42.102 0.671 -46.252 0.671 -46.252 0.723 42.102 
162.512 0.738 40.828 0.654 -47.57 0.654 -47.57 0.738 40.828 
170.21 0.754 39.558 0.637 -48.883 0.637 -48.883 0.754 39.558 
178.272 0.768 38.294 0.62 -50.189 0.62 -50.189 0.768 38.294 
186.717 0.783 37.038 0.603 -51.484 0.603 -51.484 0.783 37.038 
195.561 0.796 35.794 0.585 -52.768 0.585 -52.768 0.796 35.794 
204.824 0.81 34.563 0.567 -54.036 0.567 -54.036 0.81 34.563 
214.526 0.822 33.347 0.55 -55.288 0.55 -55.288 0.822 33.347 
224.688 0.834 32.15 0.532 -56.521 0.532 -56.521 0.834 32.15 
235.33 0.846 30.972 0.515 -57.733 0.515 -57.733 0.846 30.972 
246.477 0.857 29.815 0.497 -58.922 0.497 -58.922 0.857 29.815 
258.152 0.867 28.681 0.48 -60.088 0.48 -60.088 0.867 28.681 
270.38 0.877 27.572 0.463 -61.229 0.463 -61.229 0.877 27.572 
283.187 0.886 26.487 0.446 -62.343 0.446 -62.343 0.886 26.487 
296.601 0.895 25.428 0.429 -63.43 0.429 -63.43 0.895 25.428 
310.65 0.903 24.397 0.413 -64.49 0.413 -64.49 0.903 24.397 
325.365 0.91 23.392 0.397 -65.521 0.397 -65.521 0.91 23.392 
340.777 0.917 22.415 0.381 -66.524 0.381 -66.524 0.917 22.415 
356.918 0.924 21.467 0.366 -67.497 0.366 -67.497 0.924 21.467 
373.824 0.93 20.546 0.351 -68.442 0.351 -68.442 0.93 20.546 
391.532 0.936 19.653 0.336 -69.357 0.336 -69.357 0.936 19.653 
410.077 0.941 18.788 0.322 -70.244 0.322 -70.244 0.941 18.788 
429.501 0.946 17.951 0.308 -71.102 0.308 -71.102 0.946 17.951 
449.846 0.951 17.141 0.295 -71.932 0.295 -71.932 0.951 17.141 
471.154 0.955 16.357 0.282 -72.734 0.282 -72.734 0.955 16.357 
493.471 0.959 15.6 0.269 -73.508 0.269 -73.508 0.959 15.6 
516.845 0.963 14.868 0.257 -74.256 0.257 -74.256 0.963 14.868 
541.327 0.966 14.162 0.245 -74.978 0.245 -74.978 0.966 14.162 
566.968 0.969 13.479 0.233 -75.675 0.233 -75.675 0.969 13.479 
593.824 0.972 12.82 0.222 -76.346 0.222 -76.346 0.972 12.82 
621.951 0.974 12.183 0.211 -76.993 0.211 -76.993 0.974 12.183 
651.411 0.977 11.569 0.201 -77.617 0.201 -77.617 0.977 11.569 
682.267 0.979 10.975 0.19 -78.218 0.19 -78.218 0.979 10.975 
714.584 0.981 10.402 0.181 -78.797 0.181 -78.797 0.981 10.402 
748.432 0.983 9.848 0.171 -79.354 0.171 -79.354 0.983 9.848 
783.883 0.985 9.313 0.162 -79.89 0.162 -79.89 0.985 9.313 
821.013 0.986 8.795 0.153 -80.405 0.153 -80.405 0.986 8.795 
859.902 0.988 8.295 0.144 -80.9 0.144 -80.9 0.988 8.295 
900.634 0.989 7.81 0.136 -81.375 0.136 -81.375 0.989 7.81 
943.294 0.99 7.341 0.128 -81.831 0.128 -81.831 0.99 7.341 
987.975 0.991 6.886 0.12 -82.266 0.12 -82.266 0.991 6.886 
1034.773 0.992 6.445 0.112 -82.683 0.112 -82.683 0.992 6.445 
1083.787 0.993 6.017 0.105 -83.079 0.105 -83.079 0.993 6.017 
1135.123 0.994 5.6 0.098 -83.454 0.098 -83.454 0.994 5.6 
1188.891 0.994 5.195 0.091 -83.807 0.091 -83.807 0.994 5.195 
1245.205 0.995 4.801 0.084 -84.137 0.084 -84.137 0.995 4.801 
1304.187 0.995 4.416 0.077 -84.44 0.077 -84.44 0.995 4.416 
1365.963 0.996 4.04 0.07 -84.713 0.07 -84.713 0.996 4.04 
1430.664 0.996 3.673 0.064 -84.951 0.064 -84.951 0.996 3.673 
1498.431 0.997 3.312 0.058 -85.146 0.058 -85.146 0.997 3.312 
1569.407 0.997 2.959 0.052 -85.285 0.052 -85.285 0.997 2.959 
1643.746 0.997 2.612 0.046 -85.35 0.046 -85.35 0.997 2.612 
1721.606 0.998 2.27 0.04 -85.312 0.04 -85.312 0.998 2.27 
1803.153 0.998 1.933 0.034 -85.122 0.034 -85.122 0.998 1.933 
1888.563 0.998 1.6 0.028 -84.688 0.028 -84.688 0.998 1.6 
1978.019 0.998 1.271 0.022 -83.829 0.022 -83.829 0.998 1.271 
2071.713 0.998 0.944 0.017 -82.113 0.017 -82.113 0.998 0.944 
2169.844 0.998 0.619 0.011 -78.248 0.011 -78.248 0.998 0.619 
2272.623 0.998 0.296 5.641e-3 -66.033 5.641e-3 -66.033 0.998 0.296 
2380.271 0.998 -0.027 2.464e-3 10.826 2.464e-3 10.826 0.998 -0.027 
2493.018 0.997 -0.349 6.622e-3 66.575 6.622e-3 66.575 0.997 -0.349 
2611.105 0.997 -0.672 0.012 75.94 0.012 75.94 0.997 -0.672 
2734.786 0.997 -0.996 0.018 79.179 0.018 79.179 0.997 -0.996 
2864.325 0.996 -1.322 0.023 80.65 0.023 80.65 0.996 -1.322 
3000 0.996 -1.65 0.029 81.372 0.029 81.372 0.996 -1.65 
