# MHz S MA R 50

1 0.049 27.068 0.956 -1.343 0.956 -1.343 0.049 27.068 
1.047 0.05 28.056 0.956 -1.406 0.956 -1.406 0.05 28.056 
1.097 0.051 29.064 0.956 -1.472 0.956 -1.472 0.051 29.064 
1.148 0.051 30.09 0.956 -1.541 0.956 -1.541 0.051 30.09 
1.202 0.052 31.132 0.956 -1.614 0.956 -1.614 0.052 31.132 
1.259 0.053 32.19 0.956 -1.69 0.956 -1.69 0.053 32.19 
1.318 0.054 33.262 0.955 -1.769 0.955 -1.769 0.054 33.262 
1.381 0.055 34.345 0.955 -1.852 0.955 -1.852 0.055 34.345 
1.446 0.056 35.437 0.955 -1.939 0.955 -1.939 0.056 35.437 
1.514 0.057 36.537 0.955 -2.03 0.955 -2.03 0.057 36.537 
1.585 0.058 37.643 0.955 -2.125 0.955 -2.125 0.058 37.643 
1.66 0.059 38.752 0.955 -2.225 0.955 -2.225 0.059 38.752 
1.738 0.061 39.861 0.954 -2.329 0.954 -2.329 0.061 39.861 
1.82 0.062 40.969 0.954 -2.439 0.954 -2.439 0.062 40.969 
1.906 0.063 42.072 0.954 -2.553 0.954 -2.553 0.063 42.072 
1.996 0.065 43.169 0.954 -2.673 0.954 -2.673 0.065 43.169 
2.09 0.067 44.256 0.953 -2.798 0.953 -2.798 0.067 44.256 
2.188 0.068 45.332 0.953 -2.93 0.953 -2.93 0.068 45.332 
2.291 0.07 46.395 0.953 -3.067 0.953 -3.067 0.07 46.395 
2.399 0.072 47.44 0.953 -3.211 0.953 -3.211 0.072 47.44 
2.513 0.075 48.468 0.952 -3.361 0.952 -3.361 0.075 48.468 
2.631 0.077 49.474 0.952 -3.518 0.952 -3.518 0.077 49.474 
2.755 0.079 50.458 0.952 -3.683 0.952 -3.683 0.079 50.458 
2.885 0.082 51.417 0.951 -3.855 0.951 -3.855 0.082 51.417 
3.021 0.085 52.349 0.951 -4.036 0.951 -4.036 0.085 52.349 
3.163 0.087 53.253 0.95 -4.225 0.95 -4.225 0.087 53.253 
3.313 0.09 54.127 0.95 -4.422 0.95 -4.422 0.09 54.127 
3.469 0.094 54.97 0.949 -4.629 0.949 -4.629 0.094 54.97 
3.632 0.097 55.78 0.949 -4.845 0.949 -4.845 0.097 55.78 
3.803 0.1 56.557 0.948 -5.071 0.948 -5.071 0.1 56.557 
3.983 0.104 57.298 0.948 -5.307 0.948 -5.307 0.104 57.298 
4.171 0.108 58.004 0.947 -5.555 0.947 -5.555 0.108 58.004 
4.367 0.112 58.672 0.947 -5.814 0.947 -5.814 0.112 58.672 
4.573 0.117 59.304 0.946 -6.084 0.946 -6.084 0.117 59.304 
4.789 0.121 59.897 0.945 -6.367 0.945 -6.367 0.121 59.897 
5.014 0.126 60.452 0.944 -6.663 0.944 -6.663 0.126 60.452 
5.251 0.131 60.967 0.943 -6.972 0.943 -6.972 0.131 60.967 
5.498 0.136 61.443 0.942 -7.296 0.942 -7.296 0.136 61.443 
5.758 0.142 61.878 0.942 -7.633 0.942 -7.633 0.142 61.878 
6.029 0.148 62.274 0.94 -7.987 0.94 -7.987 0.148 62.274 
6.313 0.154 62.629 0.939 -8.356 0.939 -8.356 0.154 62.629 
6.611 0.16 62.943 0.938 -8.741 0.938 -8.741 0.16 62.943 
6.922 0.167 63.215 0.937 -9.144 0.937 -9.144 0.167 63.215 
7.249 0.174 63.447 0.935 -9.564 0.935 -9.564 0.174 63.447 
7.591 0.181 63.638 0.934 -10.003 0.934 -10.003 0.181 63.638 
7.948 0.189 63.786 0.932 -10.461 0.932 -10.461 0.189 63.786 
8.323 0.197 63.893 0.93 -10.939 0.93 -10.939 0.197 63.893 
8.716 0.205 63.959 0.928 -11.438 0.928 -11.438 0.205 63.959 
9.126 0.214 63.982 0.926 -11.958 0.926 -11.958 0.214 63.982 
9.557 0.223 63.963 0.924 -12.5 0.924 -12.5 0.223 63.963 
10.007 0.232 63.902 0.922 -13.065 0.922 -13.065 0.232 63.902 
10.479 0.242 63.798 0.919 -13.653 0.919 -13.653 0.242 63.798 
10.973 0.252 63.652 0.916 -14.266 0.916 -14.266 0.252 63.652 
11.49 0.263 63.463 0.913 -14.904 0.913 -14.904 0.263 63.463 
12.032 0.274 63.232 0.91 -15.568 0.91 -15.568 0.274 63.232 
12.599 0.285 62.958 0.907 -16.257 0.907 -16.257 0.285 62.958 
13.193 0.297 62.641 0.903 -16.974 0.903 -16.974 0.297 62.641 
13.815 0.309 62.281 0.899 -17.718 0.899 -17.718 0.309 62.281 
14.466 0.322 61.878 0.895 -18.491 0.895 -18.491 0.322 61.878 
15.148 0.335 61.433 0.89 -19.292 0.89 -19.292 0.335 61.433 
15.863 0.348 60.945 0.885 -20.121 0.885 -20.121 0.348 60.945 
16.61 0.362 60.414 0.88 -20.98 0.88 -20.98 0.362 60.414 
17.394 0.376 59.842 0.874 -21.869 0.874 -21.869 0.376 59.842 
18.213 0.391 59.227 0.868 -22.787 0.868 -22.787 0.391 59.227 
19.072 0.406 58.571 0.861 -23.734 0.861 -23.734 0.406 58.571 
19.971 0.422 57.875 0.854 -24.711 0.854 -24.711 0.422 57.875 
20.913 0.437 57.138 0.847 -25.717 0.847 -25.717 0.437 57.138 
21.899 0.453 56.363 0.839 -26.752 0.839 -26.752 0.453 56.363 
22.931 0.47 55.549 0.83 -27.815 0.83 -27.815 0.47 55.549 
24.012 0.486 54.697 0.821 -28.906 0.821 -28.906 0.486 54.697 
25.144 0.503 53.811 0.812 -30.023 0.812 -30.023 0.503 53.811 
26.33 0.52 52.889 0.802 -31.165 0.802 -31.165 0.52 52.889 
27.571 0.538 51.935 0.791 -32.332 0.791 -32.332 0.538 51.935 
28.871 0.555 50.951 0.78 -33.521 0.78 -33.521 0.555 50.951 
30.232 0.572 49.937 0.769 -34.731 0.769 -34.731 0.572 49.937 
31.657 0.59 48.897 0.757 -35.961 0.757 -35.961 0.59 48.897 
33.149 0.607 47.832 0.744 -37.207 0.744 -37.207 0.607 47.832 
34.712 0.624 46.745 0.731 -38.469 0.731 -38.469 0.624 46.745 
36.349 0.641 45.638 0.717 -39.744 0.717 -39.744 0.641 45.638 
38.062 0.658 44.515 0.703 -41.028 0.703 -41.028 0.658 44.515 
39.857 0.675 43.378 0.689 -42.321 0.689 -42.321 0.675 43.378 
41.736 0.692 42.23 0.674 -43.619 0.674 -43.619 0.692 42.23 
43.703 0.708 41.073 0.659 -44.919 0.659 -44.919 0.708 41.073 
45.763 0.724 39.911 0.643 -46.219 0.643 -46.219 0.724 39.911 
47.921 0.739 38.747 0.627 -47.517 0.627 -47.517 0.739 38.747 
50.18 0.754 37.582 0.611 -48.809 0.611 -48.809 0.754 37.582 
52.546 0.769 36.421 0.595 -50.094 0.595 -50.094 0.769 36.421 
55.023 0.783 35.266 0.578 -51.367 0.578 -51.367 0.783 35.266 
57.617 0.796 34.119 0.562 -52.628 0.562 -52.628 0.796 34.119 
60.333 0.809 32.983 0.545 -53.874 0.545 -53.874 0.809 32.983 
63.177 0.821 31.86 0.529 -55.103 0.529 -55.103 0.821 31.86 
66.156 0.833 30.752 0.512 -56.313 0.512 -56.313 0.833 30.752 
69.275 0.844 29.661 0.495 -57.501 0.495 -57.501 0.844 29.661 
72.54 0.855 28.59 0.479 -58.667 0.479 -58.667 0.855 28.59 
75.96 0.865 27.539 0.463 -59.809 0.463 -59.809 0.865 27.539 
79.541 0.875 26.509 0.447 -60.926 0.447 -60.926 0.875 26.509 
83.291 0.884 25.503 0.431 -62.016 0.431 -62.016 0.884 25.503 
87.218 0.892 24.521 0.415 -63.08 0.415 -63.08 0.892 24.521 
91.33 0.9 23.563 0.4 -64.115 0.4 -64.115 0.9 23.563 
95.635 0.908 22.632 0.385 -65.122 0.385 -65.122 0.908 22.632 
100.144 0.915 21.726 0.37 -66.1 0.37 -66.1 0.915 21.726 
104.865 0.921 20.847 0.356 -67.049 0.356 -67.049 0.921 20.847 
109.809 0.928 19.994 0.342 -67.969 0.342 -67.969 0.928 19.994 
114.985 0.933 19.168 0.329 -68.86 0.329 -68.86 0.933 19.168 
120.406 0.939 18.368 0.315 -69.722 0.315 -69.722 0.939 18.368 
126.083 0.943 17.595 0.302 -70.555 0.302 -70.555 0.943 17.595 
132.027 0.948 16.848 0.29 -71.359 0.29 -71.359 0.948 16.848 
138.251 0.952 16.127 0.278 -72.136 0.278 -72.136 0.952 16.127 
144.769 0.956 15.431 0.266 -72.885 0.266 -72.885 0.956 15.431 
151.593 0.96 14.76 0.255 -73.608 0.255 -73.608 0.96 14.76 
158.74 0.963 14.114 0.244 -74.304 0.244 -74.304 0.963 14.114 
166.224 0.966 13.491 0.233 -74.974 0.233 -74.974 0.966 13.491 
174.06 0.969 12.892 0.223 -75.619 0.223 -75.619 0.969 12.892 
182.266 0.972 12.315 0.213 -76.239 0.213 -76.239 0.972 12.315 
190.859 0.974 11.76 0.204 -76.836 0.204 -76.836 0.974 11.76 
199.856 0.976 11.227 0.195 -77.41 0.195 -77.41 0.976 11.227 
209.278 0.978 10.714 0.186 -77.962 0.186 -77.962 0.978 10.714 
219.144 0.98 10.221 0.177 -78.492 0.177 -78.492 0.98 10.221 
229.476 0.982 9.747 0.169 -79.001 0.169 -79.001 0.982 9.747 
240.294 0.983 9.291 0.161 -79.491 0.161 -79.491 0.983 9.291 
251.622 0.985 8.854 0.154 -79.96 0.154 -79.96 0.985 8.854 
263.485 0.986 8.433 0.147 -80.411 0.147 -80.411 0.986 8.433 
275.906 0.987 8.029 0.14 -80.844 0.14 -80.844 0.987 8.029 
288.913 0.989 7.64 0.133 -81.259 0.133 -81.259 0.989 7.64 
302.534 0.99 7.267 0.127 -81.658 0.127 -81.658 0.99 7.267 
316.796 0.991 6.907 0.12 -82.04 0.12 -82.04 0.991 6.907 
331.731 0.991 6.562 0.114 -82.406 0.114 -82.406 0.991 6.562 
347.37 0.992 6.23 0.109 -82.758 0.109 -82.758 0.992 6.23 
363.747 0.993 5.91 0.103 -83.094 0.103 -83.094 0.993 5.91 
380.895 0.994 5.603 0.098 -83.416 0.098 -83.416 0.994 5.603 
398.852 0.994 5.306 0.092 -83.724 0.092 -83.724 0.994 5.306 
417.655 0.995 5.021 0.088 -84.019 0.088 -84.019 0.995 5.021 
437.345 0.995 4.745 0.083 -84.299 0.083 -84.299 0.995 4.745 
457.963 0.996 4.48 0.078 -84.567 0.078 -84.567 0.996 4.48 
479.553 0.996 4.223 0.074 -84.821 0.074 -84.821 0.996 4.223 
502.161 0.996 3.976 0.069 -85.062 0.069 -85.062 0.996 3.976 
525.834 0.997 3.736 0.065 -85.289 0.065 -85.289 0.997 3.736 
550.624 0.997 3.504 0.061 -85.502 0.061 -85.502 0.997 3.504 
576.582 0.997 3.28 0.057 -85.701 0.057 -85.701 0.997 3.28 
603.765 0.998 3.062 0.053 -85.884 0.053 -85.884 0.998 3.062 
632.228 0.998 2.851 0.05 -86.049 0.05 -86.049 0.998 2.851 
662.034 0.998 2.646 0.046 -86.196 0.046 -86.196 0.998 2.646 
693.244 0.998 2.446 0.043 -86.321 0.043 -86.321 0.998 2.446 
725.927 0.998 2.251 0.039 -86.422 0.039 -86.422 0.998 2.251 
760.149 0.998 2.061 0.036 -86.492 0.036 -86.492 0.998 2.061 
795.985 0.999 1.875 0.033 -86.525 0.033 -86.525 0.999 1.875 
833.511 0.999 1.693 0.03 -86.512 0.03 -86.512 0.999 1.693 
872.806 0.999 1.515 0.026 -86.438 0.026 -86.438 0.999 1.515 
913.953 0.999 1.34 0.023 -86.281 0.023 -86.281 0.999 1.34 
957.04 0.999 1.168 0.02 -86.007 0.02 -86.007 0.999 1.168 
1002.158 0.999 0.998 0.017 -85.559 0.017 -85.559 0.999 0.998 
1049.404 0.999 0.831 0.015 -84.835 0.015 -84.835 0.999 0.831 
1098.876 0.999 0.665 0.012 -83.634 0.012 -83.634 0.999 0.665 
1150.681 0.999 0.501 8.824e-3 -81.5 8.824e-3 -81.5 0.999 0.501 
1204.929 0.999 0.337 6.033e-3 -77.146 6.033e-3 -77.146 0.999 0.337 
1261.733 0.999 0.175 3.359e-3 -65.236 3.359e-3 -65.236 0.999 0.175 
1321.216 0.999 0.013 1.517e-3 -8.605 1.517e-3 -8.605 0.999 0.013 
1383.503 0.998 -0.149 3.059e-3 57.993 3.059e-3 57.993 0.998 -0.149 
1448.726 0.998 -0.311 5.7e-3 71.887 5.7e-3 71.887 0.998 -0.311 
1517.024 0.998 -0.474 8.477e-3 76.676 8.477e-3 76.676 0.998 -0.474 
1588.542 0.998 -0.637 0.011 78.944 0.011 78.944 0.998 -0.637 
1663.432 0.998 -0.802 0.014 80.182 0.014 80.182 0.998 -0.802 
1741.852 0.997 -0.968 0.017 80.896 0.017 80.896 0.997 -0.968 
1823.969 0.997 -1.136 0.02 81.307 0.02 81.307 0.997 -1.136 
1909.958 0.997 -1.306 0.023 81.524 0.023 81.524 0.997 -1.306 
2000 0.997 -1.478 0.026 81.609 0.026 81.609 0.997 -1.478 
