# MHz S MA R 50

1 533.3e-6 27.324 1 -0.014 1 -0.014 533.3e-6 27.324 
1.047 540.5e-6 28.316 1 -0.015 1 -0.015 540.5e-6 28.316 
1.097 548.1e-6 29.33 1 -0.015 1 -0.015 548.1e-6 29.33 
1.148 556.2e-6 30.365 1 -0.016 1 -0.016 556.2e-6 30.365 
1.203 564.8e-6 31.418 1 -0.017 1 -0.017 564.8e-6 31.418 
1.259 574e-6 32.49 1 -0.018 1 -0.018 574e-6 32.49 
1.319 583.7e-6 33.578 1 -0.019 1 -0.019 583.7e-6 33.578 
1.381 594.2e-6 34.682 1 -0.019 1 -0.019 594.2e-6 34.682 
1.446 605.3e-6 35.799 1 -0.02 1 -0.02 605.3e-6 35.799 
1.514 617.1e-6 36.929 1 -0.021 1 -0.021 617.1e-6 36.929 
1.586 629.6e-6 38.07 1 -0.022 1 -0.022 629.6e-6 38.07 
1.661 643e-6 39.219 1 -0.023 1 -0.023 643e-6 39.219 
1.739 657.3e-6 40.375 0.999 -0.024 0.999 -0.024 657.3e-6 40.375 
1.821 672.4e-6 41.536 0.999 -0.026 0.999 -0.026 672.4e-6 41.536 
1.907 688.5e-6 42.7 0.999 -0.027 0.999 -0.027 688.5e-6 42.7 
1.997 705.6e-6 43.865 0.999 -0.028 0.999 -0.028 705.6e-6 43.865 
2.092 723.7e-6 45.029 0.999 -0.029 0.999 -0.029 723.7e-6 45.029 
2.19 743e-6 46.19 0.999 -0.031 0.999 -0.031 743e-6 46.19 
2.294 763.4e-6 47.347 0.999 -0.032 0.999 -0.032 763.4e-6 47.347 
2.402 785.1e-6 48.496 0.999 -0.034 0.999 -0.034 785.1e-6 48.496 
2.515 808.1e-6 49.637 0.999 -0.035 0.999 -0.035 808.1e-6 49.637 
2.634 832.4e-6 50.768 0.999 -0.037 0.999 -0.037 832.4e-6 50.768 
2.758 858.2e-6 51.886 0.999 -0.039 0.999 -0.039 858.2e-6 51.886 
2.889 885.4e-6 52.991 0.999 -0.041 0.999 -0.041 885.4e-6 52.991 
3.025 914.3e-6 54.081 0.999 -0.042 0.999 -0.042 914.3e-6 54.081 
3.168 944.8e-6 55.155 0.999 -0.044 0.999 -0.044 944.8e-6 55.155 
3.317 977e-6 56.21 0.999 -0.047 0.999 -0.047 977e-6 56.21 
3.474 1.011e-3 57.247 0.999 -0.049 0.999 -0.049 1.011e-3 57.247 
3.638 1.047e-3 58.264 0.999 -0.051 0.999 -0.051 1.047e-3 58.264 
3.809 1.085e-3 59.261 0.999 -0.053 0.999 -0.053 1.085e-3 59.261 
3.989 1.125e-3 60.235 0.999 -0.056 0.999 -0.056 1.125e-3 60.235 
4.178 1.167e-3 61.188 0.999 -0.059 0.999 -0.059 1.167e-3 61.188 
4.375 1.211e-3 62.118 0.999 -0.061 0.999 -0.061 1.211e-3 62.118 
4.581 1.258e-3 63.025 0.999 -0.064 0.999 -0.064 1.258e-3 63.025 
4.797 1.307e-3 63.908 0.999 -0.067 0.999 -0.067 1.307e-3 63.908 
5.024 1.359e-3 64.768 0.999 -0.07 0.999 -0.07 1.359e-3 64.768 
5.261 1.414e-3 65.605 0.999 -0.074 0.999 -0.074 1.414e-3 65.605 
5.509 1.471e-3 66.417 0.999 -0.077 0.999 -0.077 1.471e-3 66.417 
5.769 1.532e-3 67.206 0.999 -0.081 0.999 -0.081 1.532e-3 67.206 
6.042 1.595e-3 67.971 0.999 -0.085 0.999 -0.085 1.595e-3 67.971 
6.327 1.662e-3 68.713 0.999 -0.089 0.999 -0.089 1.662e-3 68.713 
6.625 1.732e-3 69.432 0.999 -0.093 0.999 -0.093 1.732e-3 69.432 
6.938 1.806e-3 70.128 0.999 -0.097 0.999 -0.097 1.806e-3 70.128 
7.266 1.883e-3 70.801 0.999 -0.102 0.999 -0.102 1.883e-3 70.801 
7.609 1.964e-3 71.452 0.999 -0.107 0.999 -0.107 1.964e-3 71.452 
7.968 2.049e-3 72.082 0.999 -0.112 0.999 -0.112 2.049e-3 72.082 
8.344 2.139e-3 72.69 0.999 -0.117 0.999 -0.117 2.139e-3 72.69 
8.738 2.233e-3 73.277 0.999 -0.123 0.999 -0.123 2.233e-3 73.277 
9.15 2.331e-3 73.844 0.999 -0.128 0.999 -0.128 2.331e-3 73.844 
9.582 2.435e-3 74.391 0.999 -0.134 0.999 -0.134 2.435e-3 74.391 
10.034 2.543e-3 74.919 0.999 -0.141 0.999 -0.141 2.543e-3 74.919 
10.508 2.657e-3 75.428 0.999 -0.147 0.999 -0.147 2.657e-3 75.428 
11.004 2.776e-3 75.919 0.999 -0.154 0.999 -0.154 2.776e-3 75.919 
11.523 2.901e-3 76.391 0.999 -0.162 0.999 -0.162 2.901e-3 76.391 
12.067 3.032e-3 76.847 0.999 -0.169 0.999 -0.169 3.032e-3 76.847 
12.637 3.17e-3 77.285 0.999 -0.177 0.999 -0.177 3.17e-3 77.285 
13.233 3.314e-3 77.708 0.999 -0.186 0.999 -0.186 3.314e-3 77.708 
13.858 3.465e-3 78.114 0.999 -0.194 0.999 -0.194 3.465e-3 78.114 
14.512 3.624e-3 78.505 0.999 -0.204 0.999 -0.204 3.624e-3 78.505 
15.197 3.79e-3 78.881 0.999 -0.213 0.999 -0.213 3.79e-3 78.881 
15.914 3.964e-3 79.243 0.999 -0.223 0.999 -0.223 3.964e-3 79.243 
16.665 4.146e-3 79.591 0.999 -0.234 0.999 -0.234 4.146e-3 79.591 
17.452 4.337e-3 79.926 0.999 -0.245 0.999 -0.245 4.337e-3 79.926 
18.275 4.537e-3 80.247 0.999 -0.256 0.999 -0.256 4.537e-3 80.247 
19.138 4.747e-3 80.556 0.999 -0.268 0.999 -0.268 4.747e-3 80.556 
20.041 4.967e-3 80.853 0.999 -0.281 0.999 -0.281 4.967e-3 80.853 
20.987 5.197e-3 81.138 0.999 -0.294 0.999 -0.294 5.197e-3 81.138 
21.978 5.438e-3 81.411 0.999 -0.308 0.999 -0.308 5.438e-3 81.411 
23.015 5.691e-3 81.673 0.999 -0.323 0.999 -0.323 5.691e-3 81.673 
24.101 5.955e-3 81.925 0.999 -0.338 0.999 -0.338 5.955e-3 81.925 
25.239 6.233e-3 82.166 0.999 -0.354 0.999 -0.354 6.233e-3 82.166 
26.43 6.523e-3 82.397 0.999 -0.371 0.999 -0.371 6.523e-3 82.397 
27.678 6.827e-3 82.619 0.999 -0.388 0.999 -0.388 6.827e-3 82.619 
28.984 7.146e-3 82.831 0.999 -0.407 0.999 -0.407 7.146e-3 82.831 
30.352 7.48e-3 83.033 0.999 -0.426 0.999 -0.426 7.48e-3 83.033 
31.785 7.829e-3 83.227 0.999 -0.446 0.999 -0.446 7.829e-3 83.227 
33.285 8.196e-3 83.412 0.999 -0.467 0.999 -0.467 8.196e-3 83.412 
34.856 8.579e-3 83.589 0.999 -0.489 0.999 -0.489 8.579e-3 83.589 
36.501 8.981e-3 83.758 0.999 -0.512 0.999 -0.512 8.981e-3 83.758 
38.224 9.402e-3 83.919 0.999 -0.536 0.999 -0.536 9.402e-3 83.919 
40.028 9.843e-3 84.072 0.999 -0.561 0.999 -0.561 9.843e-3 84.072 
41.918 0.01 84.217 0.999 -0.588 0.999 -0.588 0.01 84.217 
43.896 0.011 84.355 0.999 -0.616 0.999 -0.616 0.011 84.355 
45.968 0.011 84.486 0.999 -0.645 0.999 -0.645 0.011 84.486 
48.138 0.012 84.61 0.999 -0.675 0.999 -0.675 0.012 84.61 
50.41 0.012 84.727 0.999 -0.707 0.999 -0.707 0.012 84.727 
52.789 0.013 84.838 0.999 -0.74 0.999 -0.74 0.013 84.838 
55.281 0.014 84.941 0.999 -0.775 0.999 -0.775 0.014 84.941 
57.89 0.014 85.039 0.999 -0.812 0.999 -0.812 0.014 85.039 
60.623 0.015 85.13 0.999 -0.85 0.999 -0.85 0.015 85.13 
63.484 0.016 85.214 0.999 -0.89 0.999 -0.89 0.016 85.214 
66.48 0.016 85.293 0.999 -0.932 0.999 -0.932 0.016 85.293 
69.618 0.017 85.365 0.999 -0.976 0.999 -0.976 0.017 85.365 
72.904 0.018 85.431 0.999 -1.022 0.999 -1.022 0.018 85.431 
76.345 0.019 85.491 0.999 -1.071 0.999 -1.071 0.019 85.491 
79.949 0.02 85.545 0.999 -1.121 0.999 -1.121 0.02 85.545 
83.722 0.021 85.594 0.999 -1.174 0.999 -1.174 0.021 85.594 
87.674 0.021 85.636 0.999 -1.229 0.999 -1.229 0.021 85.636 
91.812 0.022 85.672 0.999 -1.287 0.999 -1.287 0.022 85.672 
96.146 0.024 85.703 0.999 -1.348 0.999 -1.348 0.024 85.703 
100.684 0.025 85.727 0.998 -1.412 0.998 -1.412 0.025 85.727 
105.436 0.026 85.746 0.998 -1.478 0.998 -1.478 0.026 85.746 
110.413 0.027 85.759 0.998 -1.548 0.998 -1.548 0.027 85.759 
115.624 0.028 85.765 0.998 -1.621 0.998 -1.621 0.028 85.765 
121.082 0.03 85.766 0.998 -1.697 0.998 -1.697 0.03 85.766 
126.797 0.031 85.76 0.998 -1.778 0.998 -1.778 0.031 85.76 
132.782 0.033 85.749 0.998 -1.861 0.998 -1.861 0.033 85.749 
139.049 0.034 85.731 0.998 -1.949 0.998 -1.949 0.034 85.731 
145.612 0.036 85.706 0.998 -2.041 0.998 -2.041 0.036 85.706 
152.485 0.037 85.675 0.998 -2.137 0.998 -2.137 0.037 85.675 
159.682 0.039 85.637 0.998 -2.238 0.998 -2.238 0.039 85.637 
167.219 0.041 85.593 0.998 -2.344 0.998 -2.344 0.041 85.593 
175.112 0.043 85.541 0.998 -2.454 0.998 -2.454 0.043 85.541 
183.377 0.045 85.483 0.997 -2.57 0.997 -2.57 0.045 85.483 
192.033 0.047 85.417 0.997 -2.691 0.997 -2.691 0.047 85.417 
201.096 0.049 85.344 0.997 -2.818 0.997 -2.818 0.049 85.344 
210.588 0.051 85.263 0.997 -2.951 0.997 -2.951 0.051 85.263 
220.528 0.054 85.174 0.997 -3.09 0.997 -3.09 0.054 85.174 
230.937 0.056 85.078 0.997 -3.235 0.997 -3.235 0.056 85.078 
241.837 0.059 84.972 0.997 -3.388 0.997 -3.388 0.059 84.972 
253.252 0.062 84.859 0.996 -3.547 0.996 -3.547 0.062 84.859 
265.205 0.065 84.736 0.996 -3.714 0.996 -3.714 0.065 84.736 
277.723 0.068 84.604 0.996 -3.889 0.996 -3.889 0.068 84.604 
290.831 0.071 84.462 0.996 -4.072 0.996 -4.072 0.071 84.462 
304.559 0.074 84.311 0.995 -4.264 0.995 -4.264 0.074 84.311 
318.934 0.078 84.149 0.995 -4.465 0.995 -4.465 0.078 84.149 
333.987 0.082 83.977 0.995 -4.675 0.995 -4.675 0.082 83.977 
349.752 0.085 83.794 0.994 -4.894 0.994 -4.894 0.085 83.794 
366.26 0.089 83.599 0.994 -5.125 0.994 -5.125 0.089 83.599 
383.547 0.094 83.393 0.994 -5.366 0.994 -5.366 0.094 83.393 
401.651 0.098 83.174 0.993 -5.618 0.993 -5.618 0.098 83.174 
420.609 0.102 82.943 0.993 -5.882 0.993 -5.882 0.102 82.943 
440.461 0.107 82.698 0.992 -6.158 0.992 -6.158 0.107 82.698 
461.251 0.112 82.439 0.991 -6.447 0.991 -6.447 0.112 82.439 
483.022 0.118 82.166 0.991 -6.75 0.991 -6.75 0.118 82.166 
505.821 0.123 81.878 0.99 -7.066 0.99 -7.066 0.123 81.878 
529.695 0.129 81.575 0.989 -7.398 0.989 -7.398 0.129 81.575 
554.697 0.135 81.255 0.989 -7.744 0.989 -7.744 0.135 81.255 
580.879 0.141 80.919 0.988 -8.107 0.988 -8.107 0.141 80.919 
608.296 0.148 80.565 0.987 -8.486 0.987 -8.486 0.148 80.565 
637.008 0.154 80.193 0.986 -8.883 0.986 -8.883 0.154 80.193 
667.074 0.162 79.802 0.984 -9.298 0.984 -9.298 0.162 79.802 
698.56 0.169 79.391 0.983 -9.732 0.983 -9.732 0.169 79.391 
731.532 0.177 78.96 0.982 -10.185 0.982 -10.185 0.177 78.96 
766.06 0.185 78.507 0.98 -10.66 0.98 -10.66 0.185 78.507 
802.218 0.193 78.033 0.978 -11.156 0.978 -11.156 0.193 78.033 
840.083 0.202 77.535 0.977 -11.674 0.977 -11.674 0.202 77.535 
879.735 0.212 77.013 0.975 -12.216 0.975 -12.216 0.212 77.013 
921.258 0.221 76.467 0.972 -12.782 0.972 -12.782 0.221 76.467 
964.742 0.231 75.894 0.97 -13.373 0.97 -13.373 0.231 75.894 
1010.277 0.242 75.295 0.967 -13.99 0.967 -13.99 0.242 75.295 
1057.962 0.253 74.668 0.964 -14.634 0.964 -14.634 0.253 74.668 
1107.898 0.264 74.012 0.961 -15.307 0.961 -15.307 0.264 74.012 
1160.191 0.276 73.326 0.958 -16.009 0.958 -16.009 0.276 73.326 
1214.952 0.288 72.61 0.954 -16.741 0.954 -16.741 0.288 72.61 
1272.297 0.301 71.861 0.95 -17.505 0.95 -17.505 0.301 71.861 
1332.35 0.314 71.08 0.946 -18.301 0.946 -18.301 0.314 71.08 
1395.237 0.328 70.264 0.941 -19.131 0.941 -19.131 0.328 70.264 
1461.092 0.342 69.414 0.936 -19.994 0.936 -19.994 0.342 69.414 
1530.055 0.357 68.527 0.931 -20.894 0.931 -20.894 0.357 68.527 
1602.273 0.372 67.604 0.925 -21.83 0.925 -21.83 0.372 67.604 
1677.901 0.388 66.642 0.918 -22.803 0.918 -22.803 0.388 66.642 
1757.097 0.404 65.642 0.911 -23.814 0.911 -23.814 0.404 65.642 
1840.032 0.42 64.602 0.903 -24.865 0.903 -24.865 0.42 64.602 
1926.882 0.438 63.521 0.895 -25.955 0.895 -25.955 0.438 63.521 
2017.83 0.455 62.399 0.886 -27.086 0.886 -27.086 0.455 62.399 
2113.072 0.473 61.235 0.877 -28.258 0.877 -28.258 0.473 61.235 
2212.809 0.492 60.029 0.866 -29.472 0.866 -29.472 0.492 60.029 
2317.253 0.511 58.78 0.855 -30.727 0.855 -30.727 0.511 58.78 
2426.627 0.53 57.487 0.843 -32.025 0.843 -32.025 0.53 57.487 
2541.164 0.55 56.152 0.831 -33.365 0.831 -33.365 0.55 56.152 
2661.107 0.57 54.773 0.817 -34.748 0.817 -34.748 0.57 54.773 
2786.711 0.59 53.35 0.802 -36.172 0.802 -36.172 0.59 53.35 
2918.243 0.611 51.885 0.787 -37.638 0.787 -37.638 0.611 51.885 
3055.984 0.631 50.377 0.77 -39.144 0.77 -39.144 0.631 50.377 
3200.226 0.652 48.828 0.753 -40.691 0.753 -40.691 0.652 48.828 
3351.277 0.673 47.237 0.734 -42.276 0.734 -42.276 0.673 47.237 
3509.457 0.693 45.607 0.715 -43.898 0.715 -43.898 0.693 45.607 
3675.103 0.714 43.938 0.694 -45.557 0.694 -45.557 0.714 43.938 
3848.568 0.734 42.231 0.672 -47.25 0.672 -47.25 0.734 42.231 
4030.22 0.754 40.489 0.649 -48.974 0.649 -48.974 0.754 40.489 
4220.446 0.774 38.713 0.625 -50.728 0.625 -50.728 0.774 38.713 
4419.651 0.793 36.904 0.601 -52.509 0.601 -52.509 0.793 36.904 
4628.258 0.812 35.065 0.575 -54.313 0.575 -54.313 0.812 35.065 
4846.711 0.83 33.197 0.548 -56.138 0.548 -56.138 0.83 33.197 
5075.476 0.848 31.303 0.52 -57.979 0.52 -57.979 0.848 31.303 
5315.038 0.865 29.385 0.491 -59.833 0.491 -59.833 0.865 29.385 
5565.907 0.881 27.445 0.461 -61.693 0.461 -61.693 0.881 27.445 
5828.618 0.895 25.485 0.43 -63.554 0.43 -63.554 0.895 25.485 
6103.728 0.909 23.508 0.399 -65.408 0.399 -65.408 0.909 23.508 
6391.823 0.922 21.516 0.367 -67.245 0.367 -67.245 0.922 21.516 
6693.517 0.934 19.51 0.334 -69.053 0.334 -69.053 0.934 19.51 
7009.451 0.945 17.493 0.301 -70.815 0.301 -70.815 0.945 17.493 
7340.296 0.954 15.466 0.267 -72.503 0.267 -72.503 0.954 15.466 
7686.758 0.963 13.433 0.233 -74.078 0.233 -74.078 0.963 13.433 
8049.572 0.969 11.394 0.198 -75.473 0.198 -75.473 0.969 11.394 
8429.511 0.975 9.352 0.163 -76.561 0.163 -76.561 0.975 9.352 
8827.384 0.979 7.308 0.128 -77.083 0.128 -77.083 0.979 7.308 
9244.035 0.982 5.263 0.093 -76.386 0.093 -76.386 0.982 5.263 
9680.353 0.984 3.221 0.058 -72.277 0.058 -72.277 0.984 3.221 
10137.265 0.984 1.181 0.026 -51.528 0.026 -51.528 0.984 1.181 
10615.743 0.983 -0.853 0.023 40.404 0.023 40.404 0.983 -0.853 
11116.806 0.98 -2.881 0.054 67.053 0.054 67.053 0.98 -2.881 
11641.518 0.976 -4.901 0.088 72.011 0.088 72.011 0.976 -4.901 
12190.997 0.971 -6.91 0.122 72.964 0.122 72.964 0.971 -6.91 
12766.411 0.965 -8.908 0.157 72.557 0.157 72.557 0.965 -8.908 
13368.985 0.957 -10.892 0.191 71.534 0.191 71.534 0.957 -10.892 
14000 0.948 -12.86 0.224 70.186 0.224 70.186 0.948 -12.86 
