# MHz S MA R 50

1 0.014 41.649 0.99 -0.534 0.99 -0.534 0.014 41.649 
1.047 0.014 42.805 0.99 -0.56 0.99 -0.56 0.014 42.805 
1.097 0.015 43.959 0.99 -0.586 0.99 -0.586 0.015 43.959 
1.149 0.015 45.11 0.989 -0.614 0.989 -0.614 0.015 45.11 
1.203 0.015 46.256 0.989 -0.643 0.989 -0.643 0.015 46.256 
1.26 0.016 47.395 0.989 -0.673 0.989 -0.673 0.016 47.395 
1.32 0.016 48.525 0.989 -0.705 0.989 -0.705 0.016 48.525 
1.383 0.017 49.643 0.989 -0.739 0.989 -0.739 0.017 49.643 
1.448 0.017 50.749 0.989 -0.774 0.989 -0.774 0.017 50.749 
1.517 0.018 51.839 0.989 -0.81 0.989 -0.81 0.018 51.839 
1.589 0.018 52.913 0.989 -0.848 0.989 -0.848 0.018 52.913 
1.664 0.019 53.969 0.989 -0.889 0.989 -0.889 0.019 53.969 
1.743 0.02 55.006 0.989 -0.931 0.989 -0.931 0.02 55.006 
1.825 0.02 56.022 0.989 -0.975 0.989 -0.975 0.02 56.022 
1.912 0.021 57.016 0.989 -1.021 0.989 -1.021 0.021 57.016 
2.002 0.022 57.987 0.989 -1.069 0.989 -1.069 0.022 57.987 
2.097 0.023 58.934 0.989 -1.119 0.989 -1.119 0.023 58.934 
2.196 0.023 59.856 0.988 -1.172 0.988 -1.172 0.023 59.856 
2.3 0.024 60.753 0.988 -1.228 0.988 -1.228 0.024 60.753 
2.409 0.025 61.624 0.988 -1.286 0.988 -1.286 0.025 61.624 
2.523 0.026 62.468 0.988 -1.347 0.988 -1.347 0.026 62.468 
2.643 0.027 63.285 0.988 -1.41 0.988 -1.41 0.027 63.285 
2.768 0.028 64.076 0.988 -1.477 0.988 -1.477 0.028 64.076 
2.899 0.029 64.839 0.988 -1.547 0.988 -1.547 0.029 64.839 
3.037 0.031 65.574 0.988 -1.62 0.988 -1.62 0.031 65.574 
3.18 0.032 66.282 0.988 -1.696 0.988 -1.696 0.032 66.282 
3.331 0.033 66.963 0.987 -1.776 0.987 -1.776 0.033 66.963 
3.489 0.035 67.616 0.987 -1.86 0.987 -1.86 0.035 67.616 
3.654 0.036 68.242 0.987 -1.948 0.987 -1.948 0.036 68.242 
3.827 0.038 68.84 0.987 -2.04 0.987 -2.04 0.038 68.84 
4.008 0.039 69.412 0.987 -2.137 0.987 -2.137 0.039 69.412 
4.198 0.041 69.957 0.987 -2.237 0.987 -2.237 0.041 69.957 
4.397 0.043 70.476 0.987 -2.343 0.987 -2.343 0.043 70.476 
4.605 0.045 70.968 0.986 -2.454 0.986 -2.454 0.045 70.968 
4.824 0.047 71.435 0.986 -2.569 0.986 -2.569 0.047 71.435 
5.052 0.049 71.876 0.986 -2.691 0.986 -2.691 0.049 71.876 
5.291 0.051 72.292 0.986 -2.818 0.986 -2.818 0.051 72.292 
5.542 0.053 72.682 0.985 -2.951 0.985 -2.951 0.053 72.682 
5.804 0.056 73.048 0.985 -3.09 0.985 -3.09 0.056 73.048 
6.079 0.058 73.389 0.985 -3.235 0.985 -3.235 0.058 73.389 
6.367 0.061 73.706 0.985 -3.388 0.985 -3.388 0.061 73.706 
6.669 0.063 73.999 0.984 -3.547 0.984 -3.547 0.063 73.999 
6.985 0.066 74.267 0.984 -3.715 0.984 -3.715 0.066 74.267 
7.316 0.069 74.513 0.984 -3.889 0.984 -3.889 0.069 74.513 
7.662 0.072 74.735 0.983 -4.072 0.983 -4.072 0.072 74.735 
8.025 0.076 74.933 0.983 -4.264 0.983 -4.264 0.076 74.933 
8.405 0.079 75.108 0.983 -4.465 0.983 -4.465 0.079 75.108 
8.803 0.083 75.26 0.982 -4.675 0.982 -4.675 0.083 75.26 
9.22 0.087 75.389 0.982 -4.894 0.982 -4.894 0.087 75.389 
9.657 0.091 75.495 0.981 -5.124 0.981 -5.124 0.091 75.495 
10.115 0.095 75.578 0.981 -5.365 0.981 -5.365 0.095 75.578 
10.594 0.099 75.638 0.98 -5.616 0.98 -5.616 0.099 75.638 
11.095 0.104 75.674 0.98 -5.879 0.98 -5.879 0.104 75.674 
11.621 0.108 75.688 0.979 -6.155 0.979 -6.155 0.108 75.688 
12.172 0.113 75.678 0.978 -6.443 0.978 -6.443 0.113 75.678 
12.748 0.118 75.645 0.977 -6.744 0.977 -6.744 0.118 75.645 
13.352 0.124 75.588 0.977 -7.059 0.977 -7.059 0.124 75.588 
13.984 0.13 75.507 0.976 -7.389 0.976 -7.389 0.13 75.507 
14.647 0.136 75.402 0.975 -7.733 0.975 -7.733 0.136 75.402 
15.34 0.142 75.272 0.974 -8.093 0.974 -8.093 0.142 75.272 
16.067 0.148 75.118 0.973 -8.469 0.973 -8.469 0.148 75.118 
16.828 0.155 74.939 0.971 -8.863 0.971 -8.863 0.155 74.939 
17.625 0.162 74.734 0.97 -9.273 0.97 -9.273 0.162 74.734 
18.46 0.169 74.504 0.969 -9.703 0.969 -9.703 0.169 74.504 
19.335 0.177 74.247 0.967 -10.151 0.967 -10.151 0.177 74.247 
20.25 0.185 73.964 0.965 -10.619 0.965 -10.619 0.185 73.964 
21.21 0.193 73.653 0.964 -11.107 0.964 -11.107 0.193 73.653 
22.214 0.202 73.315 0.962 -11.617 0.962 -11.617 0.202 73.315 
23.266 0.211 72.948 0.96 -12.148 0.96 -12.148 0.211 72.948 
24.368 0.221 72.553 0.957 -12.703 0.957 -12.703 0.221 72.553 
25.523 0.23 72.129 0.955 -13.28 0.955 -13.28 0.23 72.129 
26.732 0.241 71.675 0.952 -13.882 0.952 -13.882 0.241 71.675 
27.998 0.251 71.19 0.949 -14.509 0.949 -14.509 0.251 71.19 
29.324 0.262 70.675 0.946 -15.162 0.946 -15.162 0.262 70.675 
30.713 0.274 70.129 0.943 -15.841 0.943 -15.841 0.274 70.129 
32.168 0.285 69.551 0.939 -16.547 0.939 -16.547 0.285 69.551 
33.692 0.298 68.94 0.935 -17.281 0.935 -17.281 0.298 68.94 
35.287 0.31 68.297 0.931 -18.043 0.931 -18.043 0.31 68.297 
36.959 0.323 67.621 0.926 -18.834 0.926 -18.834 0.323 67.621 
38.71 0.337 66.912 0.922 -19.655 0.922 -19.655 0.337 66.912 
40.543 0.351 66.169 0.916 -20.504 0.916 -20.504 0.351 66.169 
42.464 0.365 65.392 0.911 -21.384 0.911 -21.384 0.365 65.392 
44.475 0.38 64.582 0.905 -22.294 0.905 -22.294 0.38 64.582 
46.582 0.395 63.738 0.898 -23.234 0.898 -23.234 0.395 63.738 
48.788 0.411 62.861 0.891 -24.204 0.891 -24.204 0.411 62.861 
51.099 0.426 61.95 0.884 -25.205 0.884 -25.205 0.426 61.95 
53.519 0.443 61.007 0.876 -26.235 0.876 -26.235 0.443 61.007 
56.054 0.459 60.031 0.867 -27.294 0.867 -27.294 0.459 60.031 
58.71 0.476 59.024 0.858 -28.382 0.858 -28.382 0.476 59.024 
61.491 0.493 57.987 0.849 -29.497 0.849 -29.497 0.493 57.987 
64.403 0.51 56.92 0.839 -30.64 0.839 -30.64 0.51 56.92 
67.454 0.528 55.825 0.828 -31.807 0.828 -31.807 0.528 55.825 
70.649 0.545 54.704 0.817 -32.999 0.817 -32.999 0.545 54.704 
73.995 0.563 53.558 0.805 -34.214 0.805 -34.214 0.563 53.558 
77.5 0.58 52.388 0.793 -35.449 0.793 -35.449 0.58 52.388 
81.171 0.598 51.198 0.78 -36.703 0.78 -36.703 0.598 51.198 
85.016 0.616 49.989 0.766 -37.973 0.766 -37.973 0.616 49.989 
89.043 0.633 48.763 0.752 -39.259 0.752 -39.259 0.633 48.763 
93.261 0.651 47.523 0.738 -40.556 0.738 -40.556 0.651 47.523 
97.678 0.668 46.272 0.723 -41.862 0.723 -41.862 0.668 46.272 
102.305 0.685 45.013 0.708 -43.176 0.708 -43.176 0.685 45.013 
107.151 0.701 43.747 0.692 -44.493 0.692 -44.493 0.701 43.747 
112.226 0.717 42.478 0.676 -45.812 0.676 -45.812 0.717 42.478 
117.542 0.733 41.209 0.659 -47.13 0.659 -47.13 0.733 41.209 
123.11 0.749 39.943 0.642 -48.444 0.642 -48.444 0.749 39.943 
128.941 0.764 38.681 0.625 -49.751 0.625 -49.751 0.764 38.681 
135.049 0.778 37.427 0.608 -51.049 0.608 -51.049 0.778 37.427 
141.446 0.792 36.183 0.591 -52.335 0.591 -52.335 0.792 36.183 
148.145 0.805 34.953 0.573 -53.607 0.573 -53.607 0.805 34.953 
155.163 0.818 33.737 0.556 -54.863 0.556 -54.863 0.818 33.737 
162.512 0.83 32.538 0.538 -56.1 0.538 -56.1 0.83 32.538 
170.21 0.842 31.358 0.521 -57.317 0.521 -57.317 0.842 31.358 
178.272 0.853 30.2 0.503 -58.512 0.503 -58.512 0.853 30.2 
186.717 0.863 29.063 0.486 -59.683 0.486 -59.683 0.863 29.063 
195.561 0.873 27.95 0.469 -60.829 0.469 -60.829 0.873 27.95 
204.824 0.883 26.863 0.452 -61.95 0.452 -61.95 0.883 26.863 
214.526 0.892 25.801 0.435 -63.043 0.435 -63.043 0.892 25.801 
224.688 0.9 24.765 0.419 -64.109 0.419 -64.109 0.9 24.765 
235.33 0.908 23.758 0.403 -65.146 0.403 -65.146 0.908 23.758 
246.477 0.915 22.777 0.387 -66.154 0.387 -66.154 0.915 22.777 
258.152 0.922 21.825 0.372 -67.134 0.372 -67.134 0.922 21.825 
270.38 0.928 20.901 0.357 -68.084 0.357 -68.084 0.928 20.901 
283.187 0.934 20.005 0.342 -69.005 0.342 -69.005 0.934 20.005 
296.601 0.939 19.138 0.328 -69.897 0.328 -69.897 0.939 19.138 
310.65 0.944 18.298 0.314 -70.76 0.314 -70.76 0.944 18.298 
325.365 0.949 17.486 0.301 -71.594 0.301 -71.594 0.949 17.486 
340.777 0.953 16.7 0.287 -72.401 0.287 -72.401 0.953 16.7 
356.918 0.957 15.941 0.275 -73.18 0.275 -73.18 0.957 15.941 
373.824 0.961 15.209 0.262 -73.932 0.262 -73.932 0.961 15.209 
391.532 0.964 14.501 0.25 -74.657 0.25 -74.657 0.964 14.501 
410.077 0.968 13.819 0.239 -75.357 0.239 -75.357 0.968 13.819 
429.501 0.971 13.16 0.228 -76.032 0.228 -76.032 0.971 13.16 
449.846 0.973 12.524 0.217 -76.682 0.217 -76.682 0.973 12.524 
471.154 0.976 11.911 0.206 -77.308 0.206 -77.308 0.976 11.911 
493.471 0.978 11.32 0.196 -77.912 0.196 -77.912 0.978 11.32 
516.845 0.98 10.749 0.187 -78.493 0.187 -78.493 0.98 10.749 
541.327 0.982 10.199 0.177 -79.053 0.177 -79.053 0.982 10.199 
566.968 0.984 9.668 0.168 -79.591 0.168 -79.591 0.984 9.668 
593.824 0.985 9.155 0.159 -80.11 0.159 -80.11 0.985 9.155 
621.951 0.987 8.66 0.151 -80.608 0.151 -80.608 0.987 8.66 
651.411 0.988 8.182 0.142 -81.088 0.142 -81.088 0.988 8.182 
682.267 0.989 7.719 0.134 -81.549 0.134 -81.549 0.989 7.719 
714.584 0.99 7.272 0.127 -81.991 0.127 -81.991 0.99 7.272 
748.432 0.991 6.839 0.119 -82.416 0.119 -82.416 0.991 6.839 
783.883 0.992 6.42 0.112 -82.823 0.112 -82.823 0.992 6.42 
821.013 0.993 6.014 0.105 -83.212 0.105 -83.212 0.993 6.014 
859.902 0.994 5.62 0.098 -83.584 0.098 -83.584 0.994 5.62 
900.634 0.995 5.237 0.091 -83.937 0.091 -83.937 0.995 5.237 
943.294 0.995 4.864 0.085 -84.271 0.085 -84.271 0.995 4.864 
987.975 0.996 4.502 0.079 -84.585 0.079 -84.585 0.996 4.502 
1034.773 0.996 4.149 0.072 -84.877 0.072 -84.877 0.996 4.149 
1083.787 0.997 3.804 0.066 -85.145 0.066 -85.145 0.997 3.804 
1135.123 0.997 3.468 0.06 -85.384 0.06 -85.384 0.997 3.468 
1188.891 0.997 3.138 0.055 -85.59 0.055 -85.59 0.997 3.138 
1245.205 0.998 2.815 0.049 -85.753 0.049 -85.753 0.998 2.815 
1304.187 0.998 2.497 0.044 -85.861 0.044 -85.861 0.998 2.497 
1365.963 0.998 2.185 0.038 -85.894 0.038 -85.894 0.998 2.185 
1430.664 0.998 1.878 0.033 -85.818 0.033 -85.818 0.998 1.878 
1498.431 0.998 1.574 0.028 -85.575 0.028 -85.575 0.998 1.574 
1569.407 0.998 1.274 0.022 -85.05 0.022 -85.05 0.998 1.274 
1643.746 0.998 0.976 0.017 -83.994 0.017 -83.994 0.998 0.976 
1721.606 0.998 0.681 0.012 -81.732 0.012 -81.732 0.998 0.681 
1803.153 0.998 0.387 6.955e-3 -75.651 6.955e-3 -75.651 0.998 0.387 
1888.563 0.998 0.094 2.421e-3 -42.335 2.421e-3 -42.335 0.998 0.094 
1978.019 0.998 -0.199 3.967e-3 61.009 3.967e-3 61.009 0.998 -0.199 
2071.713 0.998 -0.492 8.833e-3 76.088 8.833e-3 76.088 0.998 -0.492 
2169.844 0.998 -0.786 0.014 80.081 0.014 80.081 0.998 -0.786 
2272.623 0.997 -1.082 0.019 81.732 0.019 81.732 0.997 -1.082 
2380.271 0.997 -1.379 0.024 82.516 0.024 82.516 0.997 -1.379 
2493.018 0.997 -1.679 0.029 82.883 0.029 82.883 0.997 -1.679 
2611.105 0.996 -1.983 0.035 83.015 0.035 83.015 0.996 -1.983 
2734.786 0.996 -2.29 0.04 83 0.04 83 0.996 -2.29 
2864.325 0.995 -2.602 0.046 82.885 0.046 82.885 0.995 -2.602 
3000 0.995 -2.918 0.051 82.697 0.051 82.697 0.995 -2.918 
