# MHz S MA R 50

1 940.7e-6 16.659 0.999 -0.015 0.999 -0.015 940.7e-6 16.659 
1.047 946.7e-6 17.356 0.999 -0.016 0.999 -0.016 946.7e-6 17.356 
1.097 953.1e-6 18.077 0.999 -0.017 0.999 -0.017 953.1e-6 18.077 
1.148 959.9e-6 18.823 0.999 -0.018 0.999 -0.018 959.9e-6 18.823 
1.203 967.1e-6 19.593 0.999 -0.019 0.999 -0.019 967.1e-6 19.593 
1.259 974.8e-6 20.389 0.999 -0.019 0.999 -0.019 974.8e-6 20.389 
1.319 983e-6 21.211 0.999 -0.02 0.999 -0.02 983e-6 21.211 
1.381 991.8e-6 22.058 0.999 -0.021 0.999 -0.021 991.8e-6 22.058 
1.446 1.001e-3 22.93 0.999 -0.022 0.999 -0.022 1.001e-3 22.93 
1.514 1.011e-3 23.827 0.999 -0.023 0.999 -0.023 1.011e-3 23.827 
1.586 1.022e-3 24.749 0.999 -0.025 0.999 -0.025 1.022e-3 24.749 
1.661 1.033e-3 25.696 0.999 -0.026 0.999 -0.026 1.033e-3 25.696 
1.739 1.045e-3 26.667 0.999 -0.027 0.999 -0.027 1.045e-3 26.667 
1.821 1.058e-3 27.662 0.999 -0.028 0.999 -0.028 1.058e-3 27.662 
1.907 1.072e-3 28.68 0.999 -0.029 0.999 -0.029 1.072e-3 28.68 
1.997 1.086e-3 29.719 0.999 -0.031 0.999 -0.031 1.086e-3 29.719 
2.092 1.102e-3 30.779 0.999 -0.032 0.999 -0.032 1.102e-3 30.779 
2.19 1.119e-3 31.86 0.999 -0.034 0.999 -0.034 1.119e-3 31.86 
2.294 1.137e-3 32.958 0.999 -0.035 0.999 -0.035 1.137e-3 32.958 
2.402 1.156e-3 34.074 0.999 -0.037 0.999 -0.037 1.156e-3 34.074 
2.515 1.177e-3 35.206 0.999 -0.039 0.999 -0.039 1.177e-3 35.206 
2.634 1.198e-3 36.351 0.999 -0.041 0.999 -0.041 1.198e-3 36.351 
2.758 1.222e-3 37.509 0.999 -0.043 0.999 -0.043 1.222e-3 37.509 
2.889 1.246e-3 38.677 0.999 -0.045 0.999 -0.045 1.246e-3 38.677 
3.025 1.273e-3 39.854 0.999 -0.047 0.999 -0.047 1.273e-3 39.854 
3.168 1.301e-3 41.037 0.999 -0.049 0.999 -0.049 1.301e-3 41.037 
3.317 1.331e-3 42.225 0.999 -0.051 0.999 -0.051 1.331e-3 42.225 
3.474 1.363e-3 43.414 0.999 -0.054 0.999 -0.054 1.363e-3 43.414 
3.638 1.397e-3 44.604 0.999 -0.056 0.999 -0.056 1.397e-3 44.604 
3.809 1.433e-3 45.792 0.999 -0.059 0.999 -0.059 1.433e-3 45.792 
3.989 1.471e-3 46.976 0.999 -0.062 0.999 -0.062 1.471e-3 46.976 
4.178 1.512e-3 48.154 0.999 -0.065 0.999 -0.065 1.512e-3 48.154 
4.375 1.555e-3 49.324 0.999 -0.068 0.999 -0.068 1.555e-3 49.324 
4.581 1.601e-3 50.484 0.999 -0.071 0.999 -0.071 1.601e-3 50.484 
4.797 1.65e-3 51.632 0.999 -0.074 0.999 -0.074 1.65e-3 51.632 
5.024 1.701e-3 52.766 0.999 -0.078 0.999 -0.078 1.701e-3 52.766 
5.261 1.756e-3 53.886 0.999 -0.081 0.999 -0.081 1.756e-3 53.886 
5.509 1.814e-3 54.988 0.999 -0.085 0.999 -0.085 1.814e-3 54.988 
5.769 1.875e-3 56.072 0.999 -0.089 0.999 -0.089 1.875e-3 56.072 
6.042 1.939e-3 57.137 0.999 -0.093 0.999 -0.093 1.939e-3 57.137 
6.327 2.007e-3 58.182 0.999 -0.098 0.999 -0.098 2.007e-3 58.182 
6.625 2.079e-3 59.205 0.999 -0.102 0.999 -0.102 2.079e-3 59.205 
6.938 2.155e-3 60.205 0.999 -0.107 0.999 -0.107 2.155e-3 60.205 
7.266 2.236e-3 61.183 0.999 -0.112 0.999 -0.112 2.236e-3 61.183 
7.609 2.32e-3 62.136 0.999 -0.118 0.999 -0.118 2.32e-3 62.136 
7.968 2.409e-3 63.066 0.999 -0.123 0.999 -0.123 2.409e-3 63.066 
8.344 2.503e-3 63.971 0.999 -0.129 0.999 -0.129 2.503e-3 63.971 
8.738 2.602e-3 64.851 0.999 -0.135 0.999 -0.135 2.602e-3 64.851 
9.15 2.706e-3 65.706 0.999 -0.141 0.999 -0.141 2.706e-3 65.706 
9.582 2.816e-3 66.536 0.999 -0.148 0.999 -0.148 2.816e-3 66.536 
10.034 2.931e-3 67.342 0.999 -0.155 0.999 -0.155 2.931e-3 67.342 
10.508 3.052e-3 68.122 0.999 -0.162 0.999 -0.162 3.052e-3 68.122 
11.004 3.18e-3 68.878 0.999 -0.17 0.999 -0.17 3.18e-3 68.878 
11.523 3.314e-3 69.609 0.999 -0.178 0.999 -0.178 3.314e-3 69.609 
12.067 3.455e-3 70.316 0.999 -0.187 0.999 -0.187 3.455e-3 70.316 
12.637 3.602e-3 71 0.999 -0.195 0.999 -0.195 3.602e-3 71 
13.233 3.758e-3 71.66 0.999 -0.205 0.999 -0.205 3.758e-3 71.66 
13.858 3.921e-3 72.297 0.999 -0.214 0.999 -0.214 3.921e-3 72.297 
14.512 4.092e-3 72.911 0.999 -0.224 0.999 -0.224 4.092e-3 72.911 
15.197 4.272e-3 73.503 0.999 -0.235 0.999 -0.235 4.272e-3 73.503 
15.914 4.46e-3 74.074 0.999 -0.246 0.999 -0.246 4.46e-3 74.074 
16.665 4.658e-3 74.624 0.999 -0.258 0.999 -0.258 4.658e-3 74.624 
17.452 4.866e-3 75.154 0.999 -0.27 0.999 -0.27 4.866e-3 75.154 
18.275 5.084e-3 75.663 0.999 -0.283 0.999 -0.283 5.084e-3 75.663 
19.138 5.312e-3 76.153 0.999 -0.296 0.999 -0.296 5.312e-3 76.153 
20.041 5.552e-3 76.624 0.999 -0.31 0.999 -0.31 5.552e-3 76.624 
20.987 5.803e-3 77.077 0.999 -0.324 0.999 -0.324 5.803e-3 77.077 
21.978 6.066e-3 77.512 0.999 -0.34 0.999 -0.34 6.066e-3 77.512 
23.015 6.342e-3 77.93 0.999 -0.356 0.999 -0.356 6.342e-3 77.93 
24.101 6.632e-3 78.331 0.999 -0.373 0.999 -0.373 6.632e-3 78.331 
25.239 6.935e-3 78.716 0.999 -0.39 0.999 -0.39 6.935e-3 78.716 
26.43 7.253e-3 79.084 0.999 -0.409 0.999 -0.409 7.253e-3 79.084 
27.678 7.586e-3 79.438 0.999 -0.428 0.999 -0.428 7.586e-3 79.438 
28.984 7.935e-3 79.777 0.999 -0.448 0.999 -0.448 7.935e-3 79.777 
30.352 8.301e-3 80.101 0.999 -0.469 0.999 -0.469 8.301e-3 80.101 
31.785 8.685e-3 80.412 0.999 -0.491 0.999 -0.491 8.685e-3 80.412 
33.285 9.087e-3 80.708 0.999 -0.515 0.999 -0.515 9.087e-3 80.708 
34.856 9.508e-3 80.992 0.999 -0.539 0.999 -0.539 9.508e-3 80.992 
36.501 9.949e-3 81.263 0.999 -0.564 0.999 -0.564 9.949e-3 81.263 
38.224 0.01 81.522 0.999 -0.591 0.999 -0.591 0.01 81.522 
40.028 0.011 81.769 0.998 -0.619 0.998 -0.619 0.011 81.769 
41.918 0.011 82.004 0.998 -0.648 0.998 -0.648 0.011 82.004 
43.896 0.012 82.228 0.998 -0.678 0.998 -0.678 0.012 82.228 
45.968 0.012 82.441 0.998 -0.711 0.998 -0.711 0.012 82.441 
48.138 0.013 82.643 0.998 -0.744 0.998 -0.744 0.013 82.643 
50.41 0.014 82.835 0.998 -0.779 0.998 -0.779 0.014 82.835 
52.789 0.014 83.017 0.998 -0.816 0.998 -0.816 0.014 83.017 
55.281 0.015 83.189 0.998 -0.854 0.998 -0.854 0.015 83.189 
57.89 0.016 83.351 0.998 -0.895 0.998 -0.895 0.016 83.351 
60.623 0.016 83.504 0.998 -0.937 0.998 -0.937 0.016 83.504 
63.484 0.017 83.647 0.998 -0.981 0.998 -0.981 0.017 83.647 
66.48 0.018 83.782 0.998 -1.027 0.998 -1.027 0.018 83.782 
69.618 0.019 83.908 0.998 -1.076 0.998 -1.076 0.019 83.908 
72.904 0.02 84.025 0.998 -1.127 0.998 -1.127 0.02 84.025 
76.345 0.021 84.133 0.998 -1.18 0.998 -1.18 0.021 84.133 
79.949 0.022 84.233 0.998 -1.235 0.998 -1.235 0.022 84.233 
83.722 0.023 84.324 0.998 -1.294 0.998 -1.294 0.023 84.324 
87.674 0.024 84.408 0.998 -1.355 0.998 -1.355 0.024 84.408 
91.812 0.025 84.483 0.998 -1.419 0.998 -1.419 0.025 84.483 
96.146 0.026 84.55 0.998 -1.485 0.998 -1.485 0.026 84.55 
100.684 0.027 84.609 0.998 -1.556 0.998 -1.556 0.027 84.609 
105.436 0.028 84.661 0.998 -1.629 0.998 -1.629 0.028 84.661 
110.413 0.03 84.704 0.998 -1.706 0.998 -1.706 0.03 84.704 
115.624 0.031 84.739 0.998 -1.786 0.998 -1.786 0.031 84.739 
121.082 0.033 84.767 0.998 -1.87 0.998 -1.87 0.033 84.767 
126.797 0.034 84.786 0.997 -1.959 0.997 -1.959 0.034 84.786 
132.782 0.036 84.797 0.997 -2.051 0.997 -2.051 0.036 84.797 
139.049 0.038 84.801 0.997 -2.148 0.997 -2.148 0.038 84.801 
145.612 0.039 84.796 0.997 -2.249 0.997 -2.249 0.039 84.796 
152.485 0.041 84.783 0.997 -2.355 0.997 -2.355 0.041 84.783 
159.682 0.043 84.762 0.997 -2.466 0.997 -2.466 0.043 84.762 
167.219 0.045 84.732 0.997 -2.582 0.997 -2.582 0.045 84.732 
175.112 0.047 84.694 0.997 -2.704 0.997 -2.704 0.047 84.694 
183.377 0.049 84.648 0.997 -2.831 0.997 -2.831 0.049 84.648 
192.033 0.052 84.592 0.996 -2.964 0.996 -2.964 0.052 84.592 
201.096 0.054 84.528 0.996 -3.104 0.996 -3.104 0.054 84.528 
210.588 0.057 84.454 0.996 -3.25 0.996 -3.25 0.057 84.454 
220.528 0.059 84.371 0.996 -3.403 0.996 -3.403 0.059 84.371 
230.937 0.062 84.279 0.996 -3.564 0.996 -3.564 0.062 84.279 
241.837 0.065 84.177 0.996 -3.731 0.996 -3.731 0.065 84.177 
253.252 0.068 84.064 0.995 -3.907 0.995 -3.907 0.068 84.064 
265.205 0.071 83.941 0.995 -4.091 0.995 -4.091 0.071 83.941 
277.723 0.075 83.808 0.995 -4.283 0.995 -4.283 0.075 83.808 
290.831 0.078 83.663 0.994 -4.485 0.994 -4.485 0.078 83.663 
304.559 0.082 83.508 0.994 -4.696 0.994 -4.696 0.082 83.508 
318.934 0.086 83.34 0.994 -4.917 0.994 -4.917 0.086 83.34 
333.987 0.09 83.16 0.993 -5.148 0.993 -5.148 0.09 83.16 
349.752 0.094 82.968 0.993 -5.39 0.993 -5.39 0.094 82.968 
366.26 0.098 82.763 0.992 -5.643 0.992 -5.643 0.098 82.763 
383.547 0.103 82.545 0.992 -5.908 0.992 -5.908 0.103 82.545 
401.651 0.108 82.313 0.991 -6.185 0.991 -6.185 0.108 82.313 
420.609 0.113 82.066 0.991 -6.475 0.991 -6.475 0.113 82.066 
440.461 0.118 81.804 0.99 -6.779 0.99 -6.779 0.118 81.804 
461.251 0.124 81.528 0.989 -7.096 0.989 -7.096 0.124 81.528 
483.022 0.129 81.235 0.989 -7.428 0.989 -7.428 0.129 81.235 
505.821 0.135 80.925 0.988 -7.776 0.988 -7.776 0.135 80.925 
529.695 0.142 80.598 0.987 -8.14 0.987 -8.14 0.142 80.598 
554.697 0.148 80.254 0.986 -8.52 0.986 -8.52 0.148 80.254 
580.879 0.155 79.89 0.985 -8.918 0.985 -8.918 0.155 79.89 
608.296 0.162 79.508 0.983 -9.334 0.983 -9.334 0.162 79.508 
637.008 0.17 79.105 0.982 -9.768 0.982 -9.768 0.17 79.105 
667.074 0.178 78.682 0.981 -10.223 0.981 -10.223 0.178 78.682 
698.56 0.186 78.237 0.979 -10.698 0.979 -10.698 0.186 78.237 
731.532 0.194 77.77 0.977 -11.195 0.977 -11.195 0.194 77.77 
766.06 0.203 77.279 0.976 -11.713 0.976 -11.713 0.203 77.279 
802.218 0.212 76.765 0.974 -12.255 0.974 -12.255 0.212 76.765 
840.083 0.222 76.225 0.971 -12.821 0.971 -12.821 0.222 76.225 
879.735 0.232 75.66 0.969 -13.412 0.969 -13.412 0.232 75.66 
921.258 0.242 75.068 0.966 -14.029 0.966 -14.029 0.242 75.068 
964.742 0.253 74.448 0.963 -14.673 0.963 -14.673 0.253 74.448 
1010.277 0.265 73.799 0.96 -15.344 0.96 -15.344 0.265 73.799 
1057.962 0.276 73.121 0.957 -16.045 0.957 -16.045 0.276 73.121 
1107.898 0.289 72.412 0.953 -16.775 0.953 -16.775 0.289 72.412 
1160.191 0.301 71.672 0.949 -17.536 0.949 -17.536 0.301 71.672 
1214.952 0.314 70.899 0.945 -18.328 0.945 -18.328 0.314 70.899 
1272.297 0.328 70.093 0.94 -19.154 0.94 -19.154 0.328 70.093 
1332.35 0.342 69.252 0.935 -20.012 0.935 -20.012 0.342 69.252 
1395.237 0.357 68.377 0.93 -20.905 0.93 -20.905 0.357 68.377 
1461.092 0.372 67.465 0.924 -21.834 0.924 -21.834 0.372 67.465 
1530.055 0.388 66.516 0.917 -22.798 0.917 -22.798 0.388 66.516 
1602.273 0.404 65.53 0.91 -23.799 0.91 -23.799 0.404 65.53 
1677.901 0.42 64.506 0.903 -24.838 0.903 -24.838 0.42 64.506 
1757.097 0.437 63.443 0.895 -25.914 0.895 -25.914 0.437 63.443 
1840.032 0.454 62.34 0.886 -27.029 0.886 -27.029 0.454 62.34 
1926.882 0.472 61.198 0.876 -28.183 0.876 -28.183 0.472 61.198 
2017.83 0.491 60.016 0.866 -29.376 0.866 -29.376 0.491 60.016 
2113.072 0.509 58.793 0.855 -30.607 0.855 -30.607 0.509 58.793 
2212.809 0.528 57.531 0.844 -31.878 0.844 -31.878 0.528 57.531 
2317.253 0.547 56.228 0.831 -33.188 0.831 -33.188 0.547 56.228 
2426.627 0.567 54.886 0.818 -34.535 0.818 -34.535 0.567 54.886 
2541.164 0.587 53.504 0.804 -35.921 0.804 -35.921 0.587 53.504 
2661.107 0.607 52.084 0.789 -37.343 0.789 -37.343 0.607 52.084 
2786.711 0.627 50.626 0.773 -38.801 0.773 -38.801 0.627 50.626 
2918.243 0.647 49.131 0.756 -40.294 0.756 -40.294 0.647 49.131 
3055.984 0.667 47.601 0.739 -41.82 0.739 -41.82 0.667 47.601 
3200.226 0.687 46.036 0.72 -43.378 0.72 -43.378 0.687 46.036 
3351.277 0.707 44.439 0.7 -44.965 0.7 -44.965 0.707 44.439 
3509.457 0.726 42.81 0.68 -46.579 0.68 -46.579 0.726 42.81 
3675.103 0.746 41.152 0.658 -48.218 0.658 -48.218 0.746 41.152 
3848.568 0.765 39.467 0.636 -49.88 0.636 -49.88 0.765 39.467 
4030.22 0.783 37.757 0.612 -51.561 0.612 -51.561 0.783 37.757 
4220.446 0.801 36.023 0.588 -53.258 0.588 -53.258 0.801 36.023 
4419.651 0.819 34.268 0.563 -54.968 0.563 -54.968 0.819 34.268 
4628.258 0.836 32.493 0.537 -56.686 0.537 -56.686 0.836 32.493 
4846.711 0.852 30.703 0.511 -58.409 0.511 -58.409 0.852 30.703 
5075.476 0.867 28.897 0.483 -60.132 0.483 -60.132 0.867 28.897 
5315.038 0.882 27.079 0.455 -61.848 0.455 -61.848 0.882 27.079 
5565.907 0.896 25.25 0.427 -63.552 0.427 -63.552 0.896 25.25 
5828.618 0.908 23.413 0.397 -65.235 0.397 -65.235 0.908 23.413 
6103.728 0.92 21.569 0.368 -66.887 0.368 -66.887 0.92 21.569 
6391.823 0.931 19.721 0.338 -68.495 0.338 -68.495 0.931 19.721 
6693.517 0.941 17.868 0.307 -70.042 0.307 -70.042 0.941 17.868 
7009.451 0.949 16.014 0.276 -71.501 0.276 -71.501 0.949 16.014 
7340.296 0.957 14.16 0.245 -72.837 0.245 -72.837 0.957 14.16 
7686.758 0.963 12.306 0.214 -73.989 0.214 -73.989 0.963 12.306 
8049.572 0.969 10.454 0.182 -74.86 0.182 -74.86 0.969 10.454 
8429.511 0.973 8.605 0.15 -75.269 0.15 -75.269 0.973 8.605 
8827.384 0.976 6.76 0.119 -74.849 0.119 -74.849 0.976 6.76 
9244.035 0.978 4.92 0.088 -72.719 0.088 -72.719 0.978 4.92 
9680.353 0.978 3.086 0.058 -66.194 0.058 -66.194 0.978 3.086 
10137.265 0.978 1.259 0.031 -43.604 0.031 -43.604 0.978 1.259 
10615.743 0.976 -0.56 0.026 21.66 0.026 21.66 0.976 -0.56 
11116.806 0.973 -2.371 0.049 55.513 0.049 55.513 0.973 -2.371 
11641.518 0.969 -4.172 0.078 64.666 0.078 64.666 0.969 -4.172 
12190.997 0.964 -5.962 0.108 67.656 0.108 67.656 0.964 -5.962 
12766.411 0.958 -7.74 0.139 68.455 0.139 68.455 0.958 -7.74 
13368.985 0.95 -9.504 0.169 68.247 0.169 68.247 0.95 -9.504 
14000 0.942 -11.254 0.199 67.5 0.199 67.5 0.942 -11.254 
