# MHz S MA R 50

1 0.026 27.947 0.977 -0.704 0.977 -0.704 0.026 27.947 
1.047 0.026 28.968 0.977 -0.737 0.977 -0.737 0.026 28.968 
1.097 0.026 30.01 0.977 -0.772 0.977 -0.772 0.026 30.01 
1.149 0.027 31.071 0.977 -0.808 0.977 -0.808 0.027 31.071 
1.203 0.027 32.149 0.977 -0.847 0.977 -0.847 0.027 32.149 
1.26 0.028 33.244 0.977 -0.887 0.977 -0.887 0.028 33.244 
1.32 0.028 34.353 0.977 -0.929 0.977 -0.929 0.028 34.353 
1.383 0.029 35.475 0.977 -0.973 0.977 -0.973 0.029 35.475 
1.448 0.029 36.607 0.977 -1.019 0.977 -1.019 0.029 36.607 
1.517 0.03 37.749 0.977 -1.067 0.977 -1.067 0.03 37.749 
1.589 0.03 38.897 0.977 -1.117 0.977 -1.117 0.03 38.897 
1.664 0.031 40.05 0.976 -1.17 0.976 -1.17 0.031 40.05 
1.743 0.032 41.205 0.976 -1.225 0.976 -1.225 0.032 41.205 
1.825 0.032 42.359 0.976 -1.283 0.976 -1.283 0.032 42.359 
1.912 0.033 43.512 0.976 -1.344 0.976 -1.344 0.033 43.512 
2.003 0.034 44.659 0.976 -1.407 0.976 -1.407 0.034 44.659 
2.097 0.035 45.8 0.976 -1.474 0.976 -1.474 0.035 45.8 
2.197 0.036 46.931 0.976 -1.544 0.976 -1.544 0.036 46.931 
2.301 0.037 48.05 0.976 -1.617 0.976 -1.617 0.037 48.05 
2.41 0.038 49.155 0.976 -1.693 0.976 -1.693 0.038 49.155 
2.524 0.039 50.245 0.975 -1.773 0.975 -1.773 0.039 50.245 
2.644 0.04 51.317 0.975 -1.857 0.975 -1.857 0.04 51.317 
2.769 0.042 52.369 0.975 -1.944 0.975 -1.944 0.042 52.369 
2.9 0.043 53.399 0.975 -2.036 0.975 -2.036 0.043 53.399 
3.038 0.045 54.407 0.975 -2.132 0.975 -2.132 0.045 54.407 
3.182 0.046 55.39 0.975 -2.233 0.975 -2.233 0.046 55.39 
3.332 0.048 56.346 0.974 -2.338 0.974 -2.338 0.048 56.346 
3.49 0.049 57.276 0.974 -2.449 0.974 -2.449 0.049 57.276 
3.656 0.051 58.177 0.974 -2.564 0.974 -2.564 0.051 58.177 
3.829 0.053 59.049 0.974 -2.685 0.974 -2.685 0.053 59.049 
4.01 0.055 59.891 0.973 -2.812 0.973 -2.812 0.055 59.891 
4.2 0.057 60.702 0.973 -2.945 0.973 -2.945 0.057 60.702 
4.399 0.06 61.482 0.973 -3.083 0.973 -3.083 0.06 61.482 
4.608 0.062 62.229 0.973 -3.229 0.973 -3.229 0.062 62.229 
4.826 0.064 62.945 0.972 -3.381 0.972 -3.381 0.064 62.945 
5.055 0.067 63.627 0.972 -3.54 0.972 -3.54 0.067 63.627 
5.294 0.07 64.277 0.972 -3.707 0.972 -3.707 0.07 64.277 
5.545 0.073 64.893 0.971 -3.882 0.971 -3.882 0.073 64.893 
5.808 0.076 65.476 0.971 -4.064 0.971 -4.064 0.076 65.476 
6.083 0.079 66.026 0.971 -4.255 0.971 -4.255 0.079 66.026 
6.372 0.082 66.543 0.97 -4.455 0.97 -4.455 0.082 66.543 
6.673 0.086 67.026 0.97 -4.665 0.97 -4.665 0.086 67.026 
6.99 0.089 67.475 0.969 -4.884 0.969 -4.884 0.089 67.475 
7.321 0.093 67.892 0.969 -5.113 0.969 -5.113 0.093 67.892 
7.668 0.097 68.275 0.968 -5.353 0.968 -5.353 0.097 68.275 
8.031 0.101 68.625 0.968 -5.604 0.968 -5.604 0.101 68.625 
8.412 0.106 68.942 0.967 -5.867 0.967 -5.867 0.106 68.942 
8.81 0.111 69.226 0.966 -6.142 0.966 -6.142 0.111 69.226 
9.228 0.115 69.477 0.966 -6.429 0.966 -6.429 0.115 69.477 
9.665 0.121 69.696 0.965 -6.73 0.965 -6.73 0.121 69.696 
10.123 0.126 69.881 0.964 -7.044 0.964 -7.044 0.126 69.881 
10.603 0.131 70.033 0.963 -7.372 0.963 -7.372 0.131 70.033 
11.105 0.137 70.153 0.962 -7.716 0.962 -7.716 0.137 70.153 
11.631 0.143 70.239 0.961 -8.075 0.961 -8.075 0.143 70.239 
12.182 0.15 70.293 0.96 -8.45 0.96 -8.45 0.15 70.293 
12.76 0.157 70.313 0.959 -8.843 0.959 -8.843 0.157 70.313 
13.364 0.163 70.3 0.957 -9.252 0.957 -9.252 0.163 70.3 
13.998 0.171 70.254 0.956 -9.68 0.956 -9.68 0.171 70.254 
14.661 0.178 70.174 0.954 -10.127 0.954 -10.127 0.178 70.174 
15.355 0.186 70.061 0.953 -10.594 0.953 -10.594 0.186 70.061 
16.083 0.195 69.914 0.951 -11.081 0.951 -11.081 0.195 69.914 
16.845 0.203 69.732 0.949 -11.589 0.949 -11.589 0.203 69.732 
17.643 0.212 69.516 0.947 -12.119 0.947 -12.119 0.212 69.516 
18.479 0.222 69.266 0.945 -12.672 0.945 -12.672 0.222 69.266 
19.355 0.231 68.98 0.942 -13.248 0.942 -13.248 0.231 68.98 
20.272 0.241 68.659 0.939 -13.848 0.939 -13.848 0.241 68.659 
21.233 0.252 68.302 0.937 -14.473 0.937 -14.473 0.252 68.302 
22.239 0.263 67.91 0.933 -15.124 0.933 -15.124 0.263 67.91 
23.293 0.274 67.481 0.93 -15.801 0.93 -15.801 0.274 67.481 
24.396 0.286 67.016 0.927 -16.504 0.927 -16.504 0.286 67.016 
25.552 0.298 66.515 0.923 -17.236 0.923 -17.236 0.298 66.515 
26.763 0.311 65.976 0.918 -17.995 0.918 -17.995 0.311 65.976 
28.031 0.324 65.4 0.914 -18.784 0.914 -18.784 0.324 65.4 
29.36 0.337 64.787 0.909 -19.601 0.909 -19.601 0.337 64.787 
30.751 0.351 64.136 0.904 -20.448 0.904 -20.448 0.351 64.136 
32.208 0.365 63.449 0.898 -21.324 0.898 -21.324 0.365 63.449 
33.734 0.38 62.724 0.892 -22.231 0.892 -22.231 0.38 62.724 
35.332 0.395 61.962 0.886 -23.168 0.886 -23.168 0.395 61.962 
37.007 0.41 61.164 0.879 -24.134 0.879 -24.134 0.41 61.164 
38.76 0.426 60.329 0.872 -25.131 0.872 -25.131 0.426 60.329 
40.597 0.442 59.459 0.864 -26.157 0.864 -26.157 0.442 59.459 
42.521 0.459 58.553 0.855 -27.212 0.855 -27.212 0.459 58.553 
44.535 0.475 57.614 0.847 -28.296 0.847 -28.296 0.475 57.614 
46.646 0.492 56.642 0.837 -29.407 0.837 -29.407 0.492 56.642 
48.856 0.509 55.638 0.827 -30.544 0.827 -30.544 0.509 55.638 
51.171 0.527 54.603 0.817 -31.707 0.817 -31.707 0.527 54.603 
53.596 0.544 53.54 0.806 -32.894 0.806 -32.894 0.544 53.54 
56.135 0.562 52.45 0.794 -34.103 0.794 -34.103 0.562 52.45 
58.795 0.579 51.335 0.782 -35.333 0.782 -35.333 0.579 51.335 
61.581 0.597 50.197 0.769 -36.582 0.769 -36.582 0.597 50.197 
64.499 0.614 49.039 0.756 -37.847 0.756 -37.847 0.614 49.039 
67.555 0.632 47.862 0.743 -39.126 0.743 -39.126 0.632 47.862 
70.756 0.649 46.669 0.728 -40.418 0.728 -40.418 0.649 46.669 
74.109 0.666 45.464 0.714 -41.718 0.714 -41.718 0.666 45.464 
77.621 0.683 44.248 0.699 -43.026 0.699 -43.026 0.683 44.248 
81.299 0.7 43.025 0.683 -44.337 0.683 -44.337 0.7 43.025 
85.151 0.716 41.798 0.667 -45.65 0.667 -45.65 0.716 41.798 
89.186 0.732 40.568 0.651 -46.961 0.651 -46.961 0.732 40.568 
93.412 0.747 39.34 0.634 -48.268 0.634 -48.268 0.747 39.34 
97.838 0.762 38.116 0.618 -49.569 0.618 -49.569 0.762 38.116 
102.474 0.776 36.898 0.601 -50.86 0.601 -50.86 0.776 36.898 
107.33 0.79 35.69 0.584 -52.139 0.584 -52.139 0.79 35.69 
112.416 0.803 34.493 0.567 -53.404 0.567 -53.404 0.803 34.493 
117.743 0.816 33.311 0.55 -54.653 0.55 -54.653 0.816 33.311 
123.322 0.828 32.144 0.532 -55.883 0.532 -55.883 0.828 32.144 
129.165 0.84 30.996 0.515 -57.093 0.515 -57.093 0.84 30.996 
135.286 0.851 29.868 0.498 -58.28 0.498 -58.28 0.851 29.868 
141.696 0.862 28.761 0.481 -59.444 0.481 -59.444 0.862 28.761 
148.41 0.871 27.677 0.465 -60.582 0.465 -60.582 0.871 27.677 
155.443 0.881 26.618 0.448 -61.694 0.448 -61.694 0.881 26.618 
162.808 0.89 25.584 0.432 -62.779 0.432 -62.779 0.89 25.584 
170.523 0.898 24.576 0.416 -63.836 0.416 -63.836 0.898 24.576 
178.603 0.906 23.595 0.4 -64.865 0.4 -64.865 0.906 23.595 
187.066 0.913 22.642 0.385 -65.864 0.385 -65.864 0.913 22.642 
195.93 0.92 21.716 0.37 -66.834 0.37 -66.834 0.92 21.716 
205.214 0.926 20.818 0.356 -67.775 0.356 -67.775 0.926 20.818 
214.938 0.932 19.948 0.341 -68.686 0.341 -68.686 0.932 19.948 
225.123 0.937 19.106 0.327 -69.567 0.327 -69.567 0.937 19.106 
235.79 0.942 18.291 0.314 -70.42 0.314 -70.42 0.942 18.291 
246.963 0.947 17.504 0.301 -71.243 0.301 -71.243 0.947 17.504 
258.665 0.951 16.745 0.288 -72.038 0.288 -72.038 0.951 16.745 
270.922 0.956 16.011 0.276 -72.805 0.276 -72.805 0.956 16.011 
283.76 0.959 15.304 0.264 -73.544 0.264 -73.544 0.959 15.304 
297.206 0.963 14.623 0.252 -74.257 0.252 -74.257 0.963 14.623 
311.289 0.966 13.966 0.241 -74.943 0.241 -74.943 0.966 13.966 
326.039 0.969 13.333 0.231 -75.604 0.231 -75.604 0.969 13.333 
341.488 0.971 12.725 0.22 -76.239 0.22 -76.239 0.971 12.725 
357.669 0.974 12.139 0.21 -76.851 0.21 -76.851 0.974 12.139 
374.617 0.976 11.575 0.201 -77.439 0.201 -77.439 0.976 11.575 
392.368 0.978 11.033 0.191 -78.004 0.191 -78.004 0.978 11.033 
410.96 0.98 10.511 0.182 -78.546 0.182 -78.546 0.98 10.511 
430.434 0.982 10.009 0.174 -79.068 0.174 -79.068 0.982 10.009 
450.829 0.984 9.526 0.166 -79.568 0.166 -79.568 0.984 9.526 
472.192 0.985 9.062 0.158 -80.049 0.158 -80.049 0.985 9.062 
494.566 0.986 8.615 0.15 -80.51 0.15 -80.51 0.986 8.615 
518.001 0.988 8.186 0.142 -80.952 0.142 -80.952 0.988 8.186 
542.546 0.989 7.772 0.135 -81.376 0.135 -81.376 0.989 7.772 
568.255 0.99 7.374 0.128 -81.782 0.128 -81.782 0.99 7.374 
595.181 0.991 6.991 0.122 -82.171 0.122 -82.171 0.991 6.991 
623.384 0.992 6.621 0.115 -82.542 0.115 -82.542 0.992 6.621 
652.922 0.992 6.266 0.109 -82.897 0.109 -82.897 0.992 6.266 
683.861 0.993 5.922 0.103 -83.236 0.103 -83.236 0.993 5.922 
716.265 0.994 5.591 0.097 -83.558 0.097 -83.558 0.994 5.591 
750.205 0.994 5.272 0.092 -83.864 0.092 -83.864 0.994 5.272 
785.753 0.995 4.963 0.087 -84.153 0.087 -84.153 0.995 4.963 
822.986 0.995 4.664 0.081 -84.426 0.081 -84.426 0.995 4.664 
861.983 0.996 4.376 0.076 -84.68 0.076 -84.68 0.996 4.376 
902.827 0.996 4.096 0.071 -84.917 0.071 -84.917 0.996 4.096 
945.607 0.997 3.824 0.067 -85.133 0.067 -85.133 0.997 3.824 
990.414 0.997 3.561 0.062 -85.328 0.062 -85.328 0.997 3.561 
1037.345 0.997 3.305 0.058 -85.499 0.058 -85.499 0.997 3.305 
1086.499 0.997 3.056 0.053 -85.643 0.053 -85.643 0.997 3.056 
1137.982 0.998 2.814 0.049 -85.754 0.049 -85.754 0.998 2.814 
1191.905 0.998 2.577 0.045 -85.826 0.045 -85.826 0.998 2.577 
1248.383 0.998 2.346 0.041 -85.851 0.041 -85.851 0.998 2.346 
1307.537 0.998 2.12 0.037 -85.816 0.037 -85.816 0.998 2.12 
1369.494 0.998 1.898 0.033 -85.701 0.033 -85.701 0.998 1.898 
1434.386 0.998 1.681 0.029 -85.479 0.029 -85.479 0.998 1.681 
1502.354 0.998 1.467 0.026 -85.105 0.026 -85.105 0.998 1.467 
1573.542 0.998 1.256 0.022 -84.508 0.022 -84.508 0.998 1.256 
1648.104 0.998 1.048 0.018 -83.557 0.018 -83.557 0.998 1.048 
1726.199 0.998 0.842 0.015 -82.004 0.015 -82.004 0.998 0.842 
1807.994 0.998 0.638 0.011 -79.295 0.011 -79.295 0.998 0.638 
1893.665 0.998 0.436 7.896e-3 -73.944 7.896e-3 -73.944 0.998 0.436 
1983.395 0.998 0.234 4.69e-3 -60.5 4.69e-3 -60.5 0.998 0.234 
2077.377 0.998 0.034 2.548e-3 -13.358 2.548e-3 -13.358 0.998 0.034 
2175.813 0.997 -0.167 3.957e-3 47.102 3.957e-3 47.102 0.997 -0.167 
2278.913 0.997 -0.367 7.036e-3 65.171 7.036e-3 65.171 0.997 -0.367 
2386.898 0.997 -0.568 0.01 71.714 0.01 71.714 0.997 -0.568 
2500 0.996 -0.77 0.014 74.843 0.014 74.843 0.996 -0.77 
