# MHz S MA R 50

1 447.2e-6 30.357 1 -0.013 1 -0.013 447.2e-6 30.357 
1.047 454.2e-6 31.404 1 -0.014 1 -0.014 454.2e-6 31.404 
1.097 461.7e-6 32.468 1 -0.014 1 -0.014 461.7e-6 32.468 
1.148 469.6e-6 33.549 1 -0.015 1 -0.015 469.6e-6 33.549 
1.202 478e-6 34.645 1 -0.016 1 -0.016 478e-6 34.645 
1.259 487e-6 35.755 1 -0.016 1 -0.016 487e-6 35.755 
1.318 496.5e-6 36.876 1 -0.017 1 -0.017 496.5e-6 36.876 
1.38 506.7e-6 38.008 1 -0.018 1 -0.018 506.7e-6 38.008 
1.446 517.5e-6 39.149 1 -0.019 1 -0.019 517.5e-6 39.149 
1.514 529e-6 40.297 1 -0.02 1 -0.02 529e-6 40.297 
1.585 541.2e-6 41.449 1 -0.021 1 -0.021 541.2e-6 41.449 
1.66 554.2e-6 42.604 1 -0.022 1 -0.022 554.2e-6 42.604 
1.738 567.9e-6 43.761 1 -0.023 1 -0.023 567.9e-6 43.761 
1.82 582.6e-6 44.916 1 -0.024 1 -0.024 582.6e-6 44.916 
1.906 598.1e-6 46.069 1 -0.025 1 -0.025 598.1e-6 46.069 
1.996 614.5e-6 47.217 1 -0.026 1 -0.026 614.5e-6 47.217 
2.09 632e-6 48.359 1 -0.027 1 -0.027 632e-6 48.359 
2.188 650.4e-6 49.492 1 -0.028 1 -0.028 650.4e-6 49.492 
2.291 670e-6 50.615 1 -0.03 1 -0.03 670e-6 50.615 
2.399 690.7e-6 51.727 1 -0.031 1 -0.031 690.7e-6 51.727 
2.512 712.6e-6 52.825 1 -0.033 1 -0.033 712.6e-6 52.825 
2.631 735.8e-6 53.908 1 -0.034 1 -0.034 735.8e-6 53.908 
2.755 760.3e-6 54.976 1 -0.036 1 -0.036 760.3e-6 54.976 
2.885 786.1e-6 56.026 1 -0.037 1 -0.037 786.1e-6 56.026 
3.021 813.5e-6 57.057 1 -0.039 1 -0.039 813.5e-6 57.057 
3.163 842.3e-6 58.07 1 -0.041 1 -0.041 842.3e-6 58.07 
3.312 872.7e-6 59.062 1 -0.043 1 -0.043 872.7e-6 59.062 
3.468 904.8e-6 60.032 1 -0.045 1 -0.045 904.8e-6 60.032 
3.632 938.6e-6 60.982 1 -0.047 1 -0.047 938.6e-6 60.982 
3.803 974.2e-6 61.909 1 -0.049 1 -0.049 974.2e-6 61.909 
3.982 1.012e-3 62.813 1 -0.052 1 -0.052 1.012e-3 62.813 
4.17 1.051e-3 63.694 1 -0.054 1 -0.054 1.051e-3 63.694 
4.367 1.093e-3 64.552 1 -0.057 1 -0.057 1.093e-3 64.552 
4.573 1.137e-3 65.387 1 -0.059 1 -0.059 1.137e-3 65.387 
4.788 1.183e-3 66.199 1 -0.062 1 -0.062 1.183e-3 66.199 
5.014 1.231e-3 66.987 1 -0.065 1 -0.065 1.231e-3 66.987 
5.25 1.282e-3 67.752 1 -0.068 1 -0.068 1.282e-3 67.752 
5.498 1.335e-3 68.494 1 -0.071 1 -0.071 1.335e-3 68.494 
5.757 1.391e-3 69.214 1 -0.075 1 -0.075 1.391e-3 69.214 
6.028 1.45e-3 69.91 1 -0.078 1 -0.078 1.45e-3 69.91 
6.312 1.512e-3 70.585 0.999 -0.082 0.999 -0.082 1.512e-3 70.585 
6.61 1.577e-3 71.238 0.999 -0.086 0.999 -0.086 1.577e-3 71.238 
6.922 1.646e-3 71.869 0.999 -0.09 0.999 -0.09 1.646e-3 71.869 
7.248 1.717e-3 72.479 0.999 -0.094 0.999 -0.094 1.717e-3 72.479 
7.589 1.793e-3 73.069 0.999 -0.098 0.999 -0.098 1.793e-3 73.069 
7.947 1.872e-3 73.638 0.999 -0.103 0.999 -0.103 1.872e-3 73.638 
8.322 1.954e-3 74.188 0.999 -0.108 0.999 -0.108 1.954e-3 74.188 
8.714 2.041e-3 74.719 0.999 -0.113 0.999 -0.113 2.041e-3 74.719 
9.125 2.132e-3 75.231 0.999 -0.118 0.999 -0.118 2.132e-3 75.231 
9.555 2.228e-3 75.725 0.999 -0.124 0.999 -0.124 2.228e-3 75.725 
10.006 2.328e-3 76.202 0.999 -0.13 0.999 -0.13 2.328e-3 76.202 
10.477 2.433e-3 76.661 0.999 -0.136 0.999 -0.136 2.433e-3 76.661 
10.971 2.543e-3 77.103 0.999 -0.142 0.999 -0.142 2.543e-3 77.103 
11.488 2.658e-3 77.53 0.999 -0.149 0.999 -0.149 2.658e-3 77.53 
12.03 2.779e-3 77.941 0.999 -0.156 0.999 -0.156 2.779e-3 77.941 
12.597 2.906e-3 78.336 0.999 -0.163 0.999 -0.163 2.906e-3 78.336 
13.191 3.039e-3 78.717 0.999 -0.171 0.999 -0.171 3.039e-3 78.717 
13.813 3.178e-3 79.084 0.999 -0.179 0.999 -0.179 3.178e-3 79.084 
14.464 3.324e-3 79.437 0.999 -0.187 0.999 -0.187 3.324e-3 79.437 
15.145 3.477e-3 79.776 0.999 -0.196 0.999 -0.196 3.477e-3 79.776 
15.859 3.637e-3 80.103 0.999 -0.205 0.999 -0.205 3.637e-3 80.103 
16.607 3.805e-3 80.417 0.999 -0.215 0.999 -0.215 3.805e-3 80.417 
17.39 3.981e-3 80.719 0.999 -0.225 0.999 -0.225 3.981e-3 80.719 
18.21 4.165e-3 81.009 0.999 -0.236 0.999 -0.236 4.165e-3 81.009 
19.068 4.358e-3 81.288 0.999 -0.247 0.999 -0.247 4.358e-3 81.288 
19.967 4.56e-3 81.557 0.999 -0.259 0.999 -0.259 4.56e-3 81.557 
20.908 4.772e-3 81.814 0.999 -0.271 0.999 -0.271 4.772e-3 81.814 
21.894 4.993e-3 82.061 0.999 -0.284 0.999 -0.284 4.993e-3 82.061 
22.926 5.226e-3 82.299 0.999 -0.297 0.999 -0.297 5.226e-3 82.299 
24.007 5.469e-3 82.527 0.999 -0.311 0.999 -0.311 5.469e-3 82.527 
25.138 5.724e-3 82.745 0.999 -0.326 0.999 -0.326 5.724e-3 82.745 
26.323 5.991e-3 82.955 0.999 -0.341 0.999 -0.341 5.991e-3 82.955 
27.564 6.271e-3 83.155 0.999 -0.357 0.999 -0.357 6.271e-3 83.155 
28.864 6.563e-3 83.348 0.999 -0.374 0.999 -0.374 6.563e-3 83.348 
30.224 6.87e-3 83.532 0.999 -0.391 0.999 -0.391 6.87e-3 83.532 
31.649 7.191e-3 83.708 0.999 -0.41 0.999 -0.41 7.191e-3 83.708 
33.141 7.528e-3 83.876 0.999 -0.429 0.999 -0.429 7.528e-3 83.876 
34.703 7.88e-3 84.037 0.999 -0.449 0.999 -0.449 7.88e-3 84.037 
36.339 8.249e-3 84.191 0.999 -0.471 0.999 -0.471 8.249e-3 84.191 
38.052 8.635e-3 84.337 0.999 -0.493 0.999 -0.493 8.635e-3 84.337 
39.846 9.04e-3 84.476 0.999 -0.516 0.999 -0.516 9.04e-3 84.476 
41.724 9.464e-3 84.609 0.999 -0.54 0.999 -0.54 9.464e-3 84.609 
43.691 9.908e-3 84.735 0.999 -0.566 0.999 -0.566 9.908e-3 84.735 
45.751 0.01 84.855 0.999 -0.592 0.999 -0.592 0.01 84.855 
47.907 0.011 84.968 0.999 -0.62 0.999 -0.62 0.011 84.968 
50.166 0.011 85.075 0.999 -0.65 0.999 -0.65 0.011 85.075 
52.531 0.012 85.176 0.999 -0.68 0.999 -0.68 0.012 85.176 
55.007 0.012 85.271 0.999 -0.712 0.999 -0.712 0.012 85.271 
57.6 0.013 85.36 0.999 -0.746 0.999 -0.746 0.013 85.36 
60.315 0.014 85.444 0.999 -0.781 0.999 -0.781 0.014 85.444 
63.158 0.014 85.522 0.999 -0.818 0.999 -0.818 0.014 85.522 
66.136 0.015 85.594 0.999 -0.856 0.999 -0.856 0.015 85.594 
69.253 0.016 85.66 0.999 -0.897 0.999 -0.897 0.016 85.66 
72.518 0.016 85.721 0.999 -0.939 0.999 -0.939 0.016 85.721 
75.936 0.017 85.777 0.999 -0.983 0.999 -0.983 0.017 85.777 
79.516 0.018 85.827 0.999 -1.029 0.999 -1.029 0.018 85.827 
83.265 0.019 85.872 0.999 -1.078 0.999 -1.078 0.019 85.872 
87.19 0.02 85.912 0.999 -1.129 0.999 -1.129 0.02 85.912 
91.3 0.021 85.946 0.999 -1.182 0.999 -1.182 0.021 85.946 
95.604 0.022 85.974 0.999 -1.238 0.999 -1.238 0.022 85.974 
100.11 0.023 85.998 0.999 -1.296 0.999 -1.296 0.023 85.998 
104.83 0.024 86.016 0.999 -1.357 0.999 -1.357 0.024 86.016 
109.771 0.025 86.028 0.999 -1.421 0.999 -1.421 0.025 86.028 
114.946 0.026 86.035 0.999 -1.488 0.999 -1.488 0.026 86.035 
120.364 0.027 86.036 0.998 -1.558 0.998 -1.558 0.027 86.036 
126.038 0.028 86.032 0.998 -1.631 0.998 -1.631 0.028 86.032 
131.98 0.03 86.022 0.998 -1.708 0.998 -1.708 0.03 86.022 
138.201 0.031 86.007 0.998 -1.789 0.998 -1.789 0.031 86.007 
144.716 0.033 85.985 0.998 -1.873 0.998 -1.873 0.033 85.985 
151.538 0.034 85.958 0.998 -1.961 0.998 -1.961 0.034 85.958 
158.682 0.036 85.924 0.998 -2.053 0.998 -2.053 0.036 85.924 
166.162 0.038 85.885 0.998 -2.15 0.998 -2.15 0.038 85.885 
173.995 0.039 85.839 0.998 -2.251 0.998 -2.251 0.039 85.839 
182.197 0.041 85.786 0.998 -2.357 0.998 -2.357 0.041 85.786 
190.786 0.043 85.727 0.998 -2.468 0.998 -2.468 0.043 85.727 
199.78 0.045 85.661 0.998 -2.584 0.998 -2.584 0.045 85.661 
209.197 0.047 85.588 0.997 -2.706 0.997 -2.706 0.047 85.588 
219.059 0.049 85.508 0.997 -2.833 0.997 -2.833 0.049 85.508 
229.385 0.052 85.42 0.997 -2.967 0.997 -2.967 0.052 85.42 
240.198 0.054 85.325 0.997 -3.106 0.997 -3.106 0.054 85.325 
251.521 0.057 85.221 0.997 -3.252 0.997 -3.252 0.057 85.221 
263.378 0.059 85.11 0.997 -3.405 0.997 -3.405 0.059 85.11 
275.794 0.062 84.99 0.996 -3.566 0.996 -3.566 0.062 84.99 
288.795 0.065 84.862 0.996 -3.733 0.996 -3.733 0.065 84.862 
302.409 0.068 84.724 0.996 -3.909 0.996 -3.909 0.068 84.724 
316.664 0.071 84.577 0.996 -4.093 0.996 -4.093 0.071 84.577 
331.592 0.075 84.421 0.996 -4.285 0.996 -4.285 0.075 84.421 
347.223 0.078 84.254 0.995 -4.486 0.995 -4.486 0.078 84.254 
363.591 0.082 84.077 0.995 -4.697 0.995 -4.697 0.082 84.077 
380.731 0.086 83.889 0.995 -4.917 0.995 -4.917 0.086 83.889 
398.678 0.09 83.69 0.994 -5.148 0.994 -5.148 0.09 83.69 
417.472 0.094 83.479 0.994 -5.39 0.994 -5.39 0.094 83.479 
437.152 0.098 83.256 0.993 -5.643 0.993 -5.643 0.098 83.256 
457.759 0.103 83.021 0.993 -5.907 0.993 -5.907 0.103 83.021 
479.338 0.108 82.772 0.992 -6.184 0.992 -6.184 0.108 82.772 
501.934 0.113 82.51 0.992 -6.474 0.992 -6.474 0.113 82.51 
525.595 0.118 82.233 0.991 -6.777 0.991 -6.777 0.118 82.233 
550.372 0.124 81.942 0.99 -7.094 0.99 -7.094 0.124 81.942 
576.317 0.129 81.635 0.989 -7.426 0.989 -7.426 0.129 81.635 
603.484 0.135 81.312 0.989 -7.773 0.989 -7.773 0.135 81.312 
631.933 0.142 80.973 0.988 -8.136 0.988 -8.136 0.142 80.973 
661.722 0.148 80.616 0.987 -8.515 0.987 -8.515 0.148 80.616 
692.915 0.155 80.242 0.986 -8.912 0.986 -8.912 0.155 80.242 
725.58 0.162 79.848 0.984 -9.327 0.984 -9.327 0.162 79.848 
759.783 0.17 79.436 0.983 -9.761 0.983 -9.761 0.17 79.436 
795.6 0.177 79.003 0.982 -10.214 0.982 -10.214 0.177 79.003 
833.104 0.185 78.549 0.98 -10.688 0.98 -10.688 0.185 78.549 
872.377 0.194 78.073 0.978 -11.183 0.978 -11.183 0.194 78.073 
913.501 0.203 77.574 0.977 -11.7 0.977 -11.7 0.203 77.574 
956.564 0.212 77.052 0.975 -12.24 0.975 -12.24 0.212 77.052 
1001.656 0.222 76.506 0.972 -12.805 0.972 -12.805 0.222 76.506 
1048.874 0.232 75.934 0.97 -13.393 0.97 -13.393 0.232 75.934 
1098.318 0.242 75.336 0.967 -14.008 0.967 -14.008 0.242 75.336 
1150.093 0.253 74.711 0.965 -14.649 0.965 -14.649 0.253 74.711 
1204.309 0.264 74.057 0.962 -15.318 0.962 -15.318 0.264 74.057 
1261.08 0.276 73.375 0.958 -16.016 0.958 -16.016 0.276 73.375 
1320.527 0.288 72.663 0.955 -16.742 0.955 -16.742 0.288 72.663 
1382.777 0.301 71.92 0.951 -17.5 0.951 -17.5 0.301 71.92 
1447.961 0.314 71.146 0.946 -18.288 0.946 -18.288 0.314 71.146 
1516.218 0.327 70.338 0.942 -19.109 0.942 -19.109 0.327 70.338 
1587.693 0.341 69.498 0.937 -19.963 0.937 -19.963 0.341 69.498 
1662.537 0.356 68.622 0.931 -20.85 0.931 -20.85 0.356 68.622 
1740.909 0.371 67.712 0.925 -21.773 0.925 -21.773 0.371 67.712 
1822.976 0.386 66.766 0.919 -22.731 0.919 -22.731 0.386 66.766 
1908.911 0.402 65.783 0.912 -23.725 0.912 -23.725 0.402 65.783 
1998.897 0.419 64.764 0.905 -24.756 0.905 -24.756 0.419 64.764 
2093.125 0.436 63.706 0.897 -25.824 0.897 -25.824 0.436 63.706 
2191.796 0.453 62.611 0.888 -26.929 0.888 -26.929 0.453 62.611 
2295.117 0.471 61.477 0.879 -28.073 0.879 -28.073 0.471 61.477 
2403.309 0.489 60.305 0.869 -29.254 0.869 -29.254 0.489 60.305 
2516.601 0.507 59.095 0.858 -30.474 0.858 -30.474 0.507 59.095 
2635.234 0.526 57.846 0.847 -31.732 0.847 -31.732 0.526 57.846 
2759.459 0.545 56.558 0.834 -33.027 0.834 -33.027 0.545 56.558 
2889.541 0.564 55.233 0.822 -34.36 0.822 -34.36 0.564 55.233 
3025.754 0.584 53.871 0.808 -35.729 0.808 -35.729 0.584 53.871 
3168.388 0.604 52.473 0.793 -37.135 0.793 -37.135 0.604 52.473 
3317.746 0.624 51.039 0.778 -38.575 0.778 -38.575 0.624 51.039 
3474.145 0.643 49.571 0.761 -40.049 0.761 -40.049 0.643 49.571 
3637.917 0.663 48.069 0.744 -41.556 0.744 -41.556 0.663 48.069 
3809.408 0.683 46.537 0.726 -43.093 0.726 -43.093 0.683 46.537 
3988.984 0.703 44.974 0.707 -44.66 0.707 -44.66 0.703 44.974 
4177.025 0.722 43.383 0.687 -46.255 0.687 -46.255 0.722 43.383 
4373.931 0.742 41.765 0.666 -47.875 0.666 -47.875 0.742 41.765 
4580.118 0.761 40.123 0.644 -49.519 0.644 -49.519 0.761 40.123 
4796.026 0.779 38.459 0.622 -51.184 0.622 -51.184 0.779 38.459 
5022.111 0.797 36.775 0.599 -52.868 0.599 -52.868 0.797 36.775 
5258.853 0.815 35.072 0.575 -54.569 0.575 -54.569 0.815 35.072 
5506.756 0.832 33.353 0.55 -56.285 0.55 -56.285 0.832 33.353 
5766.345 0.848 31.62 0.524 -58.014 0.524 -58.014 0.848 31.62 
6038.171 0.864 29.875 0.498 -59.752 0.498 -59.752 0.864 29.875 
6322.811 0.879 28.12 0.471 -61.498 0.471 -61.498 0.879 28.12 
6620.869 0.893 26.357 0.444 -63.249 0.444 -63.249 0.893 26.357 
6932.978 0.906 24.587 0.416 -65.004 0.416 -65.004 0.906 24.587 
7259.799 0.919 22.812 0.388 -66.759 0.388 -66.759 0.919 22.812 
7602.027 0.931 21.033 0.359 -68.513 0.359 -68.513 0.931 21.033 
7960.387 0.941 19.252 0.33 -70.262 0.33 -70.262 0.941 19.252 
8335.64 0.951 17.47 0.3 -72.003 0.3 -72.003 0.951 17.47 
8728.583 0.96 15.686 0.27 -73.732 0.27 -73.732 0.96 15.686 
9140.05 0.968 13.903 0.24 -75.444 0.24 -75.444 0.968 13.903 
9570.912 0.975 12.121 0.21 -77.13 0.21 -77.13 0.975 12.121 
10022.086 0.981 10.339 0.179 -78.777 0.179 -78.777 0.981 10.339 
10494.528 0.986 8.558 0.149 -80.36 0.149 -80.36 0.986 8.558 
10989.241 0.99 6.779 0.118 -81.829 0.118 -81.829 0.99 6.779 
11507.275 0.993 5 0.087 -83.066 0.087 -83.066 0.993 5 
12049.73 0.995 3.223 0.056 -83.685 0.056 -83.685 0.995 3.223 
12617.755 0.997 1.447 0.025 -81.442 0.025 -81.442 0.997 1.447 
13212.557 0.997 -0.329 6.608e-3 59.869 6.608e-3 59.869 0.997 -0.329 
13835.398 0.996 -2.104 0.037 82.543 0.037 82.543 0.996 -2.104 
14487.6 0.994 -3.878 0.068 83.06 0.068 83.06 0.994 -3.878 
15170.547 0.991 -5.653 0.099 82.127 0.099 82.127 0.991 -5.653 
15885.688 0.988 -7.428 0.129 80.78 0.129 80.78 0.988 -7.428 
16634.541 0.983 -9.203 0.16 79.258 0.16 79.258 0.983 -9.203 
17418.695 0.977 -10.978 0.19 77.645 0.19 77.645 0.977 -10.978 
18239.814 0.97 -12.752 0.221 75.98 0.221 75.98 0.97 -12.752 
19099.641 0.963 -14.526 0.251 74.281 0.251 74.281 0.963 -14.526 
20000 0.954 -16.299 0.281 72.559 0.281 72.559 0.954 -16.299 
