# MHz S MA R 50

1 0.012 37.718 0.99 -0.428 0.99 -0.428 0.012 37.718 
1.047 0.012 38.829 0.99 -0.448 0.99 -0.448 0.012 38.829 
1.097 0.013 39.944 0.99 -0.469 0.99 -0.469 0.013 39.944 
1.149 0.013 41.064 0.99 -0.492 0.99 -0.492 0.013 41.064 
1.203 0.013 42.184 0.99 -0.515 0.99 -0.515 0.013 42.184 
1.26 0.014 43.305 0.99 -0.539 0.99 -0.539 0.014 43.305 
1.32 0.014 44.423 0.99 -0.565 0.99 -0.565 0.014 44.423 
1.383 0.014 45.536 0.99 -0.591 0.99 -0.591 0.014 45.536 
1.448 0.015 46.644 0.99 -0.619 0.99 -0.619 0.015 46.644 
1.517 0.015 47.743 0.99 -0.649 0.99 -0.649 0.015 47.743 
1.589 0.016 48.833 0.99 -0.679 0.99 -0.679 0.016 48.833 
1.664 0.016 49.912 0.99 -0.711 0.99 -0.711 0.016 49.912 
1.743 0.017 50.977 0.99 -0.745 0.99 -0.745 0.017 50.977 
1.825 0.017 52.027 0.99 -0.78 0.99 -0.78 0.017 52.027 
1.912 0.018 53.061 0.989 -0.817 0.989 -0.817 0.018 53.061 
2.002 0.018 54.078 0.989 -0.856 0.989 -0.856 0.018 54.078 
2.097 0.019 55.076 0.989 -0.896 0.989 -0.896 0.019 55.076 
2.196 0.02 56.054 0.989 -0.939 0.989 -0.939 0.02 56.054 
2.3 0.02 57.011 0.989 -0.983 0.989 -0.983 0.02 57.011 
2.409 0.021 57.946 0.989 -1.029 0.989 -1.029 0.021 57.946 
2.523 0.022 58.859 0.989 -1.078 0.989 -1.078 0.022 58.859 
2.643 0.023 59.748 0.989 -1.129 0.989 -1.129 0.023 59.748 
2.768 0.023 60.613 0.989 -1.182 0.989 -1.182 0.023 60.613 
2.899 0.024 61.453 0.989 -1.238 0.989 -1.238 0.024 61.453 
3.037 0.025 62.269 0.988 -1.297 0.988 -1.297 0.025 62.269 
3.18 0.026 63.059 0.988 -1.358 0.988 -1.358 0.026 63.059 
3.331 0.027 63.824 0.988 -1.422 0.988 -1.422 0.027 63.824 
3.489 0.028 64.563 0.988 -1.489 0.988 -1.489 0.028 64.563 
3.654 0.03 65.276 0.988 -1.56 0.988 -1.56 0.03 65.276 
3.827 0.031 65.964 0.988 -1.633 0.988 -1.633 0.031 65.964 
4.008 0.032 66.625 0.988 -1.711 0.988 -1.711 0.032 66.625 
4.198 0.033 67.261 0.988 -1.791 0.988 -1.791 0.033 67.261 
4.397 0.035 67.872 0.987 -1.876 0.987 -1.876 0.035 67.872 
4.605 0.036 68.456 0.987 -1.964 0.987 -1.964 0.036 68.456 
4.824 0.038 69.016 0.987 -2.057 0.987 -2.057 0.038 69.016 
5.052 0.04 69.55 0.987 -2.154 0.987 -2.154 0.04 69.55 
5.291 0.041 70.059 0.987 -2.256 0.987 -2.256 0.041 70.059 
5.542 0.043 70.544 0.986 -2.362 0.986 -2.362 0.043 70.544 
5.804 0.045 71.004 0.986 -2.474 0.986 -2.474 0.045 71.004 
6.079 0.047 71.44 0.986 -2.591 0.986 -2.591 0.047 71.44 
6.367 0.049 71.852 0.986 -2.713 0.986 -2.713 0.049 71.852 
6.669 0.051 72.24 0.986 -2.841 0.986 -2.841 0.051 72.24 
6.985 0.054 72.604 0.985 -2.974 0.985 -2.974 0.054 72.604 
7.316 0.056 72.945 0.985 -3.115 0.985 -3.115 0.056 72.945 
7.662 0.059 73.263 0.985 -3.261 0.985 -3.261 0.059 73.263 
8.025 0.061 73.559 0.984 -3.415 0.984 -3.415 0.061 73.559 
8.405 0.064 73.831 0.984 -3.576 0.984 -3.576 0.064 73.831 
8.803 0.067 74.081 0.984 -3.744 0.984 -3.744 0.067 74.081 
9.22 0.07 74.308 0.983 -3.92 0.983 -3.92 0.07 74.308 
9.657 0.073 74.513 0.983 -4.105 0.983 -4.105 0.073 74.513 
10.115 0.076 74.696 0.983 -4.298 0.983 -4.298 0.076 74.696 
10.594 0.08 74.856 0.982 -4.5 0.982 -4.5 0.08 74.856 
11.095 0.083 74.995 0.982 -4.711 0.982 -4.711 0.083 74.995 
11.621 0.087 75.111 0.981 -4.932 0.981 -4.932 0.087 75.111 
12.172 0.091 75.205 0.981 -5.164 0.981 -5.164 0.091 75.205 
12.748 0.095 75.277 0.98 -5.406 0.98 -5.406 0.095 75.277 
13.352 0.1 75.327 0.979 -5.659 0.979 -5.659 0.1 75.327 
13.984 0.104 75.354 0.979 -5.924 0.979 -5.924 0.104 75.354 
14.647 0.109 75.359 0.978 -6.201 0.978 -6.201 0.109 75.359 
15.34 0.114 75.341 0.977 -6.491 0.977 -6.491 0.114 75.341 
16.067 0.119 75.301 0.977 -6.794 0.977 -6.794 0.119 75.301 
16.828 0.125 75.237 0.976 -7.112 0.976 -7.112 0.125 75.237 
17.625 0.131 75.15 0.975 -7.443 0.975 -7.443 0.131 75.15 
18.46 0.137 75.039 0.974 -7.79 0.974 -7.79 0.137 75.039 
19.335 0.143 74.905 0.973 -8.152 0.973 -8.152 0.143 74.905 
20.25 0.149 74.746 0.971 -8.53 0.971 -8.53 0.149 74.746 
21.21 0.156 74.562 0.97 -8.926 0.97 -8.926 0.156 74.562 
22.214 0.163 74.354 0.969 -9.339 0.969 -9.339 0.163 74.354 
23.266 0.171 74.12 0.967 -9.771 0.967 -9.771 0.171 74.12 
24.368 0.178 73.86 0.966 -10.222 0.966 -10.222 0.178 73.86 
25.523 0.186 73.573 0.964 -10.692 0.964 -10.692 0.186 73.573 
26.732 0.195 73.26 0.962 -11.183 0.962 -11.183 0.195 73.26 
27.998 0.204 72.919 0.96 -11.696 0.96 -11.696 0.204 72.919 
29.324 0.213 72.551 0.958 -12.23 0.958 -12.23 0.213 72.551 
30.713 0.222 72.154 0.956 -12.787 0.956 -12.787 0.222 72.154 
32.168 0.232 71.728 0.953 -13.368 0.953 -13.368 0.232 71.728 
33.692 0.242 71.272 0.95 -13.973 0.95 -13.973 0.242 71.272 
35.287 0.253 70.786 0.947 -14.603 0.947 -14.603 0.253 70.786 
36.959 0.264 70.27 0.944 -15.258 0.944 -15.258 0.264 70.27 
38.71 0.275 69.723 0.941 -15.94 0.941 -15.94 0.275 69.723 
40.543 0.287 69.144 0.937 -16.649 0.937 -16.649 0.287 69.144 
42.464 0.3 68.533 0.933 -17.386 0.933 -17.386 0.3 68.533 
44.475 0.312 67.89 0.929 -18.151 0.929 -18.151 0.312 67.89 
46.582 0.325 67.213 0.924 -18.945 0.924 -18.945 0.325 67.213 
48.788 0.339 66.504 0.919 -19.768 0.919 -19.768 0.339 66.504 
51.099 0.353 65.761 0.914 -20.621 0.914 -20.621 0.353 65.761 
53.519 0.367 64.985 0.908 -21.503 0.908 -21.503 0.367 64.985 
56.054 0.382 64.176 0.902 -22.416 0.902 -22.416 0.382 64.176 
58.71 0.397 63.332 0.895 -23.358 0.895 -23.358 0.397 63.332 
61.491 0.413 62.456 0.888 -24.331 0.888 -24.331 0.413 62.456 
64.403 0.429 61.547 0.881 -25.333 0.881 -25.333 0.429 61.547 
67.454 0.445 60.605 0.872 -26.365 0.872 -26.365 0.445 60.605 
70.649 0.461 59.631 0.864 -27.426 0.864 -27.426 0.461 59.631 
73.995 0.478 58.626 0.855 -28.516 0.855 -28.516 0.478 58.626 
77.5 0.495 57.591 0.845 -29.632 0.845 -29.632 0.495 57.591 
81.171 0.512 56.526 0.835 -30.776 0.835 -30.776 0.512 56.526 
85.016 0.53 55.434 0.824 -31.944 0.824 -31.944 0.53 55.434 
89.043 0.547 54.316 0.813 -33.136 0.813 -33.136 0.547 54.316 
93.261 0.565 53.173 0.801 -34.351 0.801 -34.351 0.565 53.173 
97.678 0.582 52.008 0.789 -35.586 0.789 -35.586 0.582 52.008 
102.305 0.6 50.822 0.776 -36.839 0.776 -36.839 0.6 50.822 
107.151 0.618 49.617 0.762 -38.109 0.762 -38.109 0.618 49.617 
112.226 0.635 48.396 0.748 -39.393 0.748 -39.393 0.635 48.396 
117.542 0.652 47.162 0.734 -40.688 0.734 -40.688 0.652 47.162 
123.11 0.669 45.917 0.719 -41.993 0.719 -41.993 0.669 45.917 
128.941 0.686 44.663 0.703 -43.304 0.703 -43.304 0.686 44.663 
135.049 0.703 43.403 0.688 -44.619 0.688 -44.619 0.703 43.403 
141.446 0.719 42.141 0.671 -45.935 0.671 -45.935 0.719 42.141 
148.145 0.735 40.879 0.655 -47.249 0.655 -47.249 0.735 40.879 
155.163 0.75 39.619 0.638 -48.56 0.638 -48.56 0.75 39.619 
162.512 0.765 38.365 0.621 -49.863 0.621 -49.863 0.765 38.365 
170.21 0.779 37.118 0.604 -51.157 0.604 -51.157 0.779 37.118 
178.272 0.793 35.882 0.586 -52.439 0.586 -52.439 0.793 35.882 
186.717 0.806 34.659 0.569 -53.706 0.569 -53.706 0.806 34.659 
195.561 0.819 33.451 0.551 -54.957 0.551 -54.957 0.819 33.451 
204.824 0.831 32.26 0.534 -56.19 0.534 -56.19 0.831 32.26 
214.526 0.843 31.089 0.517 -57.402 0.517 -57.402 0.843 31.089 
224.688 0.854 29.938 0.499 -58.593 0.499 -58.593 0.854 29.938 
235.33 0.864 28.809 0.482 -59.759 0.482 -59.759 0.864 28.809 
246.477 0.874 27.704 0.465 -60.901 0.465 -60.901 0.874 27.704 
258.152 0.883 26.624 0.448 -62.017 0.448 -62.017 0.883 26.624 
270.38 0.892 25.569 0.432 -63.105 0.432 -63.105 0.892 25.569 
283.187 0.9 24.541 0.415 -64.166 0.415 -64.166 0.9 24.541 
296.601 0.908 23.541 0.399 -65.199 0.399 -65.199 0.908 23.541 
310.65 0.915 22.568 0.384 -66.204 0.384 -66.204 0.915 22.568 
325.365 0.922 21.622 0.369 -67.179 0.369 -67.179 0.922 21.622 
340.777 0.928 20.705 0.354 -68.125 0.354 -68.125 0.928 20.705 
356.918 0.934 19.815 0.339 -69.042 0.339 -69.042 0.934 19.815 
373.824 0.939 18.954 0.325 -69.931 0.325 -69.931 0.939 18.954 
391.532 0.944 18.12 0.311 -70.791 0.311 -70.791 0.944 18.12 
410.077 0.949 17.313 0.298 -71.622 0.298 -71.622 0.949 17.313 
429.501 0.953 16.533 0.285 -72.426 0.285 -72.426 0.953 16.533 
449.846 0.957 15.779 0.272 -73.202 0.272 -73.202 0.957 15.779 
471.154 0.961 15.051 0.26 -73.951 0.26 -73.951 0.961 15.051 
493.471 0.965 14.348 0.248 -74.675 0.248 -74.675 0.965 14.348 
516.845 0.968 13.67 0.236 -75.372 0.236 -75.372 0.968 13.67 
541.327 0.971 13.015 0.225 -76.045 0.225 -76.045 0.971 13.015 
566.968 0.973 12.383 0.214 -76.694 0.214 -76.694 0.973 12.383 
593.824 0.976 11.774 0.204 -77.319 0.204 -77.319 0.976 11.774 
621.951 0.978 11.186 0.194 -77.921 0.194 -77.921 0.978 11.186 
651.411 0.98 10.618 0.184 -78.501 0.184 -78.501 0.98 10.618 
682.267 0.982 10.07 0.175 -79.06 0.175 -79.06 0.982 10.07 
714.584 0.984 9.541 0.166 -79.598 0.166 -79.598 0.984 9.541 
748.432 0.985 9.031 0.157 -80.116 0.157 -80.116 0.985 9.031 
783.883 0.987 8.537 0.148 -80.615 0.148 -80.615 0.987 8.537 
821.013 0.988 8.061 0.14 -81.094 0.14 -81.094 0.988 8.061 
859.902 0.989 7.6 0.132 -81.556 0.132 -81.556 0.989 7.6 
900.634 0.99 7.154 0.125 -81.999 0.125 -81.999 0.99 7.154 
943.294 0.991 6.722 0.117 -82.424 0.117 -82.424 0.991 6.722 
987.975 0.992 6.303 0.11 -82.832 0.11 -82.832 0.992 6.303 
1034.773 0.993 5.897 0.103 -83.223 0.103 -83.223 0.993 5.897 
1083.787 0.994 5.503 0.096 -83.596 0.096 -83.596 0.994 5.503 
1135.123 0.995 5.12 0.089 -83.951 0.089 -83.951 0.995 5.12 
1188.891 0.995 4.747 0.083 -84.287 0.083 -84.287 0.995 4.747 
1245.205 0.996 4.384 0.076 -84.603 0.076 -84.603 0.996 4.384 
1304.187 0.996 4.03 0.07 -84.898 0.07 -84.898 0.996 4.03 
1365.963 0.997 3.685 0.064 -85.168 0.064 -85.168 0.997 3.685 
1430.664 0.997 3.346 0.058 -85.41 0.058 -85.41 0.997 3.346 
1498.431 0.997 3.015 0.053 -85.617 0.053 -85.617 0.997 3.015 
1569.407 0.998 2.69 0.047 -85.78 0.047 -85.78 0.998 2.69 
1643.746 0.998 2.37 0.041 -85.886 0.041 -85.886 0.998 2.37 
1721.606 0.998 2.056 0.036 -85.911 0.036 -85.911 0.998 2.056 
1803.153 0.998 1.745 0.03 -85.816 0.03 -85.816 0.998 1.745 
1888.563 0.998 1.439 0.025 -85.529 0.025 -85.529 0.998 1.439 
1978.019 0.998 1.135 0.02 -84.901 0.02 -84.901 0.998 1.135 
2071.713 0.998 0.834 0.015 -83.571 0.015 -83.571 0.998 0.834 
2169.844 0.998 0.534 9.439e-3 -80.389 9.439e-3 -80.389 0.998 0.534 
2272.623 0.998 0.236 4.402e-3 -68.946 4.402e-3 -68.946 0.998 0.236 
2380.271 0.998 -0.062 1.975e-3 33.176 1.975e-3 33.176 0.998 -0.062 
2493.018 0.998 -0.36 6.52e-3 74.047 6.52e-3 74.047 0.998 -0.36 
2611.105 0.998 -0.658 0.012 80.11 0.012 80.11 0.998 -0.658 
2734.786 0.998 -0.958 0.017 82.23 0.017 82.23 0.998 -0.958 
2864.325 0.998 -1.26 0.022 83.172 0.022 83.172 0.998 -1.26 
3000 0.997 -1.564 0.027 83.605 0.027 83.605 0.997 -1.564 
