# MHz S MA R 50

1 844.6e-6 37.53 0.999 -0.03 0.999 -0.03 844.6e-6 37.53 
1.047 862e-6 38.685 0.999 -0.031 0.999 -0.031 862e-6 38.685 
1.096 880.5e-6 39.848 0.999 -0.032 0.999 -0.032 880.5e-6 39.848 
1.148 900.2e-6 41.016 0.999 -0.034 0.999 -0.034 900.2e-6 41.016 
1.202 921.1e-6 42.189 0.999 -0.035 0.999 -0.035 921.1e-6 42.189 
1.259 943.3e-6 43.365 0.999 -0.037 0.999 -0.037 943.3e-6 43.365 
1.318 967e-6 44.54 0.999 -0.039 0.999 -0.039 967e-6 44.54 
1.38 992.1e-6 45.713 0.999 -0.041 0.999 -0.041 992.1e-6 45.713 
1.445 1.019e-3 46.882 0.999 -0.043 0.999 -0.043 1.019e-3 46.882 
1.514 1.047e-3 48.045 0.999 -0.045 0.999 -0.045 1.047e-3 48.045 
1.585 1.077e-3 49.201 0.999 -0.047 0.999 -0.047 1.077e-3 49.201 
1.66 1.109e-3 50.347 0.999 -0.049 0.999 -0.049 1.109e-3 50.347 
1.738 1.143e-3 51.481 0.999 -0.051 0.999 -0.051 1.143e-3 51.481 
1.82 1.178e-3 52.602 0.999 -0.054 0.999 -0.054 1.178e-3 52.602 
1.905 1.216e-3 53.708 0.999 -0.056 0.999 -0.056 1.216e-3 53.708 
1.995 1.256e-3 54.799 0.999 -0.059 0.999 -0.059 1.256e-3 54.799 
2.089 1.299e-3 55.871 0.999 -0.062 0.999 -0.062 1.299e-3 55.871 
2.188 1.343e-3 56.925 0.999 -0.065 0.999 -0.065 1.343e-3 56.925 
2.291 1.39e-3 57.959 0.999 -0.068 0.999 -0.068 1.39e-3 57.959 
2.399 1.44e-3 58.973 0.999 -0.071 0.999 -0.071 1.44e-3 58.973 
2.512 1.493e-3 59.964 0.999 -0.074 0.999 -0.074 1.493e-3 59.964 
2.63 1.548e-3 60.934 0.999 -0.078 0.999 -0.078 1.548e-3 60.934 
2.754 1.607e-3 61.88 0.999 -0.081 0.999 -0.081 1.607e-3 61.88 
2.884 1.668e-3 62.803 0.999 -0.085 0.999 -0.085 1.668e-3 62.803 
3.02 1.733e-3 63.702 0.999 -0.089 0.999 -0.089 1.733e-3 63.702 
3.162 1.801e-3 64.577 0.999 -0.093 0.999 -0.093 1.801e-3 64.577 
3.311 1.873e-3 65.428 0.999 -0.098 0.999 -0.098 1.873e-3 65.428 
3.467 1.949e-3 66.255 0.999 -0.102 0.999 -0.102 1.949e-3 66.255 
3.631 2.028e-3 67.058 0.999 -0.107 0.999 -0.107 2.028e-3 67.058 
3.802 2.112e-3 67.836 0.999 -0.112 0.999 -0.112 2.112e-3 67.836 
3.981 2.2e-3 68.59 0.999 -0.117 0.999 -0.117 2.2e-3 68.59 
4.169 2.292e-3 69.321 0.999 -0.123 0.999 -0.123 2.292e-3 69.321 
4.365 2.389e-3 70.028 0.999 -0.129 0.999 -0.129 2.389e-3 70.028 
4.571 2.491e-3 70.712 0.999 -0.135 0.999 -0.135 2.491e-3 70.712 
4.786 2.598e-3 71.374 0.999 -0.141 0.999 -0.141 2.598e-3 71.374 
5.012 2.71e-3 72.013 0.999 -0.148 0.999 -0.148 2.71e-3 72.013 
5.248 2.828e-3 72.63 0.999 -0.155 0.999 -0.155 2.828e-3 72.63 
5.495 2.952e-3 73.225 0.999 -0.162 0.999 -0.162 2.952e-3 73.225 
5.754 3.082e-3 73.8 0.999 -0.17 0.999 -0.17 3.082e-3 73.8 
6.026 3.218e-3 74.354 0.999 -0.178 0.999 -0.178 3.218e-3 74.354 
6.31 3.361e-3 74.888 0.999 -0.186 0.999 -0.186 3.361e-3 74.888 
6.607 3.511e-3 75.403 0.999 -0.195 0.999 -0.195 3.511e-3 75.403 
6.918 3.669e-3 75.899 0.999 -0.204 0.999 -0.204 3.669e-3 75.899 
7.244 3.834e-3 76.376 0.999 -0.214 0.999 -0.214 3.834e-3 76.376 
7.586 4.007e-3 76.836 0.999 -0.224 0.999 -0.224 4.007e-3 76.836 
7.943 4.188e-3 77.278 0.999 -0.234 0.999 -0.234 4.188e-3 77.278 
8.318 4.378e-3 77.703 0.999 -0.245 0.999 -0.245 4.378e-3 77.703 
8.71 4.577e-3 78.112 0.999 -0.257 0.999 -0.257 4.577e-3 78.112 
9.12 4.786e-3 78.505 0.999 -0.269 0.999 -0.269 4.786e-3 78.505 
9.55 5.005e-3 78.883 0.999 -0.282 0.999 -0.282 5.005e-3 78.883 
10 5.234e-3 79.246 0.999 -0.295 0.999 -0.295 5.234e-3 79.246 
10.471 5.475e-3 79.595 0.999 -0.309 0.999 -0.309 5.475e-3 79.595 
10.965 5.726e-3 79.929 0.999 -0.323 0.999 -0.323 5.726e-3 79.929 
11.482 5.99e-3 80.25 0.999 -0.339 0.999 -0.339 5.99e-3 80.25 
12.023 6.267e-3 80.558 0.999 -0.355 0.999 -0.355 6.267e-3 80.558 
12.589 6.556e-3 80.853 0.999 -0.371 0.999 -0.371 6.556e-3 80.853 
13.183 6.86e-3 81.137 0.999 -0.389 0.999 -0.389 6.86e-3 81.137 
13.804 7.178e-3 81.408 0.999 -0.407 0.999 -0.407 7.178e-3 81.408 
14.454 7.511e-3 81.667 0.999 -0.426 0.999 -0.426 7.511e-3 81.667 
15.136 7.86e-3 81.916 0.999 -0.446 0.999 -0.446 7.86e-3 81.916 
15.849 8.225e-3 82.153 0.999 -0.467 0.999 -0.467 8.225e-3 82.153 
16.596 8.608e-3 82.38 0.999 -0.489 0.999 -0.489 8.608e-3 82.38 
17.378 9.009e-3 82.597 0.999 -0.512 0.999 -0.512 9.009e-3 82.597 
18.197 9.428e-3 82.804 0.999 -0.537 0.999 -0.537 9.428e-3 82.804 
19.055 9.868e-3 83.002 0.999 -0.562 0.999 -0.562 9.868e-3 83.002 
19.953 0.01 83.19 0.999 -0.588 0.999 -0.588 0.01 83.19 
20.893 0.011 83.369 0.999 -0.616 0.999 -0.616 0.011 83.369 
21.878 0.011 83.539 0.999 -0.645 0.999 -0.645 0.011 83.539 
22.909 0.012 83.701 0.999 -0.675 0.999 -0.675 0.012 83.701 
23.988 0.012 83.854 0.999 -0.707 0.999 -0.707 0.012 83.854 
25.119 0.013 83.999 0.999 -0.741 0.999 -0.741 0.013 83.999 
26.303 0.014 84.136 0.999 -0.775 0.999 -0.775 0.014 84.136 
27.542 0.014 84.265 0.999 -0.812 0.999 -0.812 0.014 84.265 
28.84 0.015 84.387 0.999 -0.85 0.999 -0.85 0.015 84.387 
30.2 0.016 84.5 0.999 -0.89 0.999 -0.89 0.016 84.5 
31.623 0.016 84.607 0.999 -0.932 0.999 -0.932 0.016 84.607 
33.113 0.017 84.706 0.999 -0.976 0.999 -0.976 0.017 84.706 
34.674 0.018 84.798 0.999 -1.022 0.999 -1.022 0.018 84.798 
36.308 0.019 84.883 0.999 -1.07 0.999 -1.07 0.019 84.883 
38.019 0.02 84.961 0.998 -1.121 0.998 -1.121 0.02 84.961 
39.811 0.021 85.032 0.998 -1.173 0.998 -1.173 0.021 85.032 
41.687 0.021 85.097 0.998 -1.229 0.998 -1.229 0.021 85.097 
43.652 0.022 85.154 0.998 -1.287 0.998 -1.287 0.022 85.154 
45.709 0.024 85.205 0.998 -1.347 0.998 -1.347 0.024 85.205 
47.863 0.025 85.249 0.998 -1.411 0.998 -1.411 0.025 85.249 
50.119 0.026 85.286 0.998 -1.477 0.998 -1.477 0.026 85.286 
52.481 0.027 85.317 0.998 -1.547 0.998 -1.547 0.027 85.317 
54.954 0.028 85.34 0.998 -1.619 0.998 -1.619 0.028 85.34 
57.544 0.03 85.358 0.998 -1.696 0.998 -1.696 0.03 85.358 
60.256 0.031 85.368 0.998 -1.776 0.998 -1.776 0.031 85.368 
63.096 0.032 85.371 0.998 -1.859 0.998 -1.859 0.032 85.371 
66.069 0.034 85.368 0.998 -1.947 0.998 -1.947 0.034 85.368 
69.183 0.036 85.357 0.998 -2.038 0.998 -2.038 0.036 85.357 
72.444 0.037 85.34 0.998 -2.134 0.998 -2.134 0.037 85.34 
75.858 0.039 85.315 0.998 -2.235 0.998 -2.235 0.039 85.315 
79.433 0.041 85.283 0.997 -2.34 0.997 -2.34 0.041 85.283 
83.176 0.043 85.244 0.997 -2.45 0.997 -2.45 0.043 85.244 
87.096 0.045 85.197 0.997 -2.565 0.997 -2.565 0.045 85.197 
91.201 0.047 85.143 0.997 -2.686 0.997 -2.686 0.047 85.143 
95.499 0.049 85.081 0.997 -2.812 0.997 -2.812 0.049 85.081 
100 0.051 85.01 0.997 -2.944 0.997 -2.944 0.051 85.01 
104.713 0.054 84.932 0.997 -3.083 0.997 -3.083 0.054 84.932 
109.648 0.056 84.845 0.997 -3.228 0.997 -3.228 0.056 84.845 
114.815 0.059 84.749 0.996 -3.379 0.996 -3.379 0.059 84.749 
120.226 0.062 84.644 0.996 -3.538 0.996 -3.538 0.062 84.644 
125.893 0.065 84.531 0.996 -3.704 0.996 -3.704 0.065 84.531 
131.826 0.068 84.407 0.996 -3.878 0.996 -3.878 0.068 84.407 
138.038 0.071 84.274 0.995 -4.061 0.995 -4.061 0.071 84.274 
144.544 0.074 84.131 0.995 -4.251 0.995 -4.251 0.074 84.131 
151.356 0.078 83.978 0.995 -4.451 0.995 -4.451 0.078 83.978 
158.489 0.081 83.813 0.995 -4.659 0.995 -4.659 0.081 83.813 
165.959 0.085 83.638 0.994 -4.878 0.994 -4.878 0.085 83.638 
173.78 0.089 83.451 0.994 -5.107 0.994 -5.107 0.089 83.451 
181.97 0.093 83.252 0.993 -5.346 0.993 -5.346 0.093 83.252 
190.546 0.098 83.041 0.993 -5.596 0.993 -5.596 0.098 83.041 
199.526 0.102 82.817 0.992 -5.858 0.992 -5.858 0.102 82.817 
208.93 0.107 82.58 0.992 -6.132 0.992 -6.132 0.107 82.58 
218.776 0.112 82.329 0.991 -6.419 0.991 -6.419 0.112 82.329 
229.087 0.117 82.064 0.991 -6.719 0.991 -6.719 0.117 82.064 
239.883 0.122 81.784 0.99 -7.032 0.99 -7.032 0.122 81.784 
251.189 0.128 81.488 0.989 -7.36 0.989 -7.36 0.128 81.488 
263.027 0.134 81.177 0.988 -7.703 0.988 -7.703 0.134 81.177 
275.423 0.14 80.849 0.987 -8.062 0.987 -8.062 0.14 80.849 
288.403 0.147 80.503 0.986 -8.437 0.986 -8.437 0.147 80.503 
301.995 0.153 80.14 0.985 -8.828 0.985 -8.828 0.153 80.14 
316.228 0.161 79.759 0.984 -9.238 0.984 -9.238 0.161 79.759 
331.131 0.168 79.358 0.983 -9.666 0.983 -9.666 0.168 79.358 
346.737 0.176 78.937 0.982 -10.113 0.982 -10.113 0.176 78.937 
363.078 0.184 78.496 0.98 -10.579 0.98 -10.579 0.184 78.496 
380.189 0.192 78.033 0.978 -11.067 0.978 -11.067 0.192 78.033 
398.107 0.201 77.548 0.977 -11.576 0.977 -11.576 0.201 77.548 
416.869 0.21 77.04 0.975 -12.107 0.975 -12.107 0.21 77.04 
436.516 0.219 76.508 0.973 -12.661 0.973 -12.661 0.219 76.508 
457.088 0.229 75.952 0.97 -13.239 0.97 -13.239 0.229 75.952 
478.63 0.239 75.371 0.968 -13.841 0.968 -13.841 0.239 75.371 
501.187 0.25 74.763 0.965 -14.469 0.965 -14.469 0.25 74.763 
524.807 0.261 74.129 0.962 -15.123 0.962 -15.123 0.261 74.129 
549.541 0.272 73.467 0.959 -15.805 0.959 -15.805 0.272 73.467 
575.44 0.284 72.777 0.955 -16.514 0.955 -16.514 0.284 72.777 
602.56 0.297 72.058 0.951 -17.251 0.951 -17.251 0.297 72.058 
630.957 0.309 71.309 0.947 -18.018 0.947 -18.018 0.309 71.309 
660.693 0.323 70.529 0.943 -18.815 0.943 -18.815 0.323 70.529 
691.831 0.336 69.718 0.938 -19.642 0.938 -19.642 0.336 69.718 
724.436 0.35 68.876 0.933 -20.5 0.933 -20.5 0.35 68.876 
758.578 0.365 68.002 0.927 -21.39 0.927 -21.39 0.365 68.002 
794.328 0.38 67.095 0.921 -22.312 0.921 -22.312 0.38 67.095 
831.764 0.395 66.156 0.915 -23.266 0.915 -23.266 0.395 66.156 
870.964 0.411 65.184 0.908 -24.252 0.908 -24.252 0.411 65.184 
912.011 0.427 64.178 0.9 -25.271 0.9 -25.271 0.427 64.178 
954.993 0.443 63.14 0.892 -26.322 0.892 -26.322 0.443 63.14 
1000 0.46 62.069 0.884 -27.406 0.884 -27.406 0.46 62.069 
1047.129 0.478 60.966 0.874 -28.521 0.874 -28.521 0.478 60.966 
1096.478 0.495 59.831 0.865 -29.668 0.865 -29.668 0.495 59.831 
1148.154 0.513 58.665 0.854 -30.846 0.854 -30.846 0.513 58.665 
1202.264 0.531 57.469 0.843 -32.053 0.843 -32.053 0.531 57.469 
1258.925 0.549 56.243 0.831 -33.289 0.831 -33.289 0.549 56.243 
1318.257 0.567 54.99 0.819 -34.552 0.819 -34.552 0.567 54.99 
1380.384 0.586 53.71 0.806 -35.842 0.806 -35.842 0.586 53.71 
1445.44 0.604 52.405 0.792 -37.156 0.792 -37.156 0.604 52.405 
1513.561 0.622 51.078 0.778 -38.492 0.778 -38.492 0.622 51.078 
1584.893 0.641 49.729 0.763 -39.849 0.763 -39.849 0.641 49.729 
1659.587 0.659 48.361 0.747 -41.224 0.747 -41.224 0.659 48.361 
1737.801 0.677 46.976 0.731 -42.616 0.731 -42.616 0.677 46.976 
1819.701 0.695 45.577 0.714 -44.021 0.714 -44.021 0.695 45.577 
1905.461 0.713 44.166 0.697 -45.438 0.697 -45.438 0.713 44.166 
1995.262 0.73 42.745 0.679 -46.863 0.679 -46.863 0.73 42.745 
2089.296 0.747 41.317 0.66 -48.295 0.66 -48.295 0.747 41.317 
2187.762 0.763 39.885 0.641 -49.73 0.641 -49.73 0.763 39.885 
2290.868 0.779 38.451 0.622 -51.166 0.622 -51.166 0.779 38.451 
2398.833 0.794 37.017 0.602 -52.6 0.602 -52.6 0.794 37.017 
2511.886 0.809 35.587 0.582 -54.031 0.582 -54.031 0.809 35.587 
2630.268 0.824 34.161 0.562 -55.454 0.562 -55.454 0.824 34.161 
2754.229 0.837 32.743 0.541 -56.869 0.541 -56.869 0.837 32.743 
2884.032 0.851 31.334 0.52 -58.273 0.52 -58.273 0.851 31.334 
3019.952 0.863 29.935 0.499 -59.664 0.499 -59.664 0.863 29.935 
3162.278 0.875 28.55 0.478 -61.039 0.478 -61.039 0.875 28.55 
3311.311 0.886 27.178 0.457 -62.398 0.457 -62.398 0.886 27.178 
3467.369 0.897 25.822 0.436 -63.738 0.436 -63.738 0.897 25.822 
3630.781 0.907 24.482 0.414 -65.057 0.414 -65.057 0.907 24.482 
3801.894 0.916 23.159 0.393 -66.355 0.393 -66.355 0.916 23.159 
3981.072 0.925 21.853 0.372 -67.63 0.372 -67.63 0.925 21.853 
4168.694 0.933 20.566 0.351 -68.88 0.351 -68.88 0.933 20.566 
4365.158 0.94 19.297 0.33 -70.104 0.33 -70.104 0.94 19.297 
4570.882 0.947 18.046 0.31 -71.299 0.31 -71.299 0.947 18.046 
4786.301 0.954 16.812 0.289 -72.465 0.289 -72.465 0.954 16.812 
5011.872 0.959 15.597 0.269 -73.597 0.269 -73.597 0.959 15.597 
5248.075 0.965 14.399 0.249 -74.693 0.249 -74.693 0.965 14.399 
5495.409 0.969 13.217 0.229 -75.748 0.229 -75.748 0.969 13.217 
5754.399 0.974 12.051 0.209 -76.755 0.209 -76.755 0.974 12.051 
6025.596 0.977 10.901 0.189 -77.705 0.189 -77.705 0.977 10.901 
6309.573 0.981 9.764 0.17 -78.584 0.17 -78.584 0.981 9.764 
6606.934 0.983 8.64 0.15 -79.372 0.15 -79.372 0.983 8.64 
6918.31 0.986 7.528 0.131 -80.033 0.131 -80.033 0.986 7.528 
7244.36 0.988 6.427 0.112 -80.51 0.112 -80.51 0.988 6.427 
7585.776 0.989 5.336 0.093 -80.699 0.093 -80.699 0.989 5.336 
7943.282 0.99 4.253 0.074 -80.391 0.074 -80.391 0.99 4.253 
8317.638 0.991 3.177 0.056 -79.102 0.056 -79.102 0.991 3.177 
8709.636 0.991 2.107 0.038 -75.418 0.038 -75.418 0.991 2.107 
9120.108 0.991 1.041 0.02 -63.079 0.02 -63.079 0.991 1.041 
9549.926 0.99 -0.021 9.577e-3 2.148 9.577e-3 2.148 0.99 -0.021 
10000 0.989 -1.081 0.022 60.06 0.022 60.06 0.989 -1.081 
