# MHz S MA R 50

1 2.454e-3 35.904 0.998 -0.083 0.998 -0.083 2.454e-3 35.904 
1.047 2.504e-3 37.007 0.998 -0.087 0.998 -0.087 2.504e-3 37.007 
1.097 2.557e-3 38.118 0.998 -0.091 0.998 -0.091 2.557e-3 38.118 
1.148 2.613e-3 39.238 0.998 -0.095 0.998 -0.095 2.613e-3 39.238 
1.202 2.672e-3 40.362 0.998 -0.099 0.998 -0.099 2.672e-3 40.362 
1.259 2.735e-3 41.491 0.998 -0.104 0.998 -0.104 2.735e-3 41.491 
1.319 2.802e-3 42.623 0.998 -0.109 0.998 -0.109 2.802e-3 42.623 
1.381 2.873e-3 43.754 0.998 -0.114 0.998 -0.114 2.873e-3 43.754 
1.446 2.949e-3 44.884 0.998 -0.119 0.998 -0.119 2.949e-3 44.884 
1.514 3.028e-3 46.011 0.998 -0.125 0.998 -0.125 3.028e-3 46.011 
1.585 3.113e-3 47.132 0.998 -0.131 0.998 -0.131 3.113e-3 47.132 
1.66 3.202e-3 48.247 0.998 -0.137 0.998 -0.137 3.202e-3 48.247 
1.739 3.297e-3 49.353 0.998 -0.144 0.998 -0.144 3.297e-3 49.353 
1.821 3.397e-3 50.449 0.998 -0.15 0.998 -0.15 3.397e-3 50.449 
1.906 3.503e-3 51.533 0.998 -0.158 0.998 -0.158 3.503e-3 51.533 
1.996 3.616e-3 52.604 0.998 -0.165 0.998 -0.165 3.616e-3 52.604 
2.091 3.734e-3 53.66 0.998 -0.173 0.998 -0.173 3.734e-3 53.66 
2.189 3.859e-3 54.7 0.998 -0.181 0.998 -0.181 3.859e-3 54.7 
2.292 3.991e-3 55.723 0.998 -0.189 0.998 -0.189 3.991e-3 55.723 
2.4 4.13e-3 56.728 0.998 -0.198 0.998 -0.198 4.13e-3 56.728 
2.514 4.277e-3 57.714 0.998 -0.208 0.998 -0.208 4.277e-3 57.714 
2.632 4.432e-3 58.68 0.998 -0.217 0.998 -0.217 4.432e-3 58.68 
2.756 4.596e-3 59.625 0.998 -0.228 0.998 -0.228 4.596e-3 59.625 
2.886 4.768e-3 60.549 0.998 -0.238 0.998 -0.238 4.768e-3 60.549 
3.023 4.949e-3 61.451 0.998 -0.25 0.998 -0.25 4.949e-3 61.451 
3.165 5.14e-3 62.331 0.998 -0.261 0.998 -0.261 5.14e-3 62.331 
3.314 5.341e-3 63.188 0.998 -0.274 0.998 -0.274 5.341e-3 63.188 
3.471 5.552e-3 64.023 0.998 -0.287 0.998 -0.287 5.552e-3 64.023 
3.634 5.775e-3 64.835 0.998 -0.3 0.998 -0.3 5.775e-3 64.835 
3.806 6.009e-3 65.624 0.998 -0.314 0.998 -0.314 6.009e-3 65.624 
3.985 6.254e-3 66.389 0.998 -0.329 0.998 -0.329 6.254e-3 66.389 
4.173 6.513e-3 67.132 0.997 -0.345 0.997 -0.345 6.513e-3 67.132 
4.37 6.784e-3 67.852 0.997 -0.361 0.997 -0.361 6.784e-3 67.852 
4.576 7.069e-3 68.55 0.997 -0.378 0.997 -0.378 7.069e-3 68.55 
4.792 7.369e-3 69.225 0.997 -0.396 0.997 -0.396 7.369e-3 69.225 
5.018 7.683e-3 69.878 0.997 -0.414 0.997 -0.414 7.683e-3 69.878 
5.255 8.013e-3 70.509 0.997 -0.434 0.997 -0.434 8.013e-3 70.509 
5.503 8.36e-3 71.119 0.997 -0.454 0.997 -0.454 8.36e-3 71.119 
5.762 8.723e-3 71.708 0.997 -0.476 0.997 -0.476 8.723e-3 71.708 
6.034 9.105e-3 72.276 0.997 -0.498 0.997 -0.498 9.105e-3 72.276 
6.319 9.505e-3 72.823 0.997 -0.522 0.997 -0.522 9.505e-3 72.823 
6.617 9.925e-3 73.351 0.997 -0.546 0.997 -0.546 9.925e-3 73.351 
6.929 0.01 73.859 0.997 -0.572 0.997 -0.572 0.01 73.859 
7.256 0.011 74.348 0.997 -0.599 0.997 -0.599 0.011 74.348 
7.598 0.011 74.819 0.997 -0.627 0.997 -0.627 0.011 74.819 
7.956 0.012 75.271 0.997 -0.657 0.997 -0.657 0.012 75.271 
8.332 0.012 75.705 0.997 -0.688 0.997 -0.688 0.012 75.705 
8.725 0.013 76.122 0.997 -0.72 0.997 -0.72 0.013 76.122 
9.136 0.013 76.522 0.997 -0.754 0.997 -0.754 0.013 76.522 
9.567 0.014 76.906 0.997 -0.79 0.997 -0.79 0.014 76.906 
10.018 0.015 77.273 0.997 -0.827 0.997 -0.827 0.015 77.273 
10.491 0.015 77.625 0.997 -0.866 0.997 -0.866 0.015 77.625 
10.986 0.016 77.961 0.997 -0.907 0.997 -0.907 0.016 77.961 
11.504 0.017 78.282 0.997 -0.949 0.997 -0.949 0.017 78.282 
12.046 0.018 78.588 0.997 -0.994 0.997 -0.994 0.018 78.588 
12.615 0.018 78.88 0.997 -1.041 0.997 -1.041 0.018 78.88 
13.21 0.019 79.158 0.997 -1.09 0.997 -1.09 0.019 79.158 
13.833 0.02 79.422 0.996 -1.141 0.996 -1.141 0.02 79.422 
14.485 0.021 79.673 0.996 -1.195 0.996 -1.195 0.021 79.673 
15.168 0.022 79.91 0.996 -1.251 0.996 -1.251 0.022 79.91 
15.884 0.023 80.135 0.996 -1.31 0.996 -1.31 0.023 80.135 
16.633 0.024 80.347 0.996 -1.372 0.996 -1.372 0.024 80.347 
17.417 0.025 80.546 0.996 -1.437 0.996 -1.437 0.025 80.546 
18.239 0.026 80.734 0.996 -1.504 0.996 -1.504 0.026 80.734 
19.099 0.028 80.909 0.996 -1.575 0.996 -1.575 0.028 80.909 
20 0.029 81.072 0.996 -1.649 0.996 -1.649 0.029 81.072 
20.943 0.03 81.224 0.996 -1.727 0.996 -1.727 0.03 81.224 
21.931 0.032 81.364 0.996 -1.808 0.996 -1.808 0.032 81.364 
22.966 0.033 81.492 0.996 -1.894 0.996 -1.894 0.033 81.492 
24.049 0.035 81.61 0.996 -1.983 0.996 -1.983 0.035 81.61 
25.183 0.036 81.715 0.995 -2.076 0.995 -2.076 0.036 81.715 
26.371 0.038 81.81 0.995 -2.174 0.995 -2.174 0.038 81.81 
27.615 0.04 81.893 0.995 -2.276 0.995 -2.276 0.04 81.893 
28.917 0.042 81.966 0.995 -2.383 0.995 -2.383 0.042 81.966 
30.281 0.044 82.027 0.995 -2.495 0.995 -2.495 0.044 82.027 
31.709 0.046 82.077 0.995 -2.613 0.995 -2.613 0.046 82.077 
33.205 0.048 82.116 0.995 -2.736 0.995 -2.736 0.048 82.116 
34.771 0.05 82.143 0.994 -2.864 0.994 -2.864 0.05 82.143 
36.411 0.053 82.16 0.994 -2.999 0.994 -2.999 0.053 82.16 
38.129 0.055 82.164 0.994 -3.14 0.994 -3.14 0.055 82.164 
39.927 0.058 82.158 0.994 -3.288 0.994 -3.288 0.058 82.158 
41.81 0.06 82.14 0.994 -3.442 0.994 -3.442 0.06 82.14 
43.782 0.063 82.11 0.993 -3.604 0.993 -3.604 0.063 82.11 
45.847 0.066 82.068 0.993 -3.773 0.993 -3.773 0.066 82.068 
48.01 0.069 82.014 0.993 -3.95 0.993 -3.95 0.069 82.014 
50.274 0.072 81.947 0.992 -4.136 0.992 -4.136 0.072 81.947 
52.646 0.076 81.869 0.992 -4.33 0.992 -4.33 0.076 81.869 
55.129 0.079 81.777 0.992 -4.533 0.992 -4.533 0.079 81.777 
57.729 0.083 81.672 0.991 -4.745 0.991 -4.745 0.083 81.672 
60.452 0.087 81.554 0.991 -4.968 0.991 -4.968 0.087 81.554 
63.303 0.091 81.422 0.991 -5.2 0.991 -5.2 0.091 81.422 
66.289 0.095 81.276 0.99 -5.444 0.99 -5.444 0.095 81.276 
69.416 0.099 81.116 0.99 -5.699 0.99 -5.699 0.099 81.116 
72.69 0.104 80.941 0.989 -5.965 0.989 -5.965 0.104 80.941 
76.118 0.109 80.75 0.988 -6.244 0.988 -6.244 0.109 80.75 
79.709 0.114 80.544 0.988 -6.535 0.988 -6.535 0.114 80.544 
83.468 0.119 80.322 0.987 -6.84 0.987 -6.84 0.119 80.322 
87.405 0.125 80.084 0.986 -7.159 0.986 -7.159 0.125 80.084 
91.528 0.131 79.828 0.985 -7.493 0.985 -7.493 0.131 79.828 
95.845 0.137 79.555 0.984 -7.841 0.984 -7.841 0.137 79.555 
100.366 0.143 79.263 0.983 -8.206 0.983 -8.206 0.143 79.263 
105.099 0.149 78.953 0.982 -8.587 0.982 -8.587 0.149 78.953 
110.057 0.156 78.623 0.981 -8.985 0.981 -8.985 0.156 78.623 
115.248 0.163 78.274 0.98 -9.401 0.98 -9.401 0.163 78.274 
120.684 0.171 77.903 0.979 -9.835 0.979 -9.835 0.171 77.903 
126.376 0.179 77.512 0.977 -10.289 0.977 -10.289 0.179 77.512 
132.337 0.187 77.098 0.975 -10.763 0.975 -10.763 0.187 77.098 
138.578 0.195 76.662 0.974 -11.258 0.974 -11.258 0.195 76.662 
145.115 0.204 76.203 0.972 -11.774 0.972 -11.774 0.204 76.203 
151.959 0.213 75.719 0.97 -12.313 0.97 -12.313 0.213 75.719 
159.127 0.223 75.211 0.967 -12.874 0.967 -12.874 0.223 75.211 
166.632 0.233 74.677 0.965 -13.46 0.965 -13.46 0.233 74.677 
174.492 0.243 74.116 0.962 -14.07 0.962 -14.07 0.243 74.116 
182.722 0.254 73.529 0.959 -14.706 0.959 -14.706 0.254 73.529 
191.34 0.265 72.914 0.956 -15.368 0.956 -15.368 0.265 72.914 
200.365 0.277 72.271 0.953 -16.058 0.953 -16.058 0.277 72.271 
209.816 0.289 71.598 0.949 -16.775 0.949 -16.775 0.289 71.598 
219.712 0.301 70.896 0.945 -17.52 0.945 -17.52 0.301 70.896 
230.075 0.314 70.163 0.941 -18.294 0.941 -18.294 0.314 70.163 
240.927 0.327 69.399 0.936 -19.098 0.936 -19.098 0.327 69.399 
252.291 0.341 68.604 0.931 -19.933 0.931 -19.933 0.341 68.604 
264.191 0.355 67.778 0.926 -20.798 0.926 -20.798 0.355 67.778 
276.652 0.37 66.918 0.92 -21.694 0.92 -21.694 0.37 66.918 
289.7 0.385 66.027 0.914 -22.621 0.914 -22.621 0.385 66.027 
303.365 0.4 65.102 0.907 -23.58 0.907 -23.58 0.4 65.102 
317.673 0.416 64.145 0.9 -24.571 0.9 -24.571 0.416 64.145 
332.657 0.432 63.156 0.892 -25.593 0.892 -25.593 0.432 63.156 
348.347 0.449 62.134 0.884 -26.647 0.884 -26.647 0.449 62.134 
364.778 0.465 61.08 0.875 -27.732 0.875 -27.732 0.465 61.08 
381.983 0.483 59.994 0.866 -28.847 0.866 -28.847 0.483 59.994 
400 0.5 58.878 0.856 -29.992 0.856 -29.992 0.5 58.878 
418.867 0.518 57.732 0.846 -31.167 0.846 -31.167 0.518 57.732 
438.623 0.535 56.556 0.835 -32.369 0.835 -32.369 0.535 56.556 
459.312 0.553 55.354 0.823 -33.598 0.823 -33.598 0.553 55.354 
480.976 0.572 54.125 0.81 -34.852 0.81 -34.852 0.572 54.125 
503.662 0.59 52.871 0.797 -36.13 0.797 -36.13 0.59 52.871 
527.418 0.608 51.594 0.784 -37.431 0.784 -37.431 0.608 51.594 
552.295 0.626 50.297 0.769 -38.751 0.769 -38.751 0.626 50.297 
578.345 0.644 48.981 0.755 -40.089 0.755 -40.089 0.644 48.981 
605.623 0.662 47.649 0.739 -41.442 0.739 -41.442 0.662 47.649 
634.189 0.68 46.302 0.723 -42.809 0.723 -42.809 0.68 46.302 
664.101 0.697 44.944 0.706 -44.187 0.706 -44.187 0.697 44.944 
695.425 0.714 43.576 0.689 -45.573 0.689 -45.573 0.714 43.576 
728.226 0.731 42.202 0.672 -46.965 0.672 -46.965 0.731 42.202 
762.574 0.747 40.824 0.654 -48.36 0.654 -48.36 0.747 40.824 
798.542 0.763 39.445 0.635 -49.755 0.635 -49.755 0.763 39.445 
836.206 0.779 38.067 0.617 -51.148 0.617 -51.148 0.779 38.067 
875.648 0.794 36.692 0.598 -52.537 0.598 -52.537 0.794 36.692 
916.949 0.808 35.324 0.578 -53.919 0.578 -53.919 0.808 35.324 
960.199 0.822 33.963 0.559 -55.291 0.559 -55.291 0.822 33.963 
1005.488 0.835 32.613 0.539 -56.652 0.539 -56.652 0.835 32.613 
1052.914 0.848 31.276 0.519 -57.999 0.519 -57.999 0.848 31.276 
1102.576 0.86 29.952 0.499 -59.331 0.499 -59.331 0.86 29.952 
1154.581 0.872 28.644 0.479 -60.645 0.479 -60.645 0.872 28.644 
1209.039 0.883 27.353 0.46 -61.942 0.46 -61.942 0.883 27.353 
1266.065 0.893 26.08 0.44 -63.218 0.44 -63.218 0.893 26.08 
1325.782 0.902 24.826 0.42 -64.473 0.42 -64.473 0.902 24.826 
1388.314 0.912 23.592 0.4 -65.705 0.4 -65.705 0.912 23.592 
1453.797 0.92 22.378 0.381 -66.915 0.381 -66.915 0.92 22.378 
1522.368 0.928 21.185 0.361 -68.1 0.361 -68.1 0.928 21.185 
1594.173 0.935 20.014 0.342 -69.262 0.342 -69.262 0.935 20.014 
1669.365 0.942 18.863 0.323 -70.397 0.323 -70.397 0.942 18.863 
1748.103 0.948 17.733 0.305 -71.508 0.305 -71.508 0.948 17.733 
1830.556 0.954 16.624 0.286 -72.591 0.286 -72.591 0.954 16.624 
1916.897 0.96 15.534 0.268 -73.648 0.268 -73.648 0.96 15.534 
2007.311 0.965 14.464 0.25 -74.676 0.25 -74.676 0.965 14.464 
2101.989 0.969 13.413 0.232 -75.675 0.232 -75.675 0.969 13.413 
2201.133 0.973 12.38 0.214 -76.642 0.214 -76.642 0.973 12.38 
2304.953 0.977 11.364 0.197 -77.576 0.197 -77.576 0.977 11.364 
2413.671 0.98 10.365 0.18 -78.471 0.18 -78.471 0.98 10.365 
2527.516 0.983 9.38 0.163 -79.324 0.163 -79.324 0.983 9.38 
2646.73 0.986 8.409 0.146 -80.124 0.146 -80.124 0.986 8.409 
2771.568 0.988 7.451 0.13 -80.858 0.13 -80.858 0.988 7.451 
2902.294 0.99 6.504 0.113 -81.505 0.113 -81.505 0.99 6.504 
3039.186 0.991 5.568 0.097 -82.027 0.097 -82.027 0.991 5.568 
3182.534 0.992 4.64 0.081 -82.359 0.081 -82.359 0.992 4.64 
3332.644 0.993 3.72 0.065 -82.366 0.065 -82.366 0.993 3.72 
3489.834 0.994 2.807 0.049 -81.746 0.049 -81.746 0.994 2.807 
3654.438 0.995 1.898 0.033 -79.628 0.033 -79.628 0.995 1.898 
3826.806 0.995 0.993 0.018 -72.194 0.018 -72.194 0.995 0.993 
4007.304 0.994 0.09 5.799e-3 -15.709 5.799e-3 -15.709 0.994 0.09 
4196.316 0.994 -0.811 0.015 66.341 0.015 66.341 0.994 -0.811 
4394.242 0.993 -1.713 0.031 76.21 0.031 76.21 0.993 -1.713 
4601.504 0.992 -2.617 0.046 78.817 0.046 78.817 0.992 -2.617 
4818.542 0.991 -3.524 0.062 79.601 0.062 79.601 0.991 -3.524 
5045.817 0.989 -4.435 0.078 79.657 0.078 79.657 0.989 -4.435 
5283.812 0.987 -5.352 0.094 79.347 0.094 79.347 0.987 -5.352 
5533.032 0.985 -6.275 0.11 78.825 0.11 78.825 0.985 -6.275 
5794.008 0.982 -7.205 0.126 78.164 0.126 78.164 0.982 -7.205 
6067.292 0.979 -8.145 0.142 77.406 0.142 77.406 0.979 -8.145 
6353.467 0.975 -9.094 0.159 76.575 0.159 76.575 0.975 -9.094 
6653.139 0.972 -10.053 0.175 75.687 0.175 75.687 0.972 -10.053 
6966.946 0.967 -11.024 0.192 74.75 0.192 74.75 0.967 -11.024 
7295.554 0.963 -12.007 0.209 73.77 0.209 73.77 0.963 -12.007 
7639.662 0.958 -13.002 0.226 72.754 0.226 72.754 0.958 -13.002 
8000 0.952 -14.01 0.243 71.703 0.243 71.703 0.952 -14.01 
