# MHz S MA R 50

1 378e-6 33.243 1 -0.012 1 -0.012 378e-6 33.243 
1.047 384.9e-6 34.314 1 -0.012 1 -0.012 384.9e-6 34.314 
1.097 392.2e-6 35.398 1 -0.013 1 -0.013 392.2e-6 35.398 
1.148 400e-6 36.494 1 -0.014 1 -0.014 400e-6 36.494 
1.202 408.3e-6 37.6 1 -0.014 1 -0.014 408.3e-6 37.6 
1.259 417.1e-6 38.714 1 -0.015 1 -0.015 417.1e-6 38.714 
1.318 426.4e-6 39.836 1 -0.016 1 -0.016 426.4e-6 39.836 
1.38 436.3e-6 40.962 1 -0.016 1 -0.016 436.3e-6 40.962 
1.446 446.9e-6 42.092 1 -0.017 1 -0.017 446.9e-6 42.092 
1.514 458e-6 43.223 1 -0.018 1 -0.018 458e-6 43.223 
1.585 469.8e-6 44.354 1 -0.019 1 -0.019 469.8e-6 44.354 
1.66 482.3e-6 45.482 1 -0.02 1 -0.02 482.3e-6 45.482 
1.738 495.6e-6 46.607 1 -0.021 1 -0.021 495.6e-6 46.607 
1.82 509.6e-6 47.726 1 -0.022 1 -0.022 509.6e-6 47.726 
1.906 524.5e-6 48.838 1 -0.023 1 -0.023 524.5e-6 48.838 
1.996 540.2e-6 49.94 1 -0.024 1 -0.024 540.2e-6 49.94 
2.09 556.9e-6 51.032 1 -0.025 1 -0.025 556.9e-6 51.032 
2.188 574.5e-6 52.112 1 -0.026 1 -0.026 574.5e-6 52.112 
2.291 593.1e-6 53.178 1 -0.027 1 -0.027 593.1e-6 53.178 
2.399 612.7e-6 54.23 1 -0.028 1 -0.028 612.7e-6 54.23 
2.512 633.4e-6 55.265 1 -0.03 1 -0.03 633.4e-6 55.265 
2.631 655.3e-6 56.284 1 -0.031 1 -0.031 655.3e-6 56.284 
2.755 678.4e-6 57.284 1 -0.033 1 -0.033 678.4e-6 57.284 
2.885 702.8e-6 58.266 1 -0.034 1 -0.034 702.8e-6 58.266 
3.021 728.4e-6 59.227 1 -0.036 1 -0.036 728.4e-6 59.227 
3.163 755.5e-6 60.169 1 -0.038 1 -0.038 755.5e-6 60.169 
3.312 784e-6 61.089 1 -0.039 1 -0.039 784e-6 61.089 
3.468 814e-6 61.988 1 -0.041 1 -0.041 814e-6 61.988 
3.632 845.5e-6 62.865 1 -0.043 1 -0.043 845.5e-6 62.865 
3.803 878.8e-6 63.721 1 -0.045 1 -0.045 878.8e-6 63.721 
3.982 913.7e-6 64.554 1 -0.047 1 -0.047 913.7e-6 64.554 
4.17 950.5e-6 65.365 1 -0.05 1 -0.05 950.5e-6 65.365 
4.367 989.1e-6 66.154 1 -0.052 1 -0.052 989.1e-6 66.154 
4.573 1.03e-3 66.92 1 -0.054 1 -0.054 1.03e-3 66.92 
4.788 1.072e-3 67.665 1 -0.057 1 -0.057 1.072e-3 67.665 
5.014 1.117e-3 68.387 1 -0.06 1 -0.06 1.117e-3 68.387 
5.25 1.164e-3 69.088 1 -0.062 1 -0.062 1.164e-3 69.088 
5.498 1.214e-3 69.767 1 -0.065 1 -0.065 1.214e-3 69.767 
5.757 1.266e-3 70.426 1 -0.068 1 -0.068 1.266e-3 70.426 
6.028 1.32e-3 71.063 1 -0.072 1 -0.072 1.32e-3 71.063 
6.312 1.378e-3 71.681 1 -0.075 1 -0.075 1.378e-3 71.681 
6.61 1.438e-3 72.278 1 -0.078 1 -0.078 1.438e-3 72.278 
6.922 1.501e-3 72.856 1 -0.082 1 -0.082 1.501e-3 72.856 
7.248 1.567e-3 73.414 1 -0.086 1 -0.086 1.567e-3 73.414 
7.589 1.636e-3 73.954 1 -0.09 1 -0.09 1.636e-3 73.954 
7.947 1.709e-3 74.476 1 -0.094 1 -0.094 1.709e-3 74.476 
8.322 1.785e-3 74.979 1 -0.099 1 -0.099 1.785e-3 74.979 
8.714 1.865e-3 75.466 1 -0.103 1 -0.103 1.865e-3 75.466 
9.125 1.949e-3 75.936 1 -0.108 1 -0.108 1.949e-3 75.936 
9.555 2.037e-3 76.389 1 -0.113 1 -0.113 2.037e-3 76.389 
10.006 2.129e-3 76.827 1 -0.119 1 -0.119 2.129e-3 76.827 
10.477 2.225e-3 77.249 1 -0.124 1 -0.124 2.225e-3 77.249 
10.971 2.326e-3 77.656 1 -0.13 1 -0.13 2.326e-3 77.656 
11.488 2.432e-3 78.049 0.999 -0.136 0.999 -0.136 2.432e-3 78.049 
12.03 2.544e-3 78.427 0.999 -0.143 0.999 -0.143 2.544e-3 78.427 
12.597 2.66e-3 78.792 0.999 -0.15 0.999 -0.15 2.66e-3 78.792 
13.191 2.782e-3 79.144 0.999 -0.157 0.999 -0.157 2.782e-3 79.144 
13.813 2.91e-3 79.483 0.999 -0.164 0.999 -0.164 2.91e-3 79.483 
14.464 3.044e-3 79.81 0.999 -0.172 0.999 -0.172 3.044e-3 79.81 
15.145 3.184e-3 80.124 0.999 -0.18 0.999 -0.18 3.184e-3 80.124 
15.859 3.331e-3 80.427 0.999 -0.188 0.999 -0.188 3.331e-3 80.427 
16.607 3.485e-3 80.719 0.999 -0.197 0.999 -0.197 3.485e-3 80.719 
17.39 3.647e-3 81 0.999 -0.206 0.999 -0.206 3.647e-3 81 
18.21 3.816e-3 81.271 0.999 -0.216 0.999 -0.216 3.816e-3 81.271 
19.068 3.993e-3 81.531 0.999 -0.226 0.999 -0.226 3.993e-3 81.531 
19.967 4.178e-3 81.781 0.999 -0.237 0.999 -0.237 4.178e-3 81.781 
20.908 4.372e-3 82.022 0.999 -0.248 0.999 -0.248 4.372e-3 82.022 
21.894 4.576e-3 82.254 0.999 -0.26 0.999 -0.26 4.576e-3 82.254 
22.926 4.789e-3 82.476 0.999 -0.272 0.999 -0.272 4.789e-3 82.476 
24.007 5.012e-3 82.69 0.999 -0.285 0.999 -0.285 5.012e-3 82.69 
25.138 5.246e-3 82.896 0.999 -0.298 0.999 -0.298 5.246e-3 82.896 
26.323 5.491e-3 83.093 0.999 -0.313 0.999 -0.313 5.491e-3 83.093 
27.564 5.747e-3 83.283 0.999 -0.327 0.999 -0.327 5.747e-3 83.283 
28.864 6.016e-3 83.465 0.999 -0.343 0.999 -0.343 6.016e-3 83.465 
30.224 6.297e-3 83.639 0.999 -0.359 0.999 -0.359 6.297e-3 83.639 
31.649 6.592e-3 83.806 0.999 -0.376 0.999 -0.376 6.592e-3 83.806 
33.141 6.9e-3 83.966 0.999 -0.393 0.999 -0.393 6.9e-3 83.966 
34.703 7.223e-3 84.119 0.999 -0.412 0.999 -0.412 7.223e-3 84.119 
36.339 7.562e-3 84.266 0.999 -0.431 0.999 -0.431 7.562e-3 84.266 
38.052 7.916e-3 84.406 0.999 -0.452 0.999 -0.452 7.916e-3 84.406 
39.846 8.287e-3 84.539 0.999 -0.473 0.999 -0.473 8.287e-3 84.539 
41.724 8.676e-3 84.667 0.999 -0.495 0.999 -0.495 8.676e-3 84.667 
43.691 9.083e-3 84.788 0.999 -0.519 0.999 -0.519 9.083e-3 84.788 
45.751 9.509e-3 84.904 0.999 -0.543 0.999 -0.543 9.509e-3 84.904 
47.907 9.955e-3 85.014 0.999 -0.569 0.999 -0.569 9.955e-3 85.014 
50.166 0.01 85.118 0.999 -0.595 0.999 -0.595 0.01 85.118 
52.531 0.011 85.216 0.999 -0.624 0.999 -0.624 0.011 85.216 
55.007 0.011 85.309 0.999 -0.653 0.999 -0.653 0.011 85.309 
57.6 0.012 85.397 0.999 -0.684 0.999 -0.684 0.012 85.397 
60.315 0.013 85.479 0.999 -0.716 0.999 -0.716 0.013 85.479 
63.158 0.013 85.556 0.999 -0.75 0.999 -0.75 0.013 85.556 
66.136 0.014 85.628 0.999 -0.785 0.999 -0.785 0.014 85.628 
69.253 0.014 85.694 0.999 -0.822 0.999 -0.822 0.014 85.694 
72.518 0.015 85.756 0.999 -0.861 0.999 -0.861 0.015 85.756 
75.936 0.016 85.813 0.999 -0.901 0.999 -0.901 0.016 85.813 
79.516 0.016 85.864 0.999 -0.944 0.999 -0.944 0.016 85.864 
83.265 0.017 85.911 0.999 -0.988 0.999 -0.988 0.017 85.911 
87.19 0.018 85.952 0.999 -1.035 0.999 -1.035 0.018 85.952 
91.3 0.019 85.989 0.999 -1.084 0.999 -1.084 0.019 85.989 
95.604 0.02 86.02 0.999 -1.135 0.999 -1.135 0.02 86.02 
100.11 0.021 86.047 0.999 -1.188 0.999 -1.188 0.021 86.047 
104.83 0.022 86.069 0.999 -1.244 0.999 -1.244 0.022 86.069 
109.771 0.023 86.085 0.999 -1.303 0.999 -1.303 0.023 86.085 
114.946 0.024 86.097 0.999 -1.364 0.999 -1.364 0.024 86.097 
120.364 0.025 86.103 0.999 -1.428 0.999 -1.428 0.025 86.103 
126.038 0.026 86.104 0.999 -1.496 0.999 -1.496 0.026 86.104 
131.98 0.027 86.1 0.999 -1.566 0.999 -1.566 0.027 86.1 
138.201 0.029 86.09 0.998 -1.64 0.998 -1.64 0.029 86.09 
144.716 0.03 86.075 0.998 -1.717 0.998 -1.717 0.03 86.075 
151.538 0.031 86.055 0.998 -1.798 0.998 -1.798 0.031 86.055 
158.682 0.033 86.029 0.998 -1.882 0.998 -1.882 0.033 86.029 
166.162 0.034 85.997 0.998 -1.971 0.998 -1.971 0.034 85.997 
173.995 0.036 85.959 0.998 -2.064 0.998 -2.064 0.036 85.959 
182.197 0.038 85.915 0.998 -2.161 0.998 -2.161 0.038 85.915 
190.786 0.04 85.865 0.998 -2.263 0.998 -2.263 0.04 85.865 
199.78 0.041 85.809 0.998 -2.369 0.998 -2.369 0.041 85.809 
209.197 0.043 85.746 0.998 -2.481 0.998 -2.481 0.043 85.746 
219.059 0.045 85.677 0.998 -2.598 0.998 -2.598 0.045 85.677 
229.385 0.047 85.601 0.997 -2.72 0.997 -2.72 0.047 85.601 
240.198 0.05 85.517 0.997 -2.848 0.997 -2.848 0.05 85.517 
251.521 0.052 85.426 0.997 -2.982 0.997 -2.982 0.052 85.426 
263.378 0.054 85.328 0.997 -3.123 0.997 -3.123 0.054 85.328 
275.794 0.057 85.222 0.997 -3.269 0.997 -3.269 0.057 85.222 
288.795 0.06 85.108 0.997 -3.423 0.997 -3.423 0.06 85.108 
302.409 0.063 84.985 0.996 -3.584 0.996 -3.584 0.063 84.985 
316.664 0.065 84.854 0.996 -3.753 0.996 -3.753 0.065 84.854 
331.592 0.069 84.714 0.996 -3.929 0.996 -3.929 0.069 84.714 
347.223 0.072 84.564 0.996 -4.114 0.996 -4.114 0.072 84.564 
363.591 0.075 84.405 0.995 -4.308 0.995 -4.308 0.075 84.405 
380.731 0.079 84.236 0.995 -4.51 0.995 -4.51 0.079 84.236 
398.678 0.082 84.057 0.995 -4.722 0.995 -4.722 0.082 84.057 
417.472 0.086 83.866 0.994 -4.944 0.994 -4.944 0.086 83.866 
437.152 0.09 83.665 0.994 -5.176 0.994 -5.176 0.09 83.665 
457.759 0.094 83.451 0.994 -5.419 0.994 -5.419 0.094 83.451 
479.338 0.099 83.226 0.993 -5.673 0.993 -5.673 0.099 83.226 
501.934 0.103 82.988 0.993 -5.939 0.993 -5.939 0.103 82.988 
525.595 0.108 82.736 0.992 -6.218 0.992 -6.218 0.108 82.736 
550.372 0.113 82.471 0.992 -6.509 0.992 -6.509 0.113 82.471 
576.317 0.119 82.192 0.991 -6.814 0.991 -6.814 0.119 82.192 
603.484 0.124 81.898 0.99 -7.133 0.99 -7.133 0.124 81.898 
631.933 0.13 81.589 0.989 -7.467 0.989 -7.467 0.13 81.589 
661.722 0.136 81.263 0.989 -7.816 0.989 -7.816 0.136 81.263 
692.915 0.142 80.921 0.988 -8.181 0.988 -8.181 0.142 80.921 
725.58 0.149 80.561 0.987 -8.564 0.987 -8.564 0.149 80.561 
759.783 0.156 80.183 0.985 -8.963 0.985 -8.963 0.156 80.183 
795.6 0.163 79.786 0.984 -9.381 0.984 -9.381 0.163 79.786 
833.104 0.171 79.37 0.983 -9.818 0.983 -9.818 0.171 79.37 
872.377 0.178 78.933 0.981 -10.275 0.981 -10.275 0.178 78.933 
913.501 0.187 78.475 0.98 -10.752 0.98 -10.752 0.187 78.475 
956.564 0.195 77.995 0.978 -11.251 0.978 -11.251 0.195 77.995 
1001.656 0.204 77.492 0.976 -11.773 0.976 -11.773 0.204 77.492 
1048.874 0.213 76.965 0.974 -12.317 0.974 -12.317 0.213 76.965 
1098.318 0.223 76.413 0.972 -12.887 0.972 -12.887 0.223 76.413 
1150.093 0.233 75.835 0.97 -13.481 0.97 -13.481 0.233 75.835 
1204.309 0.244 75.231 0.967 -14.101 0.967 -14.101 0.244 75.231 
1261.08 0.255 74.599 0.964 -14.749 0.964 -14.749 0.255 74.599 
1320.527 0.266 73.939 0.961 -15.425 0.961 -15.425 0.266 73.939 
1382.777 0.278 73.249 0.958 -16.13 0.958 -16.13 0.278 73.249 
1447.961 0.29 72.528 0.954 -16.865 0.954 -16.865 0.29 72.528 
1516.218 0.303 71.775 0.95 -17.631 0.95 -17.631 0.303 71.775 
1587.693 0.316 70.99 0.946 -18.43 0.946 -18.43 0.316 70.99 
1662.537 0.33 70.172 0.941 -19.261 0.941 -19.261 0.33 70.172 
1740.909 0.344 69.318 0.936 -20.127 0.936 -20.127 0.344 69.318 
1822.976 0.359 68.429 0.93 -21.028 0.93 -21.028 0.359 68.429 
1908.911 0.374 67.504 0.924 -21.965 0.924 -21.965 0.374 67.504 
1998.897 0.39 66.541 0.917 -22.939 0.917 -22.939 0.39 66.541 
2093.125 0.406 65.54 0.91 -23.951 0.91 -23.951 0.406 65.54 
2191.796 0.423 64.501 0.903 -25.001 0.903 -25.001 0.423 64.501 
2295.117 0.44 63.421 0.894 -26.09 0.894 -26.09 0.44 63.421 
2403.309 0.457 62.301 0.885 -27.219 0.885 -27.219 0.457 62.301 
2516.601 0.475 61.141 0.876 -28.389 0.876 -28.389 0.475 61.141 
2635.234 0.494 59.939 0.866 -29.599 0.866 -29.599 0.494 59.939 
2759.459 0.513 58.696 0.854 -30.85 0.854 -30.85 0.513 58.696 
2889.541 0.532 57.411 0.843 -32.141 0.843 -32.141 0.532 57.411 
3025.754 0.552 56.084 0.83 -33.474 0.83 -33.474 0.552 56.084 
3168.388 0.571 54.716 0.816 -34.848 0.816 -34.848 0.571 54.716 
3317.746 0.591 53.307 0.802 -36.262 0.802 -36.262 0.591 53.307 
3474.145 0.612 51.857 0.786 -37.716 0.786 -37.716 0.612 51.857 
3637.917 0.632 50.367 0.77 -39.21 0.77 -39.21 0.632 50.367 
3809.408 0.653 48.837 0.753 -40.741 0.753 -40.741 0.653 48.837 
3988.984 0.673 47.27 0.735 -42.31 0.735 -42.31 0.673 47.27 
4177.025 0.694 45.665 0.715 -43.914 0.715 -43.914 0.694 45.665 
4373.931 0.714 44.024 0.695 -45.553 0.695 -45.553 0.714 44.024 
4580.118 0.734 42.349 0.674 -47.224 0.674 -47.224 0.734 42.349 
4796.026 0.754 40.641 0.651 -48.927 0.651 -48.927 0.754 40.641 
5022.111 0.773 38.902 0.628 -50.657 0.628 -50.657 0.773 38.902 
5258.853 0.792 37.135 0.604 -52.415 0.604 -52.415 0.792 37.135 
5506.756 0.811 35.34 0.578 -54.196 0.578 -54.196 0.811 35.34 
5766.345 0.829 33.52 0.552 -55.998 0.552 -55.998 0.829 33.52 
6038.171 0.846 31.676 0.525 -57.819 0.525 -57.819 0.846 31.676 
6322.811 0.863 29.812 0.497 -59.656 0.497 -59.656 0.863 29.812 
6620.869 0.879 27.929 0.468 -61.504 0.468 -61.504 0.879 27.929 
6932.978 0.894 26.029 0.439 -63.361 0.439 -63.361 0.894 26.029 
7259.799 0.908 24.114 0.409 -65.222 0.409 -65.222 0.908 24.114 
7602.027 0.921 22.186 0.378 -67.083 0.378 -67.083 0.921 22.186 
7960.387 0.933 20.247 0.346 -68.936 0.346 -68.936 0.933 20.247 
8335.64 0.944 18.298 0.314 -70.774 0.314 -70.774 0.944 18.298 
8728.583 0.954 16.341 0.281 -72.587 0.281 -72.587 0.954 16.341 
9140.05 0.963 14.377 0.248 -74.359 0.248 -74.359 0.963 14.377 
9570.912 0.971 12.409 0.215 -76.065 0.215 -76.065 0.971 12.409 
10022.086 0.977 10.436 0.181 -77.662 0.181 -77.662 0.977 10.436 
10494.528 0.983 8.461 0.147 -79.07 0.147 -79.07 0.983 8.461 
10989.241 0.987 6.484 0.113 -80.112 0.113 -80.112 0.987 6.484 
11507.275 0.99 4.507 0.079 -80.304 0.079 -80.304 0.99 4.507 
12049.73 0.991 2.529 0.045 -77.695 0.045 -77.695 0.991 2.529 
12617.755 0.992 0.554 0.013 -49.387 0.013 -49.387 0.992 0.554 
13212.557 0.991 -1.42 0.026 69.245 0.026 69.245 0.991 -1.42 
13835.398 0.989 -3.391 0.06 77.647 0.06 77.647 0.989 -3.391 
14487.6 0.986 -5.358 0.094 78.517 0.094 78.517 0.986 -5.358 
15170.547 0.981 -7.32 0.128 77.846 0.128 77.846 0.981 -7.32 
15885.688 0.975 -9.276 0.162 76.609 0.162 76.609 0.975 -9.276 
16634.541 0.968 -11.224 0.195 75.105 0.195 75.105 0.968 -11.224 
17418.695 0.96 -13.165 0.228 73.456 0.228 73.456 0.96 -13.165 
18239.814 0.951 -15.095 0.261 71.721 0.261 71.721 0.951 -15.095 
19099.641 0.941 -17.014 0.293 69.934 0.293 69.934 0.941 -17.014 
20000 0.929 -18.92 0.325 68.114 0.325 68.114 0.929 -18.92 
