# MHz S MA R 50

1 5.456e-3 39.754 0.996 -0.201 0.996 -0.201 5.456e-3 39.754 
1.047 5.585e-3 40.865 0.996 -0.21 0.996 -0.21 5.585e-3 40.865 
1.097 5.722e-3 41.979 0.996 -0.22 0.996 -0.22 5.722e-3 41.979 
1.149 5.867e-3 43.094 0.996 -0.231 0.996 -0.231 5.867e-3 43.094 
1.203 6.02e-3 44.207 0.996 -0.242 0.996 -0.242 6.02e-3 44.207 
1.26 6.183e-3 45.317 0.996 -0.253 0.996 -0.253 6.183e-3 45.317 
1.32 6.355e-3 46.423 0.996 -0.265 0.996 -0.265 6.355e-3 46.423 
1.383 6.538e-3 47.522 0.996 -0.277 0.996 -0.277 6.538e-3 47.522 
1.448 6.731e-3 48.613 0.996 -0.291 0.996 -0.291 6.731e-3 48.613 
1.517 6.935e-3 49.695 0.996 -0.304 0.996 -0.304 6.935e-3 49.695 
1.588 7.151e-3 50.765 0.995 -0.319 0.995 -0.319 7.151e-3 50.765 
1.664 7.379e-3 51.822 0.995 -0.334 0.995 -0.334 7.379e-3 51.822 
1.742 7.62e-3 52.865 0.995 -0.35 0.995 -0.35 7.62e-3 52.865 
1.825 7.875e-3 53.893 0.995 -0.366 0.995 -0.366 7.875e-3 53.893 
1.911 8.143e-3 54.904 0.995 -0.384 0.995 -0.384 8.143e-3 54.904 
2.002 8.427e-3 55.897 0.995 -0.402 0.995 -0.402 8.427e-3 55.897 
2.097 8.726e-3 56.872 0.995 -0.421 0.995 -0.421 8.726e-3 56.872 
2.196 9.042e-3 57.827 0.995 -0.441 0.995 -0.441 9.042e-3 57.827 
2.3 9.374e-3 58.762 0.995 -0.461 0.995 -0.461 9.374e-3 58.762 
2.409 9.724e-3 59.675 0.995 -0.483 0.995 -0.483 9.724e-3 59.675 
2.523 0.01 60.567 0.995 -0.506 0.995 -0.506 0.01 60.567 
2.643 0.01 61.437 0.995 -0.53 0.995 -0.53 0.01 61.437 
2.768 0.011 62.285 0.995 -0.555 0.995 -0.555 0.011 62.285 
2.899 0.011 63.109 0.995 -0.581 0.995 -0.581 0.011 63.109 
3.036 0.012 63.911 0.995 -0.609 0.995 -0.609 0.012 63.911 
3.18 0.012 64.689 0.995 -0.638 0.995 -0.638 0.012 64.689 
3.331 0.013 65.444 0.995 -0.668 0.995 -0.668 0.013 65.444 
3.488 0.013 66.177 0.995 -0.7 0.995 -0.7 0.013 66.177 
3.653 0.014 66.886 0.995 -0.733 0.995 -0.733 0.014 66.886 
3.826 0.014 67.571 0.995 -0.767 0.995 -0.767 0.014 67.571 
4.008 0.015 68.234 0.995 -0.804 0.995 -0.804 0.015 68.234 
4.198 0.016 68.875 0.994 -0.842 0.994 -0.842 0.016 68.875 
4.396 0.016 69.493 0.994 -0.881 0.994 -0.881 0.016 69.493 
4.605 0.017 70.088 0.994 -0.923 0.994 -0.923 0.017 70.088 
4.823 0.018 70.662 0.994 -0.967 0.994 -0.967 0.018 70.662 
5.051 0.019 71.214 0.994 -1.012 0.994 -1.012 0.019 71.214 
5.29 0.019 71.745 0.994 -1.06 0.994 -1.06 0.019 71.745 
5.541 0.02 72.255 0.994 -1.11 0.994 -1.11 0.02 72.255 
5.803 0.021 72.745 0.994 -1.163 0.994 -1.163 0.021 72.745 
6.078 0.022 73.214 0.994 -1.218 0.994 -1.218 0.022 73.214 
6.366 0.023 73.663 0.994 -1.275 0.994 -1.275 0.023 73.663 
6.667 0.024 74.092 0.994 -1.336 0.994 -1.336 0.024 74.092 
6.983 0.025 74.503 0.994 -1.399 0.994 -1.399 0.025 74.503 
7.314 0.026 74.894 0.993 -1.465 0.993 -1.465 0.026 74.894 
7.66 0.028 75.267 0.993 -1.534 0.993 -1.534 0.028 75.267 
8.023 0.029 75.622 0.993 -1.607 0.993 -1.607 0.029 75.622 
8.403 0.03 75.958 0.993 -1.683 0.993 -1.683 0.03 75.958 
8.801 0.031 76.277 0.993 -1.762 0.993 -1.762 0.031 76.277 
9.218 0.033 76.579 0.993 -1.845 0.993 -1.845 0.033 76.579 
9.655 0.034 76.864 0.993 -1.933 0.993 -1.933 0.034 76.864 
10.112 0.036 77.131 0.993 -2.024 0.993 -2.024 0.036 77.131 
10.591 0.038 77.382 0.992 -2.119 0.992 -2.119 0.038 77.382 
11.092 0.039 77.617 0.992 -2.22 0.992 -2.22 0.039 77.617 
11.618 0.041 77.836 0.992 -2.324 0.992 -2.324 0.041 77.836 
12.168 0.043 78.038 0.992 -2.434 0.992 -2.434 0.043 78.038 
12.744 0.045 78.225 0.992 -2.549 0.992 -2.549 0.045 78.225 
13.348 0.047 78.395 0.992 -2.669 0.992 -2.669 0.047 78.395 
13.98 0.049 78.551 0.991 -2.795 0.991 -2.795 0.049 78.551 
14.642 0.052 78.69 0.991 -2.927 0.991 -2.927 0.052 78.69 
15.335 0.054 78.814 0.991 -3.065 0.991 -3.065 0.054 78.814 
16.062 0.057 78.923 0.991 -3.21 0.991 -3.21 0.057 78.923 
16.822 0.059 79.016 0.99 -3.361 0.99 -3.361 0.059 79.016 
17.619 0.062 79.094 0.99 -3.519 0.99 -3.519 0.062 79.094 
18.454 0.065 79.156 0.99 -3.685 0.99 -3.685 0.065 79.156 
19.328 0.068 79.203 0.99 -3.859 0.99 -3.859 0.068 79.203 
20.243 0.071 79.234 0.989 -4.04 0.989 -4.04 0.071 79.234 
21.202 0.074 79.25 0.989 -4.231 0.989 -4.231 0.074 79.25 
22.206 0.078 79.249 0.988 -4.43 0.988 -4.43 0.078 79.249 
23.258 0.081 79.233 0.988 -4.638 0.988 -4.638 0.081 79.233 
24.359 0.085 79.201 0.988 -4.856 0.988 -4.856 0.085 79.201 
25.513 0.089 79.152 0.987 -5.084 0.987 -5.084 0.089 79.152 
26.721 0.093 79.087 0.987 -5.323 0.987 -5.323 0.093 79.087 
27.987 0.098 79.004 0.986 -5.573 0.986 -5.573 0.098 79.004 
29.312 0.102 78.905 0.985 -5.834 0.985 -5.834 0.102 78.905 
30.7 0.107 78.788 0.985 -6.107 0.985 -6.107 0.107 78.788 
32.154 0.112 78.654 0.984 -6.393 0.984 -6.393 0.112 78.654 
33.677 0.117 78.501 0.983 -6.692 0.983 -6.692 0.117 78.501 
35.272 0.122 78.33 0.983 -7.005 0.983 -7.005 0.122 78.33 
36.943 0.128 78.14 0.982 -7.332 0.982 -7.332 0.128 78.14 
38.693 0.134 77.93 0.981 -7.674 0.981 -7.674 0.134 77.93 
40.525 0.14 77.701 0.98 -8.032 0.98 -8.032 0.14 77.701 
42.444 0.147 77.451 0.979 -8.406 0.979 -8.406 0.147 77.451 
44.455 0.153 77.18 0.977 -8.796 0.977 -8.796 0.153 77.18 
46.56 0.16 76.889 0.976 -9.204 0.976 -9.204 0.16 76.889 
48.765 0.168 76.575 0.975 -9.631 0.975 -9.631 0.168 76.575 
51.075 0.175 76.238 0.973 -10.076 0.973 -10.076 0.175 76.238 
53.494 0.183 75.879 0.972 -10.541 0.972 -10.541 0.183 75.879 
56.027 0.192 75.495 0.97 -11.026 0.97 -11.026 0.192 75.495 
58.681 0.2 75.087 0.968 -11.533 0.968 -11.533 0.2 75.087 
61.46 0.209 74.655 0.966 -12.061 0.966 -12.061 0.209 74.655 
64.371 0.219 74.196 0.964 -12.612 0.964 -12.612 0.219 74.196 
67.42 0.228 73.712 0.961 -13.186 0.961 -13.186 0.228 73.712 
70.613 0.239 73.2 0.959 -13.785 0.959 -13.785 0.239 73.2 
73.957 0.249 72.66 0.956 -14.409 0.956 -14.409 0.249 72.66 
77.46 0.26 72.093 0.953 -15.058 0.953 -15.058 0.26 72.093 
81.128 0.271 71.496 0.949 -15.734 0.949 -15.734 0.271 71.496 
84.971 0.283 70.87 0.946 -16.436 0.946 -16.436 0.283 70.87 
88.995 0.295 70.214 0.942 -17.167 0.942 -17.167 0.295 70.214 
93.21 0.308 69.527 0.938 -17.925 0.938 -17.925 0.308 69.527 
97.624 0.321 68.809 0.933 -18.713 0.933 -18.713 0.321 68.809 
102.248 0.335 68.06 0.928 -19.53 0.928 -19.53 0.335 68.06 
107.091 0.348 67.279 0.923 -20.377 0.923 -20.377 0.348 67.279 
112.163 0.363 66.465 0.918 -21.254 0.918 -21.254 0.363 66.465 
117.475 0.377 65.62 0.912 -22.161 0.912 -22.161 0.377 65.62 
123.039 0.393 64.742 0.905 -23.098 0.905 -23.098 0.393 64.742 
128.866 0.408 63.832 0.898 -24.066 0.898 -24.066 0.408 63.832 
134.969 0.424 62.89 0.891 -25.065 0.891 -25.065 0.424 62.89 
141.361 0.44 61.916 0.883 -26.093 0.883 -26.093 0.44 61.916 
148.056 0.457 60.911 0.874 -27.151 0.874 -27.151 0.457 60.911 
155.069 0.473 59.875 0.865 -28.238 0.865 -28.238 0.473 59.875 
162.413 0.49 58.81 0.856 -29.354 0.856 -29.354 0.49 58.81 
170.105 0.508 57.716 0.846 -30.496 0.846 -30.496 0.508 57.716 
178.161 0.525 56.594 0.835 -31.665 0.835 -31.665 0.525 56.594 
186.599 0.543 55.446 0.824 -32.858 0.824 -32.858 0.543 55.446 
195.437 0.561 54.273 0.812 -34.075 0.812 -34.075 0.561 54.273 
204.693 0.578 53.078 0.8 -35.314 0.8 -35.314 0.578 53.078 
214.388 0.596 51.862 0.787 -36.572 0.787 -36.572 0.596 51.862 
224.541 0.614 50.626 0.773 -37.847 0.773 -37.847 0.614 50.626 
235.176 0.631 49.375 0.759 -39.138 0.759 -39.138 0.631 49.375 
246.314 0.649 48.109 0.745 -40.442 0.745 -40.442 0.649 48.109 
257.98 0.666 46.831 0.73 -41.756 0.73 -41.756 0.666 46.831 
270.198 0.683 45.545 0.714 -43.079 0.714 -43.079 0.683 45.545 
282.995 0.7 44.252 0.698 -44.406 0.698 -44.406 0.7 44.252 
296.398 0.716 42.956 0.682 -45.736 0.682 -45.736 0.716 42.956 
310.436 0.732 41.658 0.665 -47.066 0.665 -47.066 0.732 41.658 
325.139 0.748 40.363 0.648 -48.393 0.648 -48.393 0.748 40.363 
340.538 0.763 39.072 0.63 -49.714 0.63 -49.714 0.763 39.072 
356.666 0.778 37.789 0.613 -51.028 0.613 -51.028 0.778 37.789 
373.558 0.792 36.515 0.595 -52.33 0.595 -52.33 0.792 36.515 
391.25 0.805 35.253 0.577 -53.619 0.577 -53.619 0.805 35.253 
409.781 0.818 34.006 0.559 -54.894 0.559 -54.894 0.818 34.006 
429.188 0.831 32.776 0.541 -56.15 0.541 -56.15 0.831 32.776 
449.515 0.842 31.563 0.524 -57.387 0.524 -57.387 0.842 31.563 
470.805 0.854 30.371 0.506 -58.604 0.506 -58.604 0.854 30.371 
493.103 0.864 29.201 0.488 -59.797 0.488 -59.797 0.864 29.201 
516.457 0.874 28.054 0.47 -60.967 0.47 -60.967 0.874 28.054 
540.917 0.884 26.931 0.453 -62.111 0.453 -62.111 0.884 26.931 
566.536 0.893 25.833 0.436 -63.229 0.436 -63.229 0.893 25.833 
593.368 0.901 24.762 0.419 -64.32 0.419 -64.32 0.901 24.762 
621.47 0.909 23.717 0.402 -65.384 0.402 -65.384 0.909 23.717 
650.904 0.917 22.699 0.386 -66.419 0.386 -66.419 0.917 22.699 
681.732 0.923 21.708 0.37 -67.426 0.37 -67.426 0.923 21.708 
714.019 0.93 20.745 0.354 -68.405 0.354 -68.405 0.93 20.745 
747.836 0.936 19.81 0.339 -69.355 0.339 -69.355 0.936 19.81 
783.255 0.941 18.901 0.324 -70.276 0.324 -70.276 0.941 18.901 
820.351 0.947 18.019 0.309 -71.17 0.309 -71.17 0.947 18.019 
859.204 0.951 17.165 0.295 -72.035 0.295 -72.035 0.951 17.165 
899.897 0.956 16.336 0.281 -72.873 0.281 -72.873 0.956 16.336 
942.517 0.96 15.532 0.268 -73.683 0.268 -73.683 0.96 15.532 
987.156 0.964 14.754 0.255 -74.467 0.255 -74.467 0.964 14.754 
1033.909 0.967 14 0.242 -75.224 0.242 -75.224 0.967 14 
1082.877 0.97 13.269 0.23 -75.956 0.23 -75.956 0.97 13.269 
1134.163 0.973 12.561 0.217 -76.662 0.217 -76.662 0.973 12.561 
1187.879 0.976 11.874 0.206 -77.344 0.206 -77.344 0.976 11.874 
1244.138 0.978 11.209 0.194 -78.001 0.194 -78.001 0.978 11.209 
1303.062 0.98 10.564 0.183 -78.633 0.183 -78.633 0.98 10.564 
1364.777 0.983 9.938 0.173 -79.242 0.173 -79.242 0.983 9.938 
1429.415 0.984 9.33 0.162 -79.828 0.162 -79.828 0.984 9.33 
1497.114 0.986 8.739 0.152 -80.389 0.152 -80.389 0.986 8.739 
1568.019 0.988 8.165 0.142 -80.926 0.142 -80.926 0.988 8.165 
1642.283 0.989 7.607 0.132 -81.438 0.132 -81.438 0.989 7.607 
1720.063 0.99 7.062 0.123 -81.924 0.123 -81.924 0.99 7.062 
1801.528 0.991 6.532 0.114 -82.382 0.114 -82.382 0.991 6.532 
1886.851 0.992 6.014 0.105 -82.809 0.105 -82.809 0.992 6.014 
1976.214 0.993 5.508 0.096 -83.201 0.096 -83.201 0.993 5.508 
2069.811 0.994 5.013 0.087 -83.554 0.087 -83.554 0.994 5.013 
2167.84 0.995 4.528 0.079 -83.857 0.079 -83.857 0.995 4.528 
2270.512 0.995 4.051 0.071 -84.1 0.071 -84.1 0.995 4.051 
2378.046 0.996 3.583 0.063 -84.262 0.063 -84.262 0.996 3.583 
2490.674 0.996 3.122 0.055 -84.313 0.055 -84.313 0.996 3.122 
2608.635 0.996 2.668 0.047 -84.201 0.047 -84.201 0.996 2.668 
2732.184 0.997 2.219 0.039 -83.833 0.039 -83.833 0.997 2.219 
2861.584 0.997 1.774 0.031 -83.024 0.031 -83.024 0.997 1.774 
2997.112 0.997 1.333 0.023 -81.352 0.023 -81.352 0.997 1.333 
3139.06 0.997 0.895 0.016 -77.609 0.016 -77.609 0.997 0.895 
3287.73 0.997 0.46 8.711e-3 -66.603 8.711e-3 -66.603 0.997 0.46 
3443.441 0.996 0.025 3.665e-3 -6.831 3.665e-3 -6.831 0.996 0.025 
3606.527 0.996 -0.409 8.141e-3 60.876 8.141e-3 60.876 0.996 -0.409 
3777.337 0.996 -0.844 0.015 73.179 0.015 73.179 0.996 -0.844 
3956.237 0.995 -1.28 0.023 77.193 0.023 77.193 0.995 -1.28 
4143.61 0.995 -1.717 0.03 78.942 0.03 78.942 0.995 -1.717 
4339.857 0.994 -2.158 0.038 79.763 0.038 79.763 0.994 -2.158 
4545.398 0.993 -2.602 0.046 80.114 0.046 80.114 0.993 -2.602 
4760.675 0.992 -3.051 0.054 80.189 0.054 80.189 0.992 -3.051 
4986.147 0.991 -3.505 0.062 80.087 0.062 80.087 0.991 -3.505 
5222.297 0.99 -3.965 0.07 79.862 0.07 79.862 0.99 -3.965 
5469.633 0.989 -4.432 0.078 79.546 0.078 79.546 0.989 -4.432 
5728.682 0.987 -4.906 0.086 79.16 0.086 79.16 0.987 -4.906 
6000 0.986 -5.388 0.094 78.715 0.094 78.715 0.986 -5.388 
