# MHz S MA R 50

1 899.7e-6 41.494 0.999 -0.034 0.999 -0.034 899.7e-6 41.494 
1.047 921e-6 42.664 0.999 -0.036 0.999 -0.036 921e-6 42.664 
1.096 943.7e-6 43.834 0.999 -0.037 0.999 -0.037 943.7e-6 43.834 
1.148 967.8e-6 45.004 0.999 -0.039 0.999 -0.039 967.8e-6 45.004 
1.202 993.4e-6 46.171 0.999 -0.041 0.999 -0.041 993.4e-6 46.171 
1.259 1.021e-3 47.333 0.999 -0.043 0.999 -0.043 1.021e-3 47.333 
1.318 1.049e-3 48.489 0.999 -0.045 0.999 -0.045 1.049e-3 48.489 
1.38 1.08e-3 49.636 0.999 -0.047 0.999 -0.047 1.08e-3 49.636 
1.445 1.112e-3 50.772 0.999 -0.049 0.999 -0.049 1.112e-3 50.772 
1.514 1.146e-3 51.897 0.999 -0.052 0.999 -0.052 1.146e-3 51.897 
1.585 1.183e-3 53.008 0.999 -0.054 0.999 -0.054 1.183e-3 53.008 
1.66 1.221e-3 54.103 0.999 -0.057 0.999 -0.057 1.221e-3 54.103 
1.738 1.262e-3 55.182 0.999 -0.059 0.999 -0.059 1.262e-3 55.182 
1.82 1.305e-3 56.243 0.999 -0.062 0.999 -0.062 1.305e-3 56.243 
1.905 1.35e-3 57.285 0.999 -0.065 0.999 -0.065 1.35e-3 57.285 
1.995 1.398e-3 58.307 0.999 -0.068 0.999 -0.068 1.398e-3 58.307 
2.089 1.448e-3 59.308 0.999 -0.071 0.999 -0.071 1.448e-3 59.308 
2.188 1.501e-3 60.287 0.999 -0.075 0.999 -0.075 1.501e-3 60.287 
2.291 1.557e-3 61.244 0.999 -0.078 0.999 -0.078 1.557e-3 61.244 
2.399 1.617e-3 62.178 0.999 -0.082 0.999 -0.082 1.617e-3 62.178 
2.512 1.679e-3 63.088 0.999 -0.086 0.999 -0.086 1.679e-3 63.088 
2.63 1.745e-3 63.975 0.999 -0.09 0.999 -0.09 1.745e-3 63.975 
2.754 1.814e-3 64.838 0.999 -0.094 0.999 -0.094 1.814e-3 64.838 
2.884 1.886e-3 65.677 0.999 -0.099 0.999 -0.099 1.886e-3 65.677 
3.02 1.963e-3 66.492 0.999 -0.103 0.999 -0.103 1.963e-3 66.492 
3.162 2.043e-3 67.283 0.999 -0.108 0.999 -0.108 2.043e-3 67.283 
3.311 2.128e-3 68.05 0.999 -0.113 0.999 -0.113 2.128e-3 68.05 
3.467 2.216e-3 68.793 0.999 -0.118 0.999 -0.118 2.216e-3 68.793 
3.631 2.31e-3 69.513 0.999 -0.124 0.999 -0.124 2.31e-3 69.513 
3.802 2.408e-3 70.21 0.999 -0.13 0.999 -0.13 2.408e-3 70.21 
3.981 2.511e-3 70.884 0.999 -0.136 0.999 -0.136 2.511e-3 70.884 
4.169 2.619e-3 71.535 0.999 -0.142 0.999 -0.142 2.619e-3 71.535 
4.365 2.733e-3 72.165 0.999 -0.149 0.999 -0.149 2.733e-3 72.165 
4.571 2.852e-3 72.772 0.999 -0.156 0.999 -0.156 2.852e-3 72.772 
4.786 2.977e-3 73.359 0.999 -0.164 0.999 -0.164 2.977e-3 73.359 
5.012 3.108e-3 73.925 0.999 -0.171 0.999 -0.171 3.108e-3 73.925 
5.248 3.246e-3 74.471 0.999 -0.179 0.999 -0.179 3.246e-3 74.471 
5.495 3.39e-3 74.998 0.999 -0.188 0.999 -0.188 3.39e-3 74.998 
5.754 3.542e-3 75.505 0.999 -0.197 0.999 -0.197 3.542e-3 75.505 
6.026 3.7e-3 75.993 0.999 -0.206 0.999 -0.206 3.7e-3 75.993 
6.31 3.867e-3 76.464 0.999 -0.216 0.999 -0.216 3.867e-3 76.464 
6.607 4.041e-3 76.917 0.999 -0.226 0.999 -0.226 4.041e-3 76.917 
6.918 4.224e-3 77.353 0.999 -0.236 0.999 -0.236 4.224e-3 77.353 
7.244 4.416e-3 77.772 0.999 -0.248 0.999 -0.248 4.416e-3 77.772 
7.586 4.617e-3 78.175 0.999 -0.259 0.999 -0.259 4.617e-3 78.175 
7.943 4.828e-3 78.563 0.999 -0.271 0.999 -0.271 4.828e-3 78.563 
8.318 5.049e-3 78.936 0.999 -0.284 0.999 -0.284 5.049e-3 78.936 
8.71 5.281e-3 79.294 0.999 -0.298 0.999 -0.298 5.281e-3 79.294 
9.12 5.523e-3 79.638 0.999 -0.312 0.999 -0.312 5.523e-3 79.638 
9.55 5.777e-3 79.968 0.999 -0.326 0.999 -0.326 5.777e-3 79.968 
10 6.044e-3 80.284 0.999 -0.342 0.999 -0.342 6.044e-3 80.284 
10.471 6.323e-3 80.588 0.999 -0.358 0.999 -0.358 6.323e-3 80.588 
10.965 6.615e-3 80.88 0.999 -0.375 0.999 -0.375 6.615e-3 80.88 
11.482 6.921e-3 81.159 0.999 -0.392 0.999 -0.392 6.921e-3 81.159 
12.023 7.242e-3 81.427 0.999 -0.411 0.999 -0.411 7.242e-3 81.427 
12.589 7.578e-3 81.683 0.999 -0.43 0.999 -0.43 7.578e-3 81.683 
13.183 7.93e-3 81.929 0.999 -0.45 0.999 -0.45 7.93e-3 81.929 
13.804 8.299e-3 82.163 0.999 -0.472 0.999 -0.472 8.299e-3 82.163 
14.454 8.685e-3 82.388 0.999 -0.494 0.999 -0.494 8.685e-3 82.388 
15.136 9.09e-3 82.602 0.999 -0.517 0.999 -0.517 9.09e-3 82.602 
15.849 9.514e-3 82.807 0.999 -0.541 0.999 -0.541 9.514e-3 82.807 
16.596 9.957e-3 83.002 0.999 -0.567 0.999 -0.567 9.957e-3 83.002 
17.378 0.01 83.188 0.999 -0.594 0.999 -0.594 0.01 83.188 
18.197 0.011 83.365 0.999 -0.622 0.999 -0.622 0.011 83.365 
19.055 0.011 83.533 0.999 -0.651 0.999 -0.651 0.011 83.533 
19.953 0.012 83.692 0.999 -0.682 0.999 -0.682 0.012 83.692 
20.893 0.013 83.844 0.999 -0.714 0.999 -0.714 0.013 83.844 
21.878 0.013 83.987 0.999 -0.747 0.999 -0.747 0.013 83.987 
22.909 0.014 84.122 0.999 -0.782 0.999 -0.782 0.014 84.122 
23.988 0.014 84.25 0.999 -0.819 0.999 -0.819 0.014 84.25 
25.119 0.015 84.37 0.999 -0.858 0.999 -0.858 0.015 84.37 
26.303 0.016 84.482 0.999 -0.898 0.999 -0.898 0.016 84.482 
27.542 0.016 84.588 0.999 -0.941 0.999 -0.941 0.016 84.588 
28.84 0.017 84.685 0.999 -0.985 0.999 -0.985 0.017 84.685 
30.2 0.018 84.776 0.999 -1.031 0.999 -1.031 0.018 84.776 
31.623 0.019 84.86 0.998 -1.08 0.998 -1.08 0.019 84.86 
33.113 0.02 84.937 0.998 -1.131 0.998 -1.131 0.02 84.937 
34.674 0.021 85.007 0.998 -1.184 0.998 -1.184 0.021 85.007 
36.308 0.022 85.07 0.998 -1.24 0.998 -1.24 0.022 85.07 
38.019 0.023 85.127 0.998 -1.298 0.998 -1.298 0.023 85.127 
39.811 0.024 85.176 0.998 -1.359 0.998 -1.359 0.024 85.176 
41.687 0.025 85.219 0.998 -1.423 0.998 -1.423 0.025 85.219 
43.652 0.026 85.256 0.998 -1.49 0.998 -1.49 0.026 85.256 
45.709 0.027 85.285 0.998 -1.561 0.998 -1.561 0.027 85.285 
47.863 0.029 85.308 0.998 -1.634 0.998 -1.634 0.029 85.308 
50.119 0.03 85.324 0.998 -1.711 0.998 -1.711 0.03 85.324 
52.481 0.031 85.333 0.998 -1.792 0.998 -1.792 0.031 85.333 
54.954 0.033 85.336 0.998 -1.876 0.998 -1.876 0.033 85.336 
57.544 0.034 85.332 0.998 -1.964 0.998 -1.964 0.034 85.332 
60.256 0.036 85.32 0.998 -2.057 0.998 -2.057 0.036 85.32 
63.096 0.038 85.302 0.998 -2.153 0.998 -2.153 0.038 85.302 
66.069 0.039 85.276 0.998 -2.255 0.998 -2.255 0.039 85.276 
69.183 0.041 85.243 0.997 -2.361 0.997 -2.361 0.041 85.243 
72.444 0.043 85.203 0.997 -2.472 0.997 -2.472 0.043 85.203 
75.858 0.045 85.155 0.997 -2.588 0.997 -2.588 0.045 85.155 
79.433 0.047 85.1 0.997 -2.71 0.997 -2.71 0.047 85.1 
83.176 0.05 85.036 0.997 -2.837 0.997 -2.837 0.05 85.036 
87.096 0.052 84.965 0.997 -2.971 0.997 -2.971 0.052 84.965 
91.201 0.054 84.885 0.997 -3.111 0.997 -3.111 0.054 84.885 
95.499 0.057 84.797 0.996 -3.257 0.996 -3.257 0.057 84.797 
100 0.06 84.7 0.996 -3.41 0.996 -3.41 0.06 84.7 
104.713 0.062 84.594 0.996 -3.57 0.996 -3.57 0.062 84.594 
109.648 0.065 84.479 0.996 -3.738 0.996 -3.738 0.065 84.479 
114.815 0.068 84.354 0.996 -3.913 0.996 -3.913 0.068 84.354 
120.226 0.071 84.219 0.995 -4.097 0.995 -4.097 0.071 84.219 
125.893 0.075 84.075 0.995 -4.289 0.995 -4.289 0.075 84.075 
131.826 0.078 83.92 0.995 -4.491 0.995 -4.491 0.078 83.92 
138.038 0.082 83.754 0.994 -4.701 0.994 -4.701 0.082 83.754 
144.544 0.086 83.576 0.994 -4.922 0.994 -4.922 0.086 83.576 
151.356 0.09 83.388 0.994 -5.153 0.994 -5.153 0.09 83.388 
158.489 0.094 83.187 0.993 -5.394 0.993 -5.394 0.094 83.187 
165.959 0.098 82.974 0.993 -5.647 0.993 -5.647 0.098 82.974 
173.78 0.103 82.747 0.992 -5.911 0.992 -5.911 0.103 82.747 
181.97 0.108 82.508 0.992 -6.188 0.992 -6.188 0.108 82.508 
190.546 0.113 82.255 0.991 -6.477 0.991 -6.477 0.113 82.255 
199.526 0.118 81.987 0.99 -6.779 0.99 -6.779 0.118 81.987 
208.93 0.124 81.704 0.99 -7.096 0.99 -7.096 0.124 81.704 
218.776 0.129 81.406 0.989 -7.427 0.989 -7.427 0.129 81.406 
229.087 0.135 81.091 0.988 -7.773 0.988 -7.773 0.135 81.091 
239.883 0.142 80.76 0.987 -8.135 0.987 -8.135 0.142 80.76 
251.189 0.148 80.412 0.986 -8.513 0.986 -8.513 0.148 80.412 
263.027 0.155 80.045 0.985 -8.908 0.985 -8.908 0.155 80.045 
275.423 0.162 79.66 0.984 -9.322 0.984 -9.322 0.162 79.66 
288.403 0.169 79.255 0.983 -9.753 0.983 -9.753 0.169 79.255 
301.995 0.177 78.83 0.981 -10.205 0.981 -10.205 0.177 78.83 
316.228 0.185 78.385 0.98 -10.676 0.98 -10.676 0.185 78.385 
331.131 0.194 77.918 0.978 -11.168 0.978 -11.168 0.194 77.918 
346.737 0.202 77.428 0.976 -11.681 0.976 -11.681 0.202 77.428 
363.078 0.212 76.915 0.974 -12.217 0.974 -12.217 0.212 76.915 
380.189 0.221 76.379 0.972 -12.777 0.972 -12.777 0.221 76.379 
398.107 0.231 75.817 0.97 -13.36 0.97 -13.36 0.231 75.817 
416.869 0.241 75.23 0.967 -13.968 0.967 -13.968 0.241 75.23 
436.516 0.252 74.617 0.964 -14.602 0.964 -14.602 0.252 74.617 
457.088 0.263 73.977 0.961 -15.263 0.961 -15.263 0.263 73.977 
478.63 0.275 73.308 0.958 -15.951 0.958 -15.951 0.275 73.308 
501.187 0.287 72.611 0.954 -16.667 0.954 -16.667 0.287 72.611 
524.807 0.299 71.885 0.951 -17.412 0.951 -17.412 0.299 71.885 
549.541 0.312 71.128 0.946 -18.186 0.946 -18.186 0.312 71.128 
575.44 0.325 70.34 0.942 -18.991 0.942 -18.991 0.325 70.34 
602.56 0.339 69.521 0.937 -19.827 0.937 -19.827 0.339 69.521 
630.957 0.353 68.67 0.932 -20.694 0.932 -20.694 0.353 68.67 
660.693 0.368 67.787 0.926 -21.593 0.926 -21.593 0.368 67.787 
691.831 0.383 66.87 0.92 -22.525 0.92 -22.525 0.383 66.87 
724.436 0.399 65.921 0.913 -23.489 0.913 -23.489 0.399 65.921 
758.578 0.414 64.938 0.906 -24.486 0.906 -24.486 0.414 64.938 
794.328 0.431 63.921 0.898 -25.517 0.898 -25.517 0.431 63.921 
831.764 0.447 62.871 0.89 -26.58 0.89 -26.58 0.447 62.871 
870.964 0.465 61.787 0.881 -27.677 0.881 -27.677 0.465 61.787 
912.011 0.482 60.671 0.872 -28.805 0.872 -28.805 0.482 60.671 
954.993 0.5 59.522 0.862 -29.966 0.862 -29.966 0.5 59.522 
1000 0.517 58.341 0.851 -31.159 0.851 -31.159 0.517 58.341 
1047.129 0.536 57.129 0.84 -32.381 0.84 -32.381 0.536 57.129 
1096.478 0.554 55.887 0.828 -33.634 0.828 -33.634 0.554 55.887 
1148.154 0.572 54.616 0.815 -34.914 0.815 -34.914 0.572 54.616 
1202.264 0.591 53.318 0.802 -36.222 0.802 -36.222 0.591 53.318 
1258.925 0.61 51.994 0.788 -37.554 0.788 -37.554 0.61 51.994 
1318.257 0.628 50.646 0.773 -38.911 0.773 -38.911 0.628 50.646 
1380.384 0.647 49.276 0.758 -40.289 0.758 -40.289 0.647 49.276 
1445.44 0.665 47.886 0.742 -41.686 0.742 -41.686 0.665 47.886 
1513.561 0.683 46.477 0.725 -43.101 0.725 -43.101 0.683 46.477 
1584.893 0.701 45.053 0.708 -44.53 0.708 -44.53 0.701 45.053 
1659.587 0.719 43.616 0.69 -45.972 0.69 -45.972 0.719 43.616 
1737.801 0.736 42.168 0.671 -47.424 0.671 -47.424 0.736 42.168 
1819.701 0.753 40.711 0.652 -48.884 0.652 -48.884 0.753 40.711 
1905.461 0.77 39.249 0.633 -50.348 0.633 -50.348 0.77 39.249 
1995.262 0.786 37.783 0.613 -51.815 0.613 -51.815 0.786 37.783 
2089.296 0.802 36.316 0.592 -53.281 0.592 -53.281 0.802 36.316 
2187.762 0.817 34.85 0.571 -54.744 0.571 -54.744 0.817 34.85 
2290.868 0.831 33.388 0.55 -56.203 0.55 -56.203 0.831 33.388 
2398.833 0.845 31.931 0.529 -57.653 0.529 -57.653 0.845 31.931 
2511.886 0.858 30.482 0.507 -59.094 0.507 -59.094 0.858 30.482 
2630.268 0.871 29.042 0.485 -60.524 0.485 -60.524 0.871 29.042 
2754.229 0.882 27.612 0.463 -61.939 0.463 -61.939 0.882 27.612 
2884.032 0.894 26.194 0.441 -63.339 0.441 -63.339 0.894 26.194 
3019.952 0.904 24.79 0.419 -64.721 0.419 -64.721 0.904 24.79 
3162.278 0.914 23.399 0.397 -66.084 0.397 -66.084 0.914 23.399 
3311.311 0.923 22.024 0.375 -67.425 0.375 -67.425 0.923 22.024 
3467.369 0.932 20.663 0.353 -68.744 0.353 -68.744 0.932 20.663 
3630.781 0.94 19.319 0.331 -70.038 0.331 -70.038 0.94 19.319 
3801.894 0.947 17.99 0.309 -71.305 0.309 -71.305 0.947 17.99 
3981.072 0.954 16.676 0.287 -72.541 0.287 -72.541 0.954 16.676 
4168.694 0.96 15.379 0.265 -73.744 0.265 -73.744 0.96 15.379 
4365.158 0.966 14.096 0.244 -74.909 0.244 -74.909 0.966 14.096 
4570.882 0.971 12.827 0.222 -76.03 0.222 -76.03 0.971 12.827 
4786.301 0.975 11.573 0.201 -77.096 0.201 -77.096 0.975 11.573 
5011.872 0.979 10.331 0.179 -78.094 0.179 -78.094 0.979 10.331 
5248.075 0.982 9.102 0.158 -79.002 0.158 -79.002 0.982 9.102 
5495.409 0.985 7.883 0.137 -79.786 0.137 -79.786 0.985 7.883 
5754.399 0.987 6.675 0.116 -80.384 0.116 -80.384 0.987 6.675 
6025.596 0.989 5.475 0.096 -80.683 0.096 -80.683 0.989 5.475 
6309.573 0.99 4.284 0.075 -80.445 0.075 -80.445 0.99 4.284 
6606.934 0.991 3.098 0.055 -79.075 0.055 -79.075 0.991 3.098 
6918.31 0.991 1.918 0.034 -74.6 0.034 -74.6 0.991 1.918 
7244.36 0.991 0.742 0.016 -55.432 0.016 -55.432 0.991 0.742 
7585.776 0.991 -0.431 0.012 38.197 0.012 38.197 0.991 -0.431 
7943.282 0.989 -1.602 0.03 68.351 0.03 68.351 0.989 -1.602 
8317.638 0.988 -2.773 0.05 74.334 0.05 74.334 0.988 -2.773 
8709.636 0.986 -3.945 0.07 76.136 0.07 76.136 0.986 -3.945 
9120.108 0.983 -5.118 0.09 76.544 0.09 76.544 0.983 -5.118 
9549.926 0.98 -6.294 0.111 76.318 0.111 76.318 0.98 -6.294 
10000 0.976 -7.474 0.131 75.75 0.131 75.75 0.976 -7.474 
