# MHz S MA R 50

1 0.026 29.103 0.977 -0.739 0.977 -0.739 0.026 29.103 
1.047 0.026 30.149 0.977 -0.774 0.977 -0.774 0.026 30.149 
1.097 0.027 31.214 0.977 -0.811 0.977 -0.811 0.027 31.214 
1.149 0.027 32.297 0.977 -0.849 0.977 -0.849 0.027 32.297 
1.203 0.028 33.396 0.977 -0.889 0.977 -0.889 0.028 33.396 
1.26 0.028 34.509 0.977 -0.931 0.977 -0.931 0.028 34.509 
1.32 0.029 35.635 0.977 -0.975 0.977 -0.975 0.029 35.635 
1.383 0.029 36.771 0.977 -1.021 0.977 -1.021 0.029 36.771 
1.448 0.03 37.916 0.977 -1.07 0.977 -1.07 0.03 37.916 
1.517 0.03 39.068 0.977 -1.12 0.977 -1.12 0.03 39.068 
1.589 0.031 40.223 0.977 -1.173 0.977 -1.173 0.031 40.223 
1.664 0.032 41.381 0.976 -1.229 0.976 -1.229 0.032 41.381 
1.743 0.032 42.538 0.976 -1.287 0.976 -1.287 0.032 42.538 
1.825 0.033 43.692 0.976 -1.347 0.976 -1.347 0.033 43.692 
1.912 0.034 44.842 0.976 -1.411 0.976 -1.411 0.034 44.842 
2.003 0.035 45.984 0.976 -1.478 0.976 -1.478 0.035 45.984 
2.097 0.036 47.116 0.976 -1.548 0.976 -1.548 0.036 47.116 
2.197 0.037 48.236 0.976 -1.621 0.976 -1.621 0.037 48.236 
2.301 0.038 49.342 0.976 -1.697 0.976 -1.697 0.038 49.342 
2.41 0.039 50.432 0.975 -1.778 0.975 -1.778 0.039 50.432 
2.524 0.04 51.504 0.975 -1.862 0.975 -1.862 0.04 51.504 
2.644 0.042 52.556 0.975 -1.949 0.975 -1.949 0.042 52.556 
2.769 0.043 53.586 0.975 -2.042 0.975 -2.042 0.043 53.586 
2.9 0.045 54.592 0.975 -2.138 0.975 -2.138 0.045 54.592 
3.038 0.046 55.574 0.975 -2.239 0.975 -2.239 0.046 55.574 
3.182 0.048 56.529 0.974 -2.345 0.974 -2.345 0.048 56.529 
3.332 0.05 57.457 0.974 -2.455 0.974 -2.455 0.05 57.457 
3.49 0.051 58.356 0.974 -2.571 0.974 -2.571 0.051 58.356 
3.656 0.053 59.226 0.974 -2.692 0.974 -2.692 0.053 59.226 
3.829 0.055 60.065 0.974 -2.819 0.974 -2.819 0.055 60.065 
4.01 0.057 60.874 0.973 -2.952 0.973 -2.952 0.057 60.874 
4.2 0.06 61.651 0.973 -3.092 0.973 -3.092 0.06 61.651 
4.399 0.062 62.395 0.973 -3.237 0.973 -3.237 0.062 62.395 
4.608 0.064 63.108 0.973 -3.39 0.973 -3.39 0.064 63.108 
4.826 0.067 63.787 0.972 -3.55 0.972 -3.55 0.067 63.787 
5.055 0.07 64.433 0.972 -3.717 0.972 -3.717 0.07 64.433 
5.294 0.073 65.046 0.972 -3.892 0.972 -3.892 0.073 65.046 
5.545 0.076 65.626 0.971 -4.075 0.971 -4.075 0.076 65.626 
5.808 0.079 66.172 0.971 -4.267 0.971 -4.267 0.079 66.172 
6.083 0.082 66.685 0.97 -4.467 0.97 -4.467 0.082 66.685 
6.372 0.086 67.165 0.97 -4.677 0.97 -4.677 0.086 67.165 
6.673 0.09 67.611 0.969 -4.897 0.969 -4.897 0.09 67.611 
6.99 0.093 68.024 0.969 -5.127 0.969 -5.127 0.093 68.024 
7.321 0.097 68.403 0.968 -5.368 0.968 -5.368 0.097 68.403 
7.668 0.102 68.75 0.968 -5.619 0.968 -5.619 0.102 68.75 
8.031 0.106 69.063 0.967 -5.883 0.967 -5.883 0.106 69.063 
8.412 0.111 69.343 0.966 -6.158 0.966 -6.158 0.111 69.343 
8.81 0.116 69.591 0.966 -6.446 0.966 -6.446 0.116 69.591 
9.228 0.121 69.805 0.965 -6.748 0.965 -6.748 0.121 69.805 
9.665 0.126 69.987 0.964 -7.063 0.964 -7.063 0.126 69.987 
10.123 0.132 70.135 0.963 -7.392 0.963 -7.392 0.132 70.135 
10.603 0.138 70.251 0.962 -7.737 0.962 -7.737 0.138 70.251 
11.105 0.144 70.333 0.961 -8.097 0.961 -8.097 0.144 70.333 
11.631 0.15 70.383 0.96 -8.473 0.96 -8.473 0.15 70.383 
12.182 0.157 70.4 0.959 -8.866 0.959 -8.866 0.157 70.4 
12.76 0.164 70.383 0.958 -9.277 0.958 -9.277 0.164 70.383 
13.364 0.171 70.333 0.956 -9.706 0.956 -9.706 0.171 70.333 
13.998 0.179 70.25 0.955 -10.155 0.955 -10.155 0.179 70.25 
14.661 0.187 70.133 0.953 -10.622 0.953 -10.622 0.187 70.133 
15.355 0.195 69.982 0.951 -11.111 0.951 -11.111 0.195 69.982 
16.083 0.204 69.796 0.949 -11.62 0.949 -11.62 0.204 69.796 
16.845 0.213 69.577 0.947 -12.152 0.947 -12.152 0.213 69.577 
17.643 0.222 69.322 0.945 -12.706 0.945 -12.706 0.222 69.322 
18.479 0.232 69.033 0.942 -13.284 0.942 -13.284 0.232 69.033 
19.355 0.242 68.708 0.94 -13.885 0.94 -13.885 0.242 68.708 
20.272 0.253 68.348 0.937 -14.512 0.937 -14.512 0.253 68.348 
21.233 0.263 67.952 0.934 -15.164 0.934 -15.164 0.263 67.952 
22.239 0.275 67.519 0.93 -15.843 0.93 -15.843 0.275 67.519 
23.293 0.287 67.05 0.927 -16.549 0.927 -16.549 0.287 67.05 
24.396 0.299 66.545 0.923 -17.282 0.923 -17.282 0.299 66.545 
25.552 0.311 66.002 0.919 -18.044 0.919 -18.044 0.311 66.002 
26.763 0.324 65.423 0.914 -18.834 0.914 -18.834 0.324 65.423 
28.031 0.338 64.806 0.909 -19.653 0.909 -19.653 0.338 64.806 
29.36 0.352 64.151 0.904 -20.502 0.904 -20.502 0.352 64.151 
30.751 0.366 63.46 0.898 -21.381 0.898 -21.381 0.366 63.46 
32.208 0.381 62.731 0.892 -22.289 0.892 -22.289 0.381 62.731 
33.734 0.396 61.966 0.886 -23.228 0.886 -23.228 0.396 61.966 
35.332 0.411 61.163 0.879 -24.197 0.879 -24.197 0.411 61.163 
37.007 0.427 60.325 0.872 -25.196 0.872 -25.196 0.427 60.325 
38.76 0.443 59.451 0.864 -26.224 0.864 -26.224 0.443 59.451 
40.597 0.46 58.542 0.855 -27.281 0.855 -27.281 0.46 58.542 
42.521 0.476 57.599 0.846 -28.367 0.846 -28.367 0.476 57.599 
44.535 0.493 56.623 0.837 -29.48 0.837 -29.48 0.493 56.623 
46.646 0.51 55.616 0.827 -30.62 0.827 -30.62 0.51 55.616 
48.856 0.528 54.578 0.817 -31.785 0.817 -31.785 0.528 54.578 
51.171 0.545 53.512 0.805 -32.974 0.805 -32.974 0.545 53.512 
53.596 0.563 52.419 0.794 -34.185 0.794 -34.185 0.563 52.419 
56.135 0.58 51.301 0.782 -35.417 0.782 -35.417 0.58 51.301 
58.795 0.598 50.16 0.769 -36.667 0.769 -36.667 0.598 50.16 
61.581 0.616 48.998 0.756 -37.934 0.756 -37.934 0.616 48.998 
64.499 0.633 47.819 0.742 -39.215 0.742 -39.215 0.633 47.819 
67.555 0.65 46.624 0.728 -40.508 0.728 -40.508 0.65 46.624 
70.756 0.667 45.416 0.713 -41.81 0.713 -41.81 0.667 45.416 
74.109 0.684 44.198 0.698 -43.118 0.698 -43.118 0.684 44.198 
77.621 0.701 42.973 0.682 -44.43 0.682 -44.43 0.701 42.973 
81.299 0.717 41.743 0.666 -45.744 0.666 -45.744 0.717 41.743 
85.151 0.733 40.512 0.65 -47.056 0.65 -47.056 0.733 40.512 
89.186 0.748 39.283 0.634 -48.364 0.634 -48.364 0.748 39.283 
93.412 0.763 38.057 0.617 -49.665 0.617 -49.665 0.763 38.057 
97.838 0.777 36.838 0.6 -50.956 0.6 -50.956 0.777 36.838 
102.474 0.791 35.629 0.583 -52.236 0.583 -52.236 0.791 35.629 
107.33 0.804 34.431 0.566 -53.501 0.566 -53.501 0.804 34.431 
112.416 0.817 33.248 0.549 -54.749 0.549 -54.749 0.817 33.248 
117.743 0.829 32.081 0.531 -55.979 0.531 -55.979 0.829 32.081 
123.322 0.841 30.932 0.514 -57.188 0.514 -57.188 0.841 30.932 
129.165 0.852 29.803 0.497 -58.375 0.497 -58.375 0.852 29.803 
135.286 0.862 28.696 0.48 -59.538 0.48 -59.538 0.862 28.696 
141.696 0.872 27.612 0.464 -60.676 0.464 -60.676 0.872 27.612 
148.41 0.882 26.553 0.447 -61.788 0.447 -61.788 0.882 26.553 
155.443 0.89 25.519 0.431 -62.872 0.431 -62.872 0.89 25.519 
162.808 0.899 24.511 0.415 -63.929 0.415 -63.929 0.899 24.511 
170.523 0.906 23.53 0.399 -64.956 0.399 -64.956 0.906 23.53 
178.603 0.914 22.576 0.384 -65.955 0.384 -65.955 0.914 22.576 
187.066 0.92 21.65 0.369 -66.924 0.369 -66.924 0.92 21.65 
195.93 0.927 20.752 0.354 -67.864 0.354 -67.864 0.927 20.752 
205.214 0.932 19.882 0.34 -68.774 0.34 -68.774 0.932 19.882 
214.938 0.938 19.039 0.326 -69.655 0.326 -69.655 0.938 19.039 
225.123 0.943 18.225 0.313 -70.507 0.313 -70.507 0.943 18.225 
235.79 0.948 17.438 0.3 -71.329 0.3 -71.329 0.948 17.438 
246.963 0.952 16.677 0.287 -72.124 0.287 -72.124 0.952 16.677 
258.665 0.956 15.944 0.275 -72.89 0.275 -72.89 0.956 15.944 
270.922 0.96 15.236 0.263 -73.629 0.263 -73.629 0.96 15.236 
283.76 0.963 14.554 0.251 -74.34 0.251 -74.34 0.963 14.554 
297.206 0.966 13.897 0.24 -75.026 0.24 -75.026 0.966 13.897 
311.289 0.969 13.263 0.229 -75.686 0.229 -75.686 0.969 13.263 
326.039 0.972 12.654 0.219 -76.321 0.219 -76.321 0.972 12.654 
341.488 0.974 12.067 0.209 -76.931 0.209 -76.931 0.974 12.067 
357.669 0.977 11.502 0.199 -77.518 0.199 -77.518 0.977 11.502 
374.617 0.979 10.958 0.19 -78.082 0.19 -78.082 0.979 10.958 
392.368 0.98 10.435 0.181 -78.624 0.181 -78.624 0.98 10.435 
410.96 0.982 9.932 0.173 -79.144 0.173 -79.144 0.982 9.932 
430.434 0.984 9.448 0.164 -79.644 0.164 -79.644 0.984 9.448 
450.829 0.985 8.982 0.156 -80.122 0.156 -80.122 0.985 8.982 
472.192 0.987 8.533 0.148 -80.581 0.148 -80.581 0.987 8.533 
494.566 0.988 8.101 0.141 -81.021 0.141 -81.021 0.988 8.101 
518.001 0.989 7.685 0.134 -81.442 0.134 -81.442 0.989 7.685 
542.546 0.99 7.285 0.127 -81.844 0.127 -81.844 0.99 7.285 
568.255 0.991 6.899 0.12 -82.229 0.12 -82.229 0.991 6.899 
595.181 0.992 6.527 0.114 -82.595 0.114 -82.595 0.992 6.527 
623.384 0.993 6.168 0.107 -82.944 0.107 -82.944 0.993 6.168 
652.922 0.993 5.822 0.101 -83.275 0.101 -83.275 0.993 5.822 
683.861 0.994 5.487 0.096 -83.588 0.096 -83.588 0.994 5.487 
716.265 0.994 5.164 0.09 -83.882 0.09 -83.882 0.994 5.164 
750.205 0.995 4.851 0.085 -84.157 0.085 -84.157 0.995 4.851 
785.753 0.995 4.549 0.079 -84.413 0.079 -84.413 0.995 4.549 
822.986 0.996 4.256 0.074 -84.647 0.074 -84.647 0.996 4.256 
861.983 0.996 3.971 0.069 -84.858 0.069 -84.858 0.996 3.971 
902.827 0.997 3.695 0.064 -85.043 0.064 -85.043 0.997 3.695 
945.607 0.997 3.427 0.06 -85.199 0.06 -85.199 0.997 3.427 
990.414 0.997 3.166 0.055 -85.321 0.055 -85.321 0.997 3.166 
1037.345 0.997 2.911 0.051 -85.403 0.051 -85.403 0.997 2.911 
1086.499 0.997 2.663 0.046 -85.436 0.046 -85.436 0.997 2.663 
1137.982 0.998 2.42 0.042 -85.408 0.042 -85.408 0.998 2.42 
1191.905 0.998 2.183 0.038 -85.302 0.038 -85.302 0.998 2.183 
1248.383 0.998 1.95 0.034 -85.093 0.034 -85.093 0.998 1.95 
1307.537 0.998 1.721 0.03 -84.742 0.03 -84.742 0.998 1.721 
1369.494 0.998 1.496 0.026 -84.188 0.026 -84.188 0.998 1.496 
1434.386 0.998 1.274 0.022 -83.332 0.022 -83.332 0.998 1.274 
1502.354 0.998 1.056 0.019 -81.99 0.019 -81.99 0.998 1.056 
1573.542 0.997 0.839 0.015 -79.807 0.015 -79.807 0.997 0.839 
1648.104 0.997 0.625 0.011 -75.973 0.011 -75.973 0.997 0.625 
1726.199 0.997 0.412 7.714e-3 -68.269 7.714e-3 -68.269 0.997 0.412 
1807.994 0.997 0.2 4.624e-3 -48.789 4.624e-3 -48.789 0.997 0.2 
1893.665 0.997 -0.011 3.295e-3 3.381 3.295e-3 3.381 0.997 -0.011 
1983.395 0.996 -0.222 5.269e-3 47.101 5.269e-3 47.101 0.996 -0.222 
2077.377 0.996 -0.433 8.493e-3 62.358 8.493e-3 62.358 0.996 -0.433 
2175.813 0.996 -0.644 0.012 68.747 0.012 68.747 0.996 -0.644 
2278.913 0.995 -0.856 0.016 72.013 0.016 72.013 0.995 -0.856 
2386.898 0.995 -1.069 0.019 73.87 0.019 73.87 0.995 -1.069 
2500 0.994 -1.284 0.023 74.977 0.023 74.977 0.994 -1.284 
