# MHz S MA R 50

1 9.283e-3 37.367 0.993 -0.325 0.993 -0.325 9.283e-3 37.367 
1.047 9.477e-3 38.495 0.993 -0.341 0.993 -0.341 9.477e-3 38.495 
1.097 9.684e-3 39.63 0.993 -0.357 0.993 -0.357 9.684e-3 39.63 
1.148 9.904e-3 40.77 0.993 -0.373 0.993 -0.373 9.904e-3 40.77 
1.202 0.01 41.913 0.992 -0.391 0.992 -0.391 0.01 41.913 
1.259 0.01 43.056 0.992 -0.409 0.992 -0.409 0.01 43.056 
1.318 0.011 44.199 0.992 -0.429 0.992 -0.429 0.011 44.199 
1.381 0.011 45.339 0.992 -0.449 0.992 -0.449 0.011 45.339 
1.446 0.011 46.473 0.992 -0.47 0.992 -0.47 0.011 46.473 
1.514 0.012 47.601 0.992 -0.492 0.992 -0.492 0.012 47.601 
1.585 0.012 48.719 0.992 -0.515 0.992 -0.515 0.012 48.719 
1.66 0.012 49.827 0.992 -0.54 0.992 -0.54 0.012 49.827 
1.738 0.013 50.923 0.992 -0.565 0.992 -0.565 0.013 50.923 
1.82 0.013 52.004 0.992 -0.592 0.992 -0.592 0.013 52.004 
1.906 0.013 53.07 0.992 -0.619 0.992 -0.619 0.013 53.07 
1.996 0.014 54.119 0.992 -0.649 0.992 -0.649 0.014 54.119 
2.09 0.014 55.149 0.992 -0.679 0.992 -0.679 0.014 55.149 
2.189 0.015 56.16 0.992 -0.711 0.992 -0.711 0.015 56.16 
2.292 0.015 57.15 0.992 -0.745 0.992 -0.745 0.015 57.15 
2.4 0.016 58.118 0.992 -0.78 0.992 -0.78 0.016 58.118 
2.513 0.016 59.064 0.992 -0.816 0.992 -0.816 0.016 59.064 
2.632 0.017 59.986 0.992 -0.855 0.992 -0.855 0.017 59.986 
2.756 0.018 60.884 0.991 -0.895 0.991 -0.895 0.018 60.884 
2.886 0.018 61.758 0.991 -0.937 0.991 -0.937 0.018 61.758 
3.022 0.019 62.607 0.991 -0.981 0.991 -0.981 0.019 62.607 
3.164 0.02 63.43 0.991 -1.028 0.991 -1.028 0.02 63.43 
3.314 0.021 64.228 0.991 -1.076 0.991 -1.076 0.021 64.228 
3.47 0.022 65 0.991 -1.127 0.991 -1.127 0.022 65 
3.633 0.022 65.747 0.991 -1.18 0.991 -1.18 0.022 65.747 
3.805 0.023 66.468 0.991 -1.235 0.991 -1.235 0.023 66.468 
3.984 0.024 67.163 0.991 -1.293 0.991 -1.293 0.024 67.163 
4.172 0.025 67.832 0.991 -1.354 0.991 -1.354 0.025 67.832 
4.369 0.026 68.476 0.991 -1.418 0.991 -1.418 0.026 68.476 
4.575 0.027 69.095 0.991 -1.485 0.991 -1.485 0.027 69.095 
4.791 0.029 69.688 0.99 -1.555 0.99 -1.555 0.029 69.688 
5.016 0.03 70.257 0.99 -1.628 0.99 -1.628 0.03 70.257 
5.253 0.031 70.801 0.99 -1.704 0.99 -1.704 0.031 70.801 
5.501 0.033 71.321 0.99 -1.784 0.99 -1.784 0.033 71.321 
5.76 0.034 71.817 0.99 -1.868 0.99 -1.868 0.034 71.817 
6.032 0.035 72.289 0.99 -1.956 0.99 -1.956 0.035 72.289 
6.316 0.037 72.738 0.99 -2.048 0.99 -2.048 0.037 72.738 
6.614 0.039 73.164 0.989 -2.145 0.989 -2.145 0.039 73.164 
6.926 0.04 73.568 0.989 -2.245 0.989 -2.245 0.04 73.568 
7.253 0.042 73.949 0.989 -2.351 0.989 -2.351 0.042 73.949 
7.595 0.044 74.308 0.989 -2.461 0.989 -2.461 0.044 74.308 
7.953 0.046 74.645 0.989 -2.577 0.989 -2.577 0.046 74.645 
8.328 0.048 74.961 0.989 -2.698 0.989 -2.698 0.048 74.961 
8.72 0.05 75.256 0.988 -2.825 0.988 -2.825 0.05 75.256 
9.132 0.053 75.53 0.988 -2.957 0.988 -2.957 0.053 75.53 
9.562 0.055 75.782 0.988 -3.096 0.988 -3.096 0.055 75.782 
10.013 0.058 76.015 0.988 -3.242 0.988 -3.242 0.058 76.015 
10.485 0.06 76.227 0.987 -3.394 0.987 -3.394 0.06 76.227 
10.98 0.063 76.419 0.987 -3.553 0.987 -3.553 0.063 76.419 
11.498 0.066 76.59 0.987 -3.72 0.987 -3.72 0.066 76.59 
12.04 0.069 76.742 0.986 -3.894 0.986 -3.894 0.069 76.742 
12.608 0.072 76.874 0.986 -4.077 0.986 -4.077 0.072 76.874 
13.202 0.075 76.986 0.986 -4.268 0.986 -4.268 0.075 76.986 
13.825 0.079 77.078 0.985 -4.467 0.985 -4.467 0.079 77.078 
14.477 0.082 77.151 0.985 -4.677 0.985 -4.677 0.082 77.151 
15.159 0.086 77.203 0.985 -4.895 0.985 -4.895 0.086 77.203 
15.874 0.09 77.236 0.984 -5.124 0.984 -5.124 0.09 77.236 
16.623 0.094 77.248 0.984 -5.364 0.984 -5.364 0.094 77.248 
17.406 0.099 77.241 0.983 -5.614 0.983 -5.614 0.099 77.241 
18.227 0.103 77.213 0.982 -5.876 0.982 -5.876 0.103 77.213 
19.087 0.108 77.165 0.982 -6.151 0.982 -6.151 0.108 77.165 
19.987 0.113 77.096 0.981 -6.437 0.981 -6.437 0.113 77.096 
20.929 0.118 77.006 0.98 -6.737 0.98 -6.737 0.118 77.006 
21.916 0.123 76.895 0.979 -7.05 0.979 -7.05 0.123 76.895 
22.95 0.129 76.763 0.979 -7.378 0.979 -7.378 0.129 76.763 
24.032 0.135 76.609 0.978 -7.721 0.978 -7.721 0.135 76.609 
25.165 0.141 76.432 0.977 -8.079 0.977 -8.079 0.141 76.432 
26.352 0.148 76.233 0.975 -8.453 0.975 -8.453 0.148 76.233 
27.595 0.154 76.011 0.974 -8.844 0.974 -8.844 0.154 76.011 
28.896 0.161 75.766 0.973 -9.252 0.973 -9.252 0.161 75.766 
30.258 0.169 75.497 0.972 -9.679 0.972 -9.679 0.169 75.497 
31.685 0.176 75.203 0.97 -10.124 0.97 -10.124 0.176 75.203 
33.179 0.184 74.885 0.968 -10.589 0.968 -10.589 0.184 74.885 
34.744 0.193 74.541 0.967 -11.074 0.967 -11.074 0.193 74.541 
36.383 0.201 74.171 0.965 -11.58 0.965 -11.58 0.201 74.171 
38.098 0.21 73.775 0.963 -12.108 0.963 -12.108 0.21 73.775 
39.895 0.22 73.352 0.96 -12.659 0.96 -12.659 0.22 73.352 
41.776 0.229 72.901 0.958 -13.233 0.958 -13.233 0.229 72.901 
43.746 0.24 72.422 0.955 -13.831 0.955 -13.831 0.24 72.422 
45.809 0.25 71.913 0.953 -14.453 0.953 -14.453 0.25 71.913 
47.969 0.261 71.376 0.949 -15.101 0.949 -15.101 0.261 71.376 
50.231 0.272 70.809 0.946 -15.776 0.946 -15.776 0.272 70.809 
52.6 0.284 70.211 0.943 -16.477 0.943 -16.477 0.284 70.211 
55.08 0.296 69.582 0.939 -17.205 0.939 -17.205 0.296 69.582 
57.678 0.309 68.921 0.934 -17.962 0.934 -17.962 0.309 68.921 
60.397 0.322 68.229 0.93 -18.747 0.93 -18.747 0.322 68.229 
63.246 0.335 67.505 0.925 -19.562 0.925 -19.562 0.335 67.505 
66.228 0.349 66.748 0.92 -20.406 0.92 -20.406 0.349 66.748 
69.351 0.363 65.958 0.914 -21.279 0.914 -21.279 0.363 65.958 
72.621 0.378 65.136 0.908 -22.183 0.908 -22.183 0.378 65.136 
76.046 0.393 64.281 0.902 -23.117 0.902 -23.117 0.393 64.281 
79.632 0.408 63.393 0.895 -24.081 0.895 -24.081 0.408 63.393 
83.387 0.424 62.472 0.888 -25.075 0.888 -25.075 0.424 62.472 
87.319 0.44 61.519 0.88 -26.099 0.88 -26.099 0.44 61.519 
91.437 0.457 60.535 0.871 -27.152 0.871 -27.152 0.457 60.535 
95.749 0.473 59.52 0.862 -28.234 0.862 -28.234 0.473 59.52 
100.264 0.49 58.474 0.853 -29.344 0.853 -29.344 0.49 58.474 
104.992 0.508 57.4 0.843 -30.48 0.843 -30.48 0.508 57.4 
109.943 0.525 56.297 0.832 -31.643 0.832 -31.643 0.525 56.297 
115.127 0.542 55.168 0.821 -32.83 0.821 -32.83 0.542 55.168 
120.556 0.56 54.015 0.81 -34.04 0.81 -34.04 0.56 54.015 
126.241 0.578 52.838 0.797 -35.272 0.797 -35.272 0.578 52.838 
132.194 0.595 51.639 0.785 -36.523 0.785 -36.523 0.595 51.639 
138.428 0.613 50.422 0.771 -37.792 0.771 -37.792 0.613 50.422 
144.956 0.631 49.188 0.757 -39.075 0.757 -39.075 0.631 49.188 
151.791 0.648 47.939 0.743 -40.372 0.743 -40.372 0.648 47.939 
158.949 0.665 46.679 0.728 -41.679 0.728 -41.679 0.665 46.679 
166.445 0.682 45.409 0.712 -42.994 0.712 -42.994 0.682 45.409 
174.294 0.699 44.132 0.697 -44.314 0.697 -44.314 0.699 44.132 
182.513 0.715 42.851 0.68 -45.637 0.68 -45.637 0.715 42.851 
191.119 0.731 41.569 0.664 -46.96 0.664 -46.96 0.731 41.569 
200.132 0.747 40.289 0.647 -48.279 0.647 -48.279 0.747 40.289 
209.569 0.762 39.012 0.63 -49.594 0.63 -49.594 0.762 39.012 
219.452 0.776 37.742 0.612 -50.9 0.612 -50.9 0.776 37.742 
229.8 0.79 36.482 0.595 -52.197 0.595 -52.197 0.79 36.482 
240.637 0.804 35.233 0.577 -53.48 0.577 -53.48 0.804 35.233 
251.984 0.817 33.998 0.559 -54.748 0.559 -54.748 0.817 33.998 
263.867 0.829 32.779 0.542 -55.999 0.542 -55.999 0.829 32.779 
276.31 0.841 31.578 0.524 -57.231 0.524 -57.231 0.841 31.578 
289.339 0.852 30.397 0.506 -58.442 0.506 -58.442 0.852 30.397 
302.984 0.863 29.237 0.489 -59.631 0.489 -59.631 0.863 29.237 
317.271 0.873 28.099 0.471 -60.796 0.471 -60.796 0.873 28.099 
332.232 0.883 26.986 0.454 -61.936 0.454 -61.936 0.883 26.986 
347.899 0.892 25.897 0.437 -63.05 0.437 -63.05 0.892 25.897 
364.305 0.9 24.834 0.42 -64.138 0.42 -64.138 0.9 24.834 
381.484 0.908 23.797 0.404 -65.198 0.404 -65.198 0.908 23.797 
399.473 0.915 22.787 0.387 -66.231 0.387 -66.231 0.915 22.787 
418.311 0.922 21.804 0.371 -67.235 0.371 -67.235 0.922 21.804 
438.037 0.929 20.848 0.356 -68.211 0.356 -68.211 0.929 20.848 
458.693 0.935 19.919 0.341 -69.159 0.341 -69.159 0.935 19.919 
480.323 0.94 19.017 0.326 -70.079 0.326 -70.079 0.94 19.017 
502.973 0.945 18.141 0.311 -70.97 0.311 -70.97 0.945 18.141 
526.692 0.95 17.292 0.297 -71.834 0.297 -71.834 0.95 17.292 
551.528 0.955 16.47 0.284 -72.67 0.284 -72.67 0.955 16.47 
577.536 0.959 15.672 0.27 -73.48 0.27 -73.48 0.959 15.672 
604.771 0.963 14.899 0.257 -74.262 0.257 -74.262 0.963 14.899 
633.289 0.966 14.151 0.245 -75.019 0.245 -75.019 0.966 14.151 
663.153 0.969 13.426 0.232 -75.751 0.232 -75.751 0.969 13.426 
694.425 0.972 12.723 0.22 -76.457 0.22 -76.457 0.972 12.723 
727.171 0.975 12.043 0.209 -77.139 0.209 -77.139 0.975 12.043 
761.462 0.978 11.383 0.197 -77.797 0.197 -77.797 0.978 11.383 
797.369 0.98 10.744 0.186 -78.432 0.186 -78.432 0.98 10.744 
834.97 0.982 10.123 0.176 -79.043 0.176 -79.043 0.982 10.123 
874.344 0.984 9.522 0.165 -79.632 0.165 -79.632 0.984 9.522 
915.575 0.986 8.938 0.155 -80.198 0.155 -80.198 0.986 8.938 
958.75 0.987 8.37 0.146 -80.741 0.146 -80.741 0.987 8.37 
1003.961 0.989 7.818 0.136 -81.262 0.136 -81.262 0.989 7.818 
1051.303 0.99 7.281 0.127 -81.758 0.127 -81.758 0.99 7.281 
1100.879 0.991 6.758 0.118 -82.23 0.118 -82.23 0.991 6.758 
1152.792 0.992 6.248 0.109 -82.676 0.109 -82.676 0.992 6.248 
1207.153 0.993 5.75 0.1 -83.093 0.1 -83.093 0.993 5.75 
1264.078 0.994 5.263 0.092 -83.478 0.092 -83.478 0.994 5.263 
1323.687 0.994 4.786 0.083 -83.825 0.083 -83.825 0.994 4.786 
1386.107 0.995 4.319 0.075 -84.127 0.075 -84.127 0.995 4.319 
1451.471 0.996 3.86 0.067 -84.373 0.067 -84.373 0.996 3.86 
1519.916 0.996 3.409 0.06 -84.543 0.06 -84.543 0.996 3.409 
1591.59 0.996 2.965 0.052 -84.61 0.052 -84.61 0.996 2.965 
1666.643 0.997 2.527 0.044 -84.524 0.044 -84.524 0.997 2.527 
1745.235 0.997 2.094 0.037 -84.196 0.037 -84.196 0.997 2.094 
1827.534 0.997 1.665 0.029 -83.446 0.029 -83.446 0.997 1.665 
1913.713 0.997 1.24 0.022 -81.856 0.022 -81.856 0.997 1.24 
2003.957 0.997 0.818 0.015 -78.172 0.015 -78.172 0.997 0.818 
2098.456 0.997 0.397 7.53e-3 -66.505 7.53e-3 -66.505 0.997 0.397 
2197.411 0.997 -0.023 3.18e-3 7.175 3.18e-3 7.175 0.997 -0.023 
2301.032 0.997 -0.442 8.428e-3 65.901 8.428e-3 65.901 0.997 -0.442 
2409.54 0.996 -0.862 0.015 75.559 0.015 75.559 0.996 -0.862 
2523.164 0.996 -1.284 0.023 78.796 0.023 78.796 0.996 -1.284 
2642.147 0.995 -1.707 0.03 80.207 0.03 80.207 0.995 -1.707 
2766.741 0.995 -2.134 0.038 80.851 0.038 80.851 0.995 -2.134 
2897.209 0.994 -2.564 0.045 81.099 0.045 81.099 0.994 -2.564 
3033.831 0.993 -2.999 0.053 81.114 0.053 81.114 0.993 -2.999 
3176.894 0.992 -3.439 0.06 80.976 0.06 80.976 0.992 -3.439 
3326.704 0.991 -3.885 0.068 80.733 0.068 80.733 0.991 -3.885 
3483.579 0.99 -4.337 0.076 80.41 0.076 80.41 0.99 -4.337 
3647.851 0.989 -4.798 0.084 80.025 0.084 80.025 0.989 -4.798 
3819.87 0.988 -5.266 0.092 79.589 0.092 79.589 0.988 -5.266 
4000 0.986 -5.743 0.1 79.109 0.1 79.109 0.986 -5.743 
