# MHz S MA R 50

1 944.1e-6 46.983 0.999 -0.04 0.999 -0.04 944.1e-6 46.983 
1.047 971.6e-6 48.065 0.999 -0.041 0.999 -0.041 971.6e-6 48.065 
1.096 1.001e-3 49.139 0.999 -0.043 0.999 -0.043 1.001e-3 49.139 
1.148 1.031e-3 50.203 0.999 -0.045 0.999 -0.045 1.031e-3 50.203 
1.202 1.064e-3 51.257 0.999 -0.048 0.999 -0.048 1.064e-3 51.257 
1.259 1.098e-3 52.298 0.999 -0.05 0.999 -0.05 1.098e-3 52.298 
1.318 1.134e-3 53.326 0.999 -0.052 0.999 -0.052 1.134e-3 53.326 
1.38 1.173e-3 54.34 0.999 -0.055 0.999 -0.055 1.173e-3 54.34 
1.445 1.213e-3 55.338 0.999 -0.057 0.999 -0.057 1.213e-3 55.338 
1.514 1.255e-3 56.319 0.999 -0.06 0.999 -0.06 1.255e-3 56.319 
1.585 1.3e-3 57.283 0.999 -0.063 0.999 -0.063 1.3e-3 57.283 
1.66 1.347e-3 58.229 0.999 -0.066 0.999 -0.066 1.347e-3 58.229 
1.738 1.397e-3 59.156 0.999 -0.069 0.999 -0.069 1.397e-3 59.156 
1.82 1.449e-3 60.063 0.999 -0.072 0.999 -0.072 1.449e-3 60.063 
1.905 1.504e-3 60.951 0.999 -0.075 0.999 -0.075 1.504e-3 60.951 
1.995 1.562e-3 61.819 0.999 -0.079 0.999 -0.079 1.562e-3 61.819 
2.089 1.623e-3 62.665 0.999 -0.083 0.999 -0.083 1.623e-3 62.665 
2.188 1.687e-3 63.492 0.999 -0.087 0.999 -0.087 1.687e-3 63.492 
2.291 1.755e-3 64.297 0.999 -0.091 0.999 -0.091 1.755e-3 64.297 
2.399 1.825e-3 65.081 0.999 -0.095 0.999 -0.095 1.825e-3 65.081 
2.512 1.9e-3 65.844 0.999 -0.099 0.999 -0.099 1.9e-3 65.844 
2.63 1.978e-3 66.586 0.999 -0.104 0.999 -0.104 1.978e-3 66.586 
2.754 2.06e-3 67.307 0.999 -0.109 0.999 -0.109 2.06e-3 67.307 
2.884 2.146e-3 68.008 0.999 -0.114 0.999 -0.114 2.146e-3 68.008 
3.02 2.237e-3 68.688 0.999 -0.119 0.999 -0.119 2.237e-3 68.688 
3.162 2.332e-3 69.348 0.999 -0.125 0.999 -0.125 2.332e-3 69.348 
3.311 2.432e-3 69.988 0.999 -0.131 0.999 -0.131 2.432e-3 69.988 
3.467 2.536e-3 70.608 0.999 -0.137 0.999 -0.137 2.536e-3 70.608 
3.631 2.646e-3 71.209 0.999 -0.144 0.999 -0.144 2.646e-3 71.209 
3.802 2.761e-3 71.791 0.999 -0.15 0.999 -0.15 2.761e-3 71.791 
3.981 2.882e-3 72.354 0.999 -0.158 0.999 -0.158 2.882e-3 72.354 
4.169 3.009e-3 72.899 0.999 -0.165 0.999 -0.165 3.009e-3 72.899 
4.365 3.142e-3 73.426 0.999 -0.173 0.999 -0.173 3.142e-3 73.426 
4.571 3.282e-3 73.936 0.999 -0.181 0.999 -0.181 3.282e-3 73.936 
4.786 3.428e-3 74.429 0.999 -0.189 0.999 -0.189 3.428e-3 74.429 
5.012 3.581e-3 74.905 0.999 -0.198 0.999 -0.198 3.581e-3 74.905 
5.248 3.742e-3 75.365 0.999 -0.208 0.999 -0.208 3.742e-3 75.365 
5.495 3.91e-3 75.809 0.999 -0.217 0.999 -0.217 3.91e-3 75.809 
5.754 4.087e-3 76.238 0.999 -0.228 0.999 -0.228 4.087e-3 76.238 
6.026 4.272e-3 76.652 0.999 -0.238 0.999 -0.238 4.272e-3 76.652 
6.31 4.466e-3 77.052 0.999 -0.25 0.999 -0.25 4.466e-3 77.052 
6.607 4.669e-3 77.437 0.999 -0.261 0.999 -0.261 4.669e-3 77.437 
6.918 4.882e-3 77.809 0.999 -0.274 0.999 -0.274 4.882e-3 77.809 
7.244 5.105e-3 78.167 0.999 -0.287 0.999 -0.287 5.105e-3 78.167 
7.586 5.339e-3 78.512 0.999 -0.3 0.999 -0.3 5.339e-3 78.512 
7.943 5.584e-3 78.845 0.999 -0.314 0.999 -0.314 5.584e-3 78.845 
8.318 5.84e-3 79.166 0.999 -0.329 0.999 -0.329 5.84e-3 79.166 
8.71 6.109e-3 79.474 0.999 -0.345 0.999 -0.345 6.109e-3 79.474 
9.12 6.391e-3 79.771 0.999 -0.361 0.999 -0.361 6.391e-3 79.771 
9.55 6.686e-3 80.057 0.999 -0.378 0.999 -0.378 6.686e-3 80.057 
10 6.995e-3 80.332 0.999 -0.396 0.999 -0.396 6.995e-3 80.332 
10.471 7.319e-3 80.597 0.999 -0.414 0.999 -0.414 7.319e-3 80.597 
10.965 7.658e-3 80.851 0.999 -0.434 0.999 -0.434 7.658e-3 80.851 
11.482 8.013e-3 81.095 0.999 -0.454 0.999 -0.454 8.013e-3 81.095 
12.023 8.385e-3 81.329 0.999 -0.476 0.999 -0.476 8.385e-3 81.329 
12.589 8.775e-3 81.554 0.999 -0.498 0.999 -0.498 8.775e-3 81.554 
13.183 9.183e-3 81.77 0.999 -0.521 0.999 -0.521 9.183e-3 81.77 
13.804 9.61e-3 81.976 0.999 -0.546 0.999 -0.546 9.61e-3 81.976 
14.454 0.01 82.174 0.999 -0.572 0.999 -0.572 0.01 82.174 
15.136 0.011 82.364 0.999 -0.599 0.999 -0.599 0.011 82.364 
15.849 0.011 82.544 0.999 -0.627 0.999 -0.627 0.011 82.544 
16.596 0.012 82.717 0.999 -0.656 0.999 -0.656 0.012 82.717 
17.378 0.012 82.882 0.999 -0.687 0.999 -0.687 0.012 82.882 
18.197 0.013 83.039 0.999 -0.72 0.999 -0.72 0.013 83.039 
19.055 0.013 83.188 0.999 -0.753 0.999 -0.753 0.013 83.188 
19.953 0.014 83.33 0.998 -0.789 0.998 -0.789 0.014 83.33 
20.893 0.014 83.464 0.998 -0.826 0.998 -0.826 0.014 83.464 
21.878 0.015 83.591 0.998 -0.865 0.998 -0.865 0.015 83.591 
22.909 0.016 83.711 0.998 -0.906 0.998 -0.906 0.016 83.711 
23.988 0.017 83.823 0.998 -0.948 0.998 -0.948 0.017 83.823 
25.119 0.017 83.929 0.998 -0.993 0.998 -0.993 0.017 83.929 
26.303 0.018 84.028 0.998 -1.04 0.998 -1.04 0.018 84.028 
27.542 0.019 84.12 0.998 -1.089 0.998 -1.089 0.019 84.12 
28.84 0.02 84.205 0.998 -1.14 0.998 -1.14 0.02 84.205 
30.2 0.021 84.284 0.998 -1.194 0.998 -1.194 0.021 84.284 
31.623 0.022 84.355 0.998 -1.25 0.998 -1.25 0.022 84.355 
33.113 0.023 84.421 0.998 -1.309 0.998 -1.309 0.023 84.421 
34.674 0.024 84.479 0.998 -1.37 0.998 -1.37 0.024 84.479 
36.308 0.025 84.531 0.998 -1.435 0.998 -1.435 0.025 84.531 
38.019 0.026 84.576 0.998 -1.503 0.998 -1.503 0.026 84.576 
39.811 0.028 84.615 0.998 -1.573 0.998 -1.573 0.028 84.615 
41.687 0.029 84.646 0.998 -1.647 0.998 -1.647 0.029 84.646 
43.652 0.03 84.672 0.998 -1.725 0.998 -1.725 0.03 84.672 
45.709 0.032 84.69 0.998 -1.806 0.998 -1.806 0.032 84.69 
47.863 0.033 84.701 0.997 -1.891 0.997 -1.891 0.033 84.701 
50.119 0.035 84.706 0.997 -1.98 0.997 -1.98 0.035 84.706 
52.481 0.036 84.703 0.997 -2.073 0.997 -2.073 0.036 84.703 
54.954 0.038 84.694 0.997 -2.171 0.997 -2.171 0.038 84.694 
57.544 0.04 84.677 0.997 -2.273 0.997 -2.273 0.04 84.677 
60.256 0.042 84.653 0.997 -2.38 0.997 -2.38 0.042 84.653 
63.096 0.044 84.621 0.997 -2.492 0.997 -2.492 0.044 84.621 
66.069 0.046 84.582 0.997 -2.609 0.997 -2.609 0.046 84.582 
69.183 0.048 84.534 0.997 -2.732 0.997 -2.732 0.048 84.534 
72.444 0.05 84.479 0.996 -2.86 0.996 -2.86 0.05 84.479 
75.858 0.052 84.416 0.996 -2.995 0.996 -2.995 0.052 84.416 
79.433 0.055 84.344 0.996 -3.135 0.996 -3.135 0.055 84.344 
83.176 0.057 84.264 0.996 -3.283 0.996 -3.283 0.057 84.264 
87.096 0.06 84.175 0.996 -3.437 0.996 -3.437 0.06 84.175 
91.201 0.063 84.076 0.995 -3.598 0.995 -3.598 0.063 84.076 
95.499 0.066 83.969 0.995 -3.767 0.995 -3.767 0.066 83.969 
100 0.069 83.851 0.995 -3.944 0.995 -3.944 0.069 83.851 
104.713 0.072 83.724 0.995 -4.129 0.995 -4.129 0.072 83.724 
109.648 0.075 83.586 0.994 -4.323 0.994 -4.323 0.075 83.586 
114.815 0.079 83.438 0.994 -4.526 0.994 -4.526 0.079 83.438 
120.226 0.083 83.279 0.994 -4.738 0.994 -4.738 0.083 83.279 
125.893 0.087 83.108 0.993 -4.96 0.993 -4.96 0.087 83.108 
131.826 0.091 82.926 0.993 -5.193 0.993 -5.193 0.091 82.926 
138.038 0.095 82.731 0.992 -5.436 0.992 -5.436 0.095 82.731 
144.544 0.099 82.524 0.992 -5.691 0.992 -5.691 0.099 82.524 
151.356 0.104 82.304 0.991 -5.957 0.991 -5.957 0.104 82.304 
158.489 0.109 82.07 0.991 -6.235 0.991 -6.235 0.109 82.07 
165.959 0.114 81.822 0.99 -6.527 0.99 -6.527 0.114 81.822 
173.78 0.119 81.559 0.99 -6.831 0.99 -6.831 0.119 81.559 
181.97 0.125 81.281 0.989 -7.15 0.989 -7.15 0.125 81.281 
190.546 0.13 80.988 0.988 -7.484 0.988 -7.484 0.13 80.988 
199.526 0.136 80.678 0.987 -7.832 0.987 -7.832 0.136 80.678 
208.93 0.143 80.351 0.986 -8.197 0.986 -8.197 0.143 80.351 
218.776 0.149 80.007 0.985 -8.578 0.985 -8.578 0.149 80.007 
229.087 0.156 79.644 0.984 -8.976 0.984 -8.976 0.156 79.644 
239.883 0.163 79.263 0.983 -9.392 0.983 -9.392 0.163 79.263 
251.189 0.171 78.861 0.981 -9.827 0.981 -9.827 0.171 78.861 
263.027 0.179 78.44 0.98 -10.281 0.98 -10.281 0.179 78.44 
275.423 0.187 77.997 0.978 -10.755 0.978 -10.755 0.187 77.997 
288.403 0.195 77.533 0.977 -11.251 0.977 -11.251 0.195 77.533 
301.995 0.204 77.046 0.975 -11.768 0.975 -11.768 0.204 77.046 
316.228 0.213 76.535 0.973 -12.308 0.973 -12.308 0.213 76.535 
331.131 0.223 76.001 0.97 -12.871 0.97 -12.871 0.223 76.001 
346.737 0.233 75.441 0.968 -13.458 0.968 -13.458 0.233 75.441 
363.078 0.243 74.856 0.965 -14.071 0.965 -14.071 0.243 74.856 
380.189 0.254 74.244 0.963 -14.709 0.963 -14.709 0.254 74.244 
398.107 0.265 73.604 0.959 -15.374 0.959 -15.374 0.265 73.604 
416.869 0.277 72.936 0.956 -16.066 0.956 -16.066 0.277 72.936 
436.516 0.289 72.24 0.952 -16.787 0.952 -16.787 0.289 72.24 
457.088 0.301 71.513 0.949 -17.537 0.949 -17.537 0.301 71.513 
478.63 0.314 70.756 0.944 -18.317 0.944 -18.317 0.314 70.756 
501.187 0.328 69.968 0.94 -19.127 0.94 -19.127 0.328 69.968 
524.807 0.342 69.149 0.935 -19.968 0.935 -19.968 0.342 69.149 
549.541 0.356 68.297 0.929 -20.841 0.929 -20.841 0.356 68.297 
575.44 0.371 67.412 0.923 -21.746 0.923 -21.746 0.371 67.412 
602.56 0.386 66.494 0.917 -22.684 0.917 -22.684 0.386 66.494 
630.957 0.401 65.542 0.91 -23.655 0.91 -23.655 0.401 65.542 
660.693 0.417 64.557 0.903 -24.659 0.903 -24.659 0.417 64.557 
691.831 0.434 63.537 0.895 -25.696 0.895 -25.696 0.434 63.537 
724.436 0.45 62.484 0.887 -26.766 0.887 -26.766 0.45 62.484 
758.578 0.468 61.397 0.878 -27.87 0.878 -27.87 0.468 61.397 
794.328 0.485 60.277 0.869 -29.007 0.869 -29.007 0.485 60.277 
831.764 0.503 59.124 0.858 -30.175 0.858 -30.175 0.503 59.124 
870.964 0.521 57.939 0.848 -31.376 0.848 -31.376 0.521 57.939 
912.011 0.539 56.722 0.836 -32.607 0.836 -32.607 0.539 56.722 
954.993 0.557 55.475 0.824 -33.869 0.824 -33.869 0.557 55.475 
1000 0.576 54.198 0.811 -35.159 0.811 -35.159 0.576 54.198 
1047.129 0.595 52.894 0.798 -36.476 0.798 -36.476 0.595 52.894 
1096.478 0.613 51.563 0.783 -37.819 0.783 -37.819 0.613 51.563 
1148.154 0.632 50.208 0.768 -39.186 0.768 -39.186 0.632 50.208 
1202.264 0.65 48.83 0.753 -40.575 0.753 -40.575 0.65 48.83 
1258.925 0.669 47.431 0.737 -41.984 0.737 -41.984 0.669 47.431 
1318.257 0.687 46.014 0.72 -43.41 0.72 -43.41 0.687 46.014 
1380.384 0.705 44.581 0.702 -44.853 0.702 -44.853 0.705 44.581 
1445.44 0.723 43.133 0.684 -46.308 0.684 -46.308 0.723 43.133 
1513.561 0.741 41.674 0.665 -47.775 0.665 -47.775 0.741 41.674 
1584.893 0.758 40.206 0.646 -49.249 0.646 -49.249 0.758 40.206 
1659.587 0.774 38.731 0.626 -50.729 0.626 -50.729 0.774 38.731 
1737.801 0.79 37.252 0.605 -52.212 0.605 -52.212 0.79 37.252 
1819.701 0.806 35.771 0.585 -53.696 0.585 -53.696 0.806 35.771 
1905.461 0.821 34.29 0.563 -55.178 0.563 -55.178 0.821 34.29 
1995.262 0.835 32.812 0.542 -56.656 0.542 -56.656 0.835 32.812 
2089.296 0.849 31.338 0.52 -58.128 0.52 -58.128 0.849 31.338 
2187.762 0.862 29.871 0.498 -59.591 0.498 -59.591 0.862 29.871 
2290.868 0.875 28.411 0.476 -61.044 0.476 -61.044 0.875 28.411 
2398.833 0.887 26.961 0.453 -62.484 0.453 -62.484 0.887 26.961 
2511.886 0.898 25.522 0.431 -63.911 0.431 -63.911 0.898 25.522 
2630.268 0.909 24.095 0.408 -65.322 0.408 -65.322 0.909 24.095 
2754.229 0.919 22.68 0.386 -66.715 0.386 -66.715 0.919 22.68 
2884.032 0.928 21.279 0.363 -68.089 0.363 -68.089 0.928 21.279 
3019.952 0.936 19.891 0.34 -69.443 0.34 -69.443 0.936 19.891 
3162.278 0.944 18.518 0.318 -70.774 0.318 -70.774 0.944 18.518 
3311.311 0.952 17.159 0.295 -72.081 0.295 -72.081 0.952 17.159 
3467.369 0.958 15.814 0.273 -73.361 0.273 -73.361 0.958 15.814 
3630.781 0.964 14.483 0.25 -74.61 0.25 -74.61 0.964 14.483 
3801.894 0.97 13.165 0.228 -75.824 0.228 -75.824 0.97 13.165 
3981.072 0.975 11.859 0.206 -76.996 0.206 -76.996 0.975 11.859 
4168.694 0.979 10.566 0.183 -78.116 0.183 -78.116 0.979 10.566 
4365.158 0.983 9.284 0.161 -79.169 0.161 -79.169 0.983 9.284 
4570.882 0.986 8.012 0.139 -80.127 0.139 -80.127 0.986 8.012 
4786.301 0.988 6.749 0.118 -80.946 0.118 -80.946 0.988 6.749 
5011.872 0.99 5.494 0.096 -81.537 0.096 -81.537 0.99 5.494 
5248.075 0.992 4.245 0.074 -81.707 0.074 -81.707 0.992 4.245 
5495.409 0.993 3.003 0.053 -80.952 0.053 -80.952 0.993 3.003 
5754.399 0.994 1.764 0.031 -77.39 0.031 -77.39 0.994 1.764 
6025.596 0.994 0.529 0.011 -55.195 0.011 -55.195 0.994 0.529 
6309.573 0.993 -0.704 0.014 60.586 0.014 60.586 0.993 -0.704 
6606.934 0.992 -1.938 0.035 76 0.035 76 0.992 -1.938 
6918.31 0.991 -3.171 0.056 78.834 0.056 78.834 0.991 -3.171 
7244.36 0.989 -4.407 0.077 79.376 0.077 79.376 0.989 -4.407 
7585.776 0.986 -5.646 0.099 79.108 0.099 79.108 0.986 -5.646 
7943.282 0.983 -6.889 0.12 78.459 0.12 78.459 0.983 -6.889 
8317.638 0.979 -8.137 0.142 77.597 0.142 77.597 0.979 -8.137 
8709.636 0.975 -9.391 0.164 76.603 0.164 76.603 0.975 -9.391 
9120.108 0.97 -10.652 0.185 75.517 0.185 75.517 0.97 -10.652 
9549.926 0.965 -11.92 0.207 74.364 0.207 74.364 0.965 -11.92 
10000 0.959 -13.196 0.229 73.16 0.229 73.16 0.959 -13.196 
