!  American Technical Ceramics  Date:   10/26/00
!  One Norden Lane
!  Huntington Station,  NY.   11746-2102
!  Tel:  (631) 622-4700               Fax:  (631) 622-4748
!  Part Number  600S5R1       Mounting Orientation: Horizontal
!  Description: Ultra Low ESR Microwave capacitors
!  Application: Coupling, Bypass, Tuning, DC Block
!               Filters, Matching
# GHZ S DB R 50
! Freq   |S11|   S11 Ph  |S21|   S21 Ph  |S12|   S12 Ph  |S22|   S22 Ph
   0.000   0.00    0.00	  -999.00  90.00  -999.00  90.00    0.00    0.000
   0.400   -4.40  -53.59   -2.08   36.18   -2.08   36.20   -4.36  -52.84
   0.444   -4.97  -56.62   -1.75   33.15   -1.78   32.85   -4.99  -56.16
   0.488   -5.57  -59.45   -1.51   30.54   -1.51   30.68   -5.56  -58.19
   0.532   -6.13  -61.61   -1.29   28.15   -1.31   27.86   -6.12  -61.19
   0.576   -6.68  -63.89   -1.15   26.08   -1.15   26.20   -6.67  -62.55
   0.620   -7.19  -65.65   -0.99   24.19   -1.01   24.01   -7.18  -65.10
   0.664   -7.67  -67.57   -0.88   22.53   -0.89   22.59   -7.68  -66.22
   0.708   -8.17  -68.90   -0.79   20.94   -0.79   20.82   -8.15  -68.17
   0.752   -8.63  -70.45   -0.70   19.58   -0.71   19.57   -8.62  -69.15
   0.796   -9.07  -71.51   -0.64   18.24   -0.64   18.25   -9.07  -70.84
   0.840   -9.50  -73.18   -0.58   17.08   -0.59   17.07   -9.50  -71.63
   0.884   -9.92  -73.88   -0.53   15.99   -0.53   15.98   -9.88  -73.02
   0.928  -10.32  -75.07   -0.48   14.99   -0.50   14.89  -10.31  -73.88
   0.972  -10.70  -75.94   -0.45   14.01   -0.45   14.12  -10.74  -74.73
   1.016  -11.10  -76.99   -0.41   13.18   -0.42   13.04  -11.07  -75.76
   1.060  -11.43  -77.65   -0.38   12.33   -0.38   12.41  -11.44  -76.65
   1.104  -11.82  -78.51   -0.35   11.59   -0.36   11.47  -11.78  -77.39
   1.148  -12.15  -79.11   -0.32   10.80   -0.33   10.88  -12.15  -77.92
   1.192  -12.50  -80.04   -0.31   10.11   -0.31   10.02  -12.48  -78.78
   1.236  -12.82  -80.56   -0.27    9.48   -0.28    9.50  -12.77  -79.33
   1.280  -13.14  -81.24   -0.27    8.77   -0.27    8.75  -13.11  -80.17
   1.324  -13.47  -81.77   -0.25    8.25   -0.26    8.25  -13.43  -80.40
   1.368  -13.76  -82.27   -0.24    7.63   -0.24    7.65  -13.74  -81.11
   1.412  -14.07  -82.92   -0.22    7.10   -0.23    7.08  -14.01  -81.60
   1.456  -14.35  -83.29   -0.21    6.58   -0.21    6.64  -14.32  -82.13
   1.500  -14.67  -83.87   -0.19    6.06   -0.20    6.01  -14.60  -82.44
   1.544  -14.92  -84.06   -0.19    5.54   -0.19    5.60  -14.91  -83.11
   1.588  -15.24  -84.71   -0.18    5.09   -0.18    5.05  -15.15  -83.50
   1.632  -15.46  -85.02   -0.17    4.57   -0.18    4.66  -15.47  -84.01
   1.676  -15.79  -85.49   -0.17    4.18   -0.18    4.14  -15.70  -84.35
   1.720  -15.99  -85.56   -0.16    3.80   -0.16    3.85  -15.98  -84.69
   1.764  -16.25  -86.16   -0.15    3.37   -0.16    3.35  -16.21  -85.30
   1.808  -16.50  -86.38   -0.15    3.00   -0.15    3.02  -16.49  -85.67
   1.852  -16.75  -86.96   -0.14    2.59   -0.14    2.58  -16.71  -86.15
   1.896  -17.01  -87.19   -0.13    2.19   -0.13    2.18  -16.96  -86.55
   1.940  -17.23  -87.44   -0.13    1.79   -0.13    1.84  -17.21  -87.01
   1.984  -17.48  -87.90   -0.12    1.43   -0.12    1.43  -17.46  -87.38
   2.028  -17.69  -88.35   -0.12    1.06   -0.12    1.09  -17.70  -87.85
   2.072  -17.96  -88.63   -0.11    0.69   -0.12    0.69  -17.90  -88.15
   2.116  -18.14  -88.75   -0.11    0.32   -0.12    0.42  -18.15  -88.45
   2.160  -18.43  -89.36   -0.11    0.03   -0.11    0.03  -18.37  -88.85
   2.204  -18.63  -89.34   -0.11   -0.28   -0.11   -0.23  -18.62  -89.26
   2.248  -18.84  -90.07   -0.10   -0.61   -0.10   -0.62  -18.79  -89.48
   2.292  -19.06  -89.78   -0.10   -0.92   -0.10   -0.88  -19.03  -89.78
   2.336  -19.28  -90.20   -0.10   -1.25   -0.10   -1.23  -19.25  -89.98
   2.380  -19.51  -90.52   -0.10   -1.57   -0.10   -1.55  -19.51  -90.27
   2.424  -19.73  -90.82   -0.09   -1.88   -0.09   -1.84  -19.64  -90.36
   2.468  -19.89  -90.57   -0.10   -2.17   -0.10   -2.13  -19.83  -90.49
   2.512  -20.12  -91.01   -0.10   -2.44   -0.10   -2.39  -20.02  -90.65
   2.556  -20.38  -91.04   -0.10   -2.75   -0.10   -2.71  -20.27  -90.98
   2.600  -20.50  -91.35   -0.10   -3.00   -0.09   -2.94  -20.41  -91.36
   2.644  -20.71  -91.82   -0.09   -3.27   -0.09   -3.24  -20.57  -91.60
   2.688  -20.90  -91.22   -0.09   -3.55   -0.09   -3.45  -20.79  -91.68
   2.732  -21.10  -91.79   -0.09   -3.82   -0.09   -3.78  -20.99  -91.72
   2.776  -21.28  -91.85   -0.09   -4.07   -0.08   -4.01  -21.18  -92.26
   2.820  -21.44  -92.34   -0.09   -4.34   -0.09   -4.32  -21.29  -92.31
   2.864  -21.60  -91.92   -0.09   -4.59   -0.08   -4.53  -21.49  -92.60
   2.908  -21.78  -92.57   -0.09   -4.85   -0.09   -4.81  -21.65  -92.45
   2.952  -21.99  -92.75   -0.09   -5.10   -0.09   -5.05  -21.84  -93.02
   2.996  -22.13  -93.21   -0.09   -5.35   -0.09   -5.29  -21.94  -93.05
   3.040  -22.21  -93.74   -0.09   -5.59   -0.08   -5.55  -22.02  -92.17
   3.084  -22.38  -94.09   -0.09   -5.82   -0.08   -5.75  -22.19  -92.46
   3.128  -22.59  -94.50   -0.09   -6.05   -0.08   -6.01  -22.37  -92.65
   3.172  -22.66  -94.61   -0.08   -6.27   -0.08   -6.19  -22.44  -93.48
   3.216  -22.80  -95.08   -0.08   -6.51   -0.07   -6.50  -22.68  -93.78
   3.260  -22.99  -95.04   -0.07   -6.78   -0.07   -6.70  -22.89  -93.79
   3.304  -23.17  -95.51   -0.08   -7.00   -0.08   -6.98  -23.05  -93.75
   3.348  -23.28  -95.76   -0.08   -7.24   -0.08   -7.15  -23.17  -94.31
   3.392  -23.41  -96.15   -0.08   -7.45   -0.07   -7.42  -23.28  -94.40
   3.436  -23.50  -96.27   -0.08   -7.65   -0.08   -7.60  -23.43  -94.92
   3.480  -23.73  -97.20   -0.08   -7.90   -0.08   -7.86  -23.62  -95.18
   3.524  -23.87  -97.49   -0.08   -8.11   -0.08   -8.03  -23.81  -96.17
   3.568  -24.03  -98.71   -0.08   -8.30   -0.07   -8.25  -24.00  -96.25
   3.612  -24.28  -98.66   -0.07   -8.51   -0.07   -8.47  -24.20  -96.26
   3.656  -24.55  -98.78   -0.07   -8.75   -0.07   -8.66  -24.36  -96.56
   3.700  -24.73  -98.65   -0.06   -8.96   -0.06   -8.90  -24.57  -96.90
   3.744  -24.90  -99.04   -0.07   -9.20   -0.06   -9.12  -24.71  -97.08
   3.788  -25.10  -98.95   -0.06   -9.41   -0.06   -9.37  -24.92  -97.34
   3.832  -25.27  -98.73   -0.06   -9.65   -0.06   -9.57  -25.09  -97.32
   3.876  -25.44  -98.82   -0.06   -9.88   -0.06   -9.84  -25.20  -97.39
   3.920  -25.58  -98.86   -0.06  -10.09   -0.06  -10.02  -25.42  -97.97
   3.964  -25.83  -99.34   -0.06  -10.29   -0.06  -10.27  -25.60  -97.84
   4.008  -25.94  -98.32   -0.06  -10.52   -0.06  -10.47  -25.75  -98.41
   4.052  -26.14  -99.11   -0.06  -10.74   -0.06  -10.68  -25.89  -98.38
   4.096  -26.33  -98.24   -0.06  -10.96   -0.06  -10.89  -26.09  -98.98
   4.140  -26.52  -99.25   -0.06  -11.15   -0.06  -11.10  -26.31  -99.07
   4.184  -26.72  -98.45   -0.06  -11.37   -0.06  -11.31  -26.55  -99.77
   4.228  -26.77  -98.77   -0.06  -11.58   -0.06  -11.50  -26.64  -99.35
   4.272  -27.03  -98.44   -0.06  -11.79   -0.06  -11.73  -26.81  -99.87
   4.316  -27.22  -98.25   -0.06  -11.99   -0.06  -11.90  -27.10  -99.91
   4.360  -27.37  -98.36   -0.06  -12.20   -0.06  -12.13  -27.24 -100.38
   4.404  -27.40  -98.44   -0.06  -12.39   -0.05  -12.32  -27.38 -100.76
   4.448  -27.66  -98.29   -0.05  -12.60   -0.05  -12.53  -27.49 -100.82
   4.492  -27.79  -97.23   -0.06  -12.79   -0.05  -12.72  -27.82 -101.39
   4.536  -27.99  -98.33   -0.05  -13.00   -0.06  -12.96  -27.99 -101.03
   4.580  -28.10  -97.96   -0.06  -13.23   -0.05  -13.15  -28.04 -102.44
   4.624  -28.17  -98.59   -0.06  -13.42   -0.06  -13.36  -28.15 -102.30
   4.668  -28.43  -97.09   -0.05  -13.64   -0.05  -13.56  -28.44 -102.74
   4.712  -28.53  -97.75   -0.06  -13.88   -0.05  -13.78  -28.63 -102.44
   4.756  -28.76  -98.31   -0.06  -14.09   -0.06  -13.98  -28.69 -104.86
   4.800  -28.76  -98.06   -0.06  -14.28   -0.06  -14.18  -28.91 -104.65
   4.844  -28.96  -97.41   -0.06  -14.50   -0.05  -14.40  -29.08 -104.23
   4.888  -29.23  -97.53   -0.06  -14.68   -0.05  -14.58  -29.41 -105.34
   4.932  -29.45  -98.05   -0.06  -14.87   -0.05  -14.78  -29.49 -105.94
   4.976  -29.44  -97.72   -0.06  -15.08   -0.05  -15.00  -29.51 -107.32
   5.020  -29.60  -97.72   -0.06  -15.29   -0.06  -15.20  -29.85 -106.84
   5.064  -29.93  -96.61   -0.06  -15.50   -0.05  -15.39  -30.05 -107.10
   5.108  -30.08  -97.56   -0.06  -15.72   -0.05  -15.63  -30.21 -108.75
   5.152  -30.12  -97.06   -0.06  -15.95   -0.06  -15.82  -30.34 -110.25
   5.196  -30.11  -97.42   -0.06  -16.13   -0.06  -16.03  -30.49 -109.41
   5.240  -30.49  -96.49   -0.07  -16.36   -0.06  -16.25  -30.65 -111.10
   5.284  -30.45  -96.46   -0.07  -16.57   -0.07  -16.49  -30.91 -112.54
   5.328  -30.29  -98.47   -0.07  -16.81   -0.07  -16.75  -30.76 -114.85
   5.372  -30.22  -99.74   -0.08  -17.05   -0.08  -16.96  -30.76 -118.42
   5.416  -30.03 -101.85   -0.10  -17.31   -0.09  -17.21  -31.00 -122.98
   5.460  -30.00 -109.75   -0.15  -17.48   -0.13  -17.35  -31.25 -132.90
   5.504  -31.10 -124.11   -0.18  -17.32   -0.17  -17.20  -33.26 -147.49
   5.548  -34.30 -125.86   -0.14  -17.10   -0.14  -17.02  -36.92 -143.88
   5.592  -36.02 -113.22   -0.10  -17.26   -0.10  -17.19  -38.44 -125.90
   5.636  -36.59 -101.87   -0.08  -17.52   -0.08  -17.45  -37.98 -115.69
   5.680  -36.34  -97.14   -0.07  -17.79   -0.07  -17.70  -37.66 -113.22
   5.724  -36.42  -94.46   -0.06  -18.03   -0.06  -17.94  -37.32 -113.64
   5.768  -36.34  -91.07   -0.06  -18.24   -0.06  -18.13  -37.81 -113.26
   5.812  -36.43  -89.72   -0.06  -18.47   -0.05  -18.35  -37.69 -111.77
   5.856  -36.81  -87.80   -0.06  -18.66   -0.05  -18.58  -37.76 -114.54
   5.900  -36.98  -86.19   -0.06  -18.89   -0.05  -18.81  -38.60 -116.10
   5.944  -37.27  -85.15   -0.06  -19.09   -0.05  -18.95  -38.89 -117.20
   5.988  -37.57  -84.89   -0.06  -19.27   -0.05  -19.16  -39.55 -119.90
   6.032  -38.21  -80.96   -0.06  -19.46   -0.05  -19.36  -40.03 -117.75
   6.076  -38.38  -78.87   -0.06  -19.63   -0.05  -19.57  -40.96 -121.27
   6.120  -39.35  -75.97   -0.06  -19.85   -0.05  -19.75  -42.10 -122.44
   6.164  -39.70  -72.72   -0.06  -20.01   -0.05  -19.92  -43.01 -124.27
   6.208  -39.85  -67.98   -0.06  -20.21   -0.05  -20.11  -43.08 -121.08
   6.252  -39.91  -62.47   -0.05  -20.39   -0.05  -20.26  -45.18 -125.69
   6.296  -40.56  -55.62   -0.05  -20.55   -0.05  -20.43  -47.84 -124.56
   6.340  -40.78  -52.59   -0.05  -20.71   -0.05  -20.59  -48.09 -138.96
   6.384  -40.71  -50.70   -0.04  -20.85   -0.05  -20.75  -50.45 -148.87
   6.428  -40.14  -41.12   -0.04  -21.02   -0.03  -20.87  -54.92 -149.70
   6.472  -39.43  -35.83   -0.02  -21.14   -0.03  -21.05  -54.83  119.01
   6.516  -39.06  -29.25    0.00  -21.27    0.00  -21.15  -48.39   80.12
   6.560  -37.19  -36.82    0.05  -21.52    0.05  -21.42  -44.54   55.30
   6.604  -36.34  -54.35    0.09  -22.22    0.09  -22.03  -41.02   12.37
   6.648  -38.46  -67.60    0.03  -22.85    0.05  -22.69  -41.32  -17.15
   6.692  -42.62  -69.90   -0.01  -23.02   -0.01  -22.91  -44.69  -28.43
   6.736  -45.98  -68.13   -0.04  -23.13   -0.04  -23.04  -49.21  -45.35
   6.780  -48.44  -57.44   -0.06  -23.26   -0.05  -23.14  -50.81  -45.06
   6.824  -49.57  -22.80   -0.07  -23.41   -0.07  -23.29  -53.14  -34.92
   6.868  -49.60   33.35   -0.08  -23.57   -0.08  -23.47  -59.22   49.50
   6.912  -43.29   53.40   -0.09  -23.64   -0.09  -23.51  -50.91  108.24
   6.956  -41.16   36.75   -0.09  -23.71   -0.09  -23.60  -46.60   95.77
   7.000  -39.78   29.06   -0.08  -23.85   -0.08  -23.75  -44.37   72.22
   7.044  -38.73   27.64   -0.08  -24.05   -0.07  -23.92  -42.00   72.56
   7.088  -38.50   33.20   -0.07  -24.20   -0.07  -24.07  -40.80   70.34
   7.132  -38.61   28.79   -0.07  -24.41   -0.06  -24.26  -41.02   70.56
   7.176  -38.17   28.98   -0.07  -24.62   -0.06  -24.48  -39.81   63.75
   7.220  -37.04   29.73   -0.07  -24.76   -0.06  -24.65  -38.89   61.58
   7.264  -37.08   34.60   -0.07  -24.97   -0.07  -24.83  -38.01   65.75
   7.308  -36.89   37.17   -0.07  -25.15   -0.06  -25.03  -37.79   65.92
   7.352  -36.57   36.15   -0.07  -25.38   -0.07  -25.23  -37.19   62.83
   7.396  -35.58   36.48   -0.07  -25.56   -0.06  -25.44  -36.58   60.12
   7.440  -35.35   38.98   -0.06  -25.75   -0.06  -25.61  -35.81   62.77
   7.484  -34.96   43.68   -0.06  -25.93   -0.06  -25.75  -35.31   63.41
   7.528  -34.71   41.48   -0.06  -26.11   -0.06  -25.98  -34.95   61.88
   7.572  -34.09   42.50   -0.06  -26.30   -0.06  -26.18  -34.21   59.08
   7.616  -33.50   42.85   -0.06  -26.49   -0.06  -26.35  -33.73   60.09
   7.660  -33.34   46.55   -0.07  -26.68   -0.07  -26.54  -33.07   61.23
   7.704  -32.85   46.02   -0.07  -26.88   -0.06  -26.71  -32.78   59.38
   7.748  -32.55   44.40   -0.07  -27.07   -0.07  -26.96  -32.23   57.92
   7.792  -32.10   44.98   -0.07  -27.27   -0.07  -27.15  -31.81   56.87
   7.836  -31.76   46.85   -0.07  -27.49   -0.07  -27.38  -31.22   57.58
   7.880  -31.29   47.35   -0.07  -27.62   -0.06  -27.50  -30.82   55.69
   7.924  -31.25   45.55   -0.07  -27.82   -0.07  -27.70  -30.54   54.22
   7.968  -30.83   46.79   -0.07  -28.04   -0.07  -27.88  -30.16   52.56
   8.012  -30.62   45.43   -0.07  -28.20   -0.07  -28.09  -29.85   51.59
   8.056  -30.61   47.53   -0.07  -28.41   -0.07  -28.23  -29.51   50.25
   8.100  -30.45   47.16   -0.08  -28.60   -0.07  -28.46  -29.36   49.25
   8.144  -30.38   48.73   -0.07  -28.80   -0.07  -28.70  -29.24   49.21
   8.188  -29.97   50.54   -0.07  -29.00   -0.06  -28.90  -28.99   48.54
   8.232  -29.55   51.64   -0.07  -29.22   -0.07  -29.09  -28.64   48.89
   8.276  -29.22   52.43   -0.08  -29.44   -0.06  -29.27  -28.29   48.34
   8.320  -28.94   52.59   -0.08  -29.66   -0.07  -29.56  -28.18   47.84
   8.364  -31.21   76.08   -0.08  -29.88   -0.07  -29.70  -28.93   20.09
   8.408  -30.32   75.27   -0.08  -30.11   -0.08  -29.94  -28.42   21.45
   8.452  -29.26   75.29   -0.08  -30.33   -0.07  -30.09  -27.77   23.33
   8.496  -28.64   72.82   -0.09  -30.52   -0.08  -30.34  -27.32   24.08
   8.540  -28.12   73.34   -0.09  -30.77   -0.08  -30.57  -26.92   25.22
   8.584  -27.35   71.01   -0.09  -30.97   -0.09  -30.80  -26.21   25.90
   8.628  -26.71   69.88   -0.09  -31.21   -0.09  -31.01  -25.66   26.68
   8.672  -26.20   69.86   -0.10  -31.45   -0.09  -31.24  -25.26   27.29
   8.716  -25.67   68.95   -0.11  -31.67   -0.11  -31.51  -24.92   27.14
   8.760  -25.33   67.30   -0.11  -31.90   -0.11  -31.71  -24.39   27.12
   8.804  -24.75   66.94   -0.13  -32.12   -0.13  -31.96  -23.95   27.47
   8.848  -24.25   66.14   -0.14  -32.35   -0.13  -32.16  -23.56   28.01
   8.892  -23.90   65.49   -0.15  -32.52   -0.15  -32.42  -23.38   27.98
   8.936  -23.54   64.77   -0.16  -32.74   -0.16  -32.59  -23.00   28.41
   8.980  -23.07   63.39   -0.17  -32.90   -0.17  -32.75  -22.52   29.02
   9.024  -22.67   63.58   -0.17  -33.11   -0.17  -32.93  -22.17   30.29
   9.068  -22.26   63.26   -0.18  -33.35   -0.17  -33.21  -21.75   31.23
   9.112  -21.90   62.52   -0.18  -33.57   -0.17  -33.42  -21.30   30.89
   9.156  -21.47   61.18   -0.18  -33.86   -0.18  -33.73  -20.75   30.86
   9.200  -20.91   61.34   -0.20  -34.19   -0.19  -34.03  -20.26   31.51
   9.244  -20.53   59.77   -0.21  -34.47   -0.20  -34.34  -19.78   31.36
   9.288  -20.13   58.75   -0.24  -34.80   -0.22  -34.64  -19.32   30.42
   9.332  -19.63   56.50   -0.26  -35.22   -0.25  -35.02  -18.72   29.75
   9.376  -19.12   54.74   -0.30  -35.60   -0.29  -35.46  -18.17   28.71
   9.420  -18.63   52.47   -0.34  -36.04   -0.34  -35.80  -17.61   27.44
   9.464  -18.18   49.04   -0.42  -36.42   -0.42  -36.28  -17.07   24.96
   9.508  -17.72   44.60   -0.52  -36.82   -0.50  -36.54  -16.42   21.80
   9.552  -17.25   38.22   -0.66  -37.01   -0.66  -36.87  -15.85   17.42
   9.596  -17.11   30.24   -0.85  -36.82   -0.84  -36.56  -15.36   11.11
   9.640  -17.37   19.66   -1.03  -35.79   -1.01  -35.57  -15.21    2.83
   9.684  -18.52    8.56   -1.11  -34.07   -1.08  -33.87  -15.63   -6.60
   9.728  -20.55   -0.36   -0.99  -32.30   -0.98  -32.17  -16.68  -13.78
   9.772  -23.56   -1.56   -0.78  -31.49   -0.77  -31.35  -18.23  -17.36
   9.816  -26.67    8.88   -0.57  -31.45   -0.56  -31.27  -19.71  -15.87
   9.860  -28.16   30.19   -0.42  -31.84   -0.41  -31.64  -20.86  -10.93
   9.904  -27.56   49.47   -0.32  -32.32   -0.30  -32.14  -21.43   -3.96
   9.948  -26.20   61.10   -0.24  -32.86   -0.24  -32.71  -21.79    2.20
   9.992  -24.98   66.57   -0.20  -33.44   -0.19  -33.18  -21.69    7.90
  10.036  -23.90   68.94   -0.17  -33.88   -0.17  -33.74  -21.48   11.90
  10.080  -23.07   70.70   -0.14  -34.36   -0.14  -34.15  -21.15   16.25
  10.124  -22.37   71.55   -0.13  -34.76   -0.13  -34.60  -20.86   18.52
  10.168  -21.88   71.96   -0.11  -35.19   -0.11  -35.01  -20.57   20.97
  10.212  -21.35   71.85   -0.12  -35.54   -0.11  -35.37  -20.07   22.06
  10.256  -20.91   72.01   -0.11  -35.87   -0.11  -35.70  -19.80   23.32
  10.300  -20.54   72.49   -0.12  -36.17   -0.11  -36.01  -19.51   24.52
  10.344  -20.17   72.49   -0.11  -36.48   -0.11  -36.31  -19.30   24.61
  10.388  -19.86   72.02   -0.11  -36.76   -0.10  -36.54  -18.96   24.90
  10.432  -19.44   72.14   -0.11  -37.08   -0.11  -36.94  -18.80   24.92
  10.476  -19.16   71.99   -0.11  -37.41   -0.11  -37.17  -18.56   26.11
  10.520  -18.87   71.57   -0.12  -37.64   -0.11  -37.52  -18.45   25.33
  10.564  -18.65   70.12   -0.13  -37.94   -0.13  -37.74  -18.26   25.97
  10.608  -18.38   69.46   -0.15  -38.14   -0.14  -38.02  -18.01   25.74
  10.652  -18.19   68.96   -0.15  -38.41   -0.14  -38.22  -17.94   26.55
  10.696  -18.09   68.52   -0.16  -38.58   -0.14  -38.45  -17.76   26.42
  10.740  -18.00   67.46   -0.16  -38.75   -0.16  -38.56  -17.67   25.67
  10.784  -17.86   66.43   -0.16  -38.96   -0.16  -38.79  -17.47   26.13
  10.828  -17.74   66.34   -0.16  -39.21   -0.15  -38.98  -17.34   26.33
  10.872  -17.74   65.92   -0.17  -39.39   -0.16  -39.15  -17.29   26.43
  10.916  -17.72   65.56   -0.17  -39.57   -0.16  -39.41  -17.23   25.69
  10.960  -17.64   64.78   -0.17  -39.77   -0.16  -39.57  -17.09   26.10
  11.004  -17.55   65.32   -0.17  -39.97   -0.17  -39.72  -16.99   26.27
  11.048  -17.55   65.54   -0.17  -40.12   -0.16  -39.89  -16.97   26.71
  11.092  -17.53   65.80   -0.17  -40.28   -0.16  -40.13  -16.91   25.98
  11.136  -17.42   65.70   -0.16  -40.44   -0.15  -40.23  -16.85   26.16
  11.180  -17.23   65.80   -0.16  -40.66   -0.15  -40.46  -16.72   27.02
  11.224  -17.17   66.09   -0.15  -40.86   -0.14  -40.65  -16.67   27.15
  11.268  -17.10   66.03   -0.15  -41.06   -0.14  -40.81  -16.66   27.36
  11.312  -17.01   65.58   -0.14  -41.26   -0.13  -41.08  -16.48   27.22
  11.356  -16.85   65.24   -0.14  -41.49   -0.13  -41.28  -16.42   27.50
  11.400  -16.76   65.27   -0.13  -41.71   -0.13  -41.52  -16.36   28.01
  11.444  -16.72   64.93   -0.13  -41.91   -0.13  -41.70  -16.27   27.89
  11.488  -16.67   64.62   -0.13  -42.15   -0.13  -41.95  -16.16   27.33
  11.532  -16.57   64.23   -0.12  -42.37   -0.12  -42.15  -16.10   27.47
  11.576  -16.50   64.16   -0.12  -42.56   -0.12  -42.34  -16.07   27.70
  11.620  -16.44   63.92   -0.12  -42.80   -0.11  -42.63  -16.02   27.43
  11.664  -16.39   63.23   -0.12  -43.06   -0.11  -42.86  -16.00   27.07
  11.708  -16.40   62.87   -0.12  -43.29   -0.10  -43.07  -15.91   26.90
  11.752  -16.28   62.59   -0.12  -43.52   -0.11  -43.36  -15.98   26.97
  11.796  -16.29   61.76   -0.12  -43.79   -0.11  -43.50  -15.90   27.22
  11.840  -16.28   61.44   -0.12  -43.99   -0.12  -43.82  -15.88   26.19
  11.884  -16.24   61.19   -0.12  -44.24   -0.11  -44.01  -15.93   26.35
