!  American Technical Ceramics  Date:   1/17/2007
!  One Norden Lane
!  Huntington Station,  NY.   11746-2102
!  Tel:  (631) 622-4700               Fax:  (631) 622-4748
!  Part Number  600S510FT       Mounting Orientation: Horizontal
!  Description: Ultra Low ESR Microwave capacitors
!  Application: Coupling, Bypass, Tuning, DC Block
!               Filters, Matching
# GHZ S DB R 50
! Freq   |S11|   S11 Ph  |S21|   S21 Ph  |S12|   S12 Ph  |S22|   S22 Ph
   0.000    0.00    0.00 -999.00   90.00 -999.00   90.00    0.00    0.00
   0.400  -22.13  -86.36   -0.04    2.99   -0.05    3.00  -22.00  -84.84
   0.411  -22.38  -86.59   -0.04    2.83   -0.05    2.83  -22.23  -85.38
   0.423  -22.62  -86.74   -0.04    2.67   -0.05    2.68  -22.50  -85.84
   0.434  -22.85  -86.88   -0.04    2.52   -0.04    2.52  -22.77  -85.52
   0.445  -23.08  -87.08   -0.04    2.37   -0.04    2.37  -22.98  -85.53
   0.456  -23.31  -87.26   -0.04    2.23   -0.04    2.23  -23.20  -85.72
   0.468  -23.53  -87.39   -0.04    2.09   -0.04    2.08  -23.42  -85.83
   0.479  -23.75  -87.56   -0.04    1.95   -0.04    1.95  -23.65  -85.85
   0.490  -23.97  -87.68   -0.03    1.82   -0.04    1.82  -23.86  -85.74
   0.501  -24.18  -87.80   -0.03    1.69   -0.04    1.70  -24.05  -85.66
   0.513  -24.38  -87.89   -0.03    1.57   -0.04    1.57  -24.23  -85.67
   0.524  -24.58  -88.03   -0.03    1.45   -0.04    1.45  -24.40  -85.82
   0.535  -24.78  -88.16   -0.03    1.33   -0.04    1.33  -24.60  -85.99
   0.546  -24.97  -88.28   -0.03    1.22   -0.04    1.22  -24.81  -86.06
   0.558  -25.16  -88.40   -0.03    1.11   -0.04    1.11  -25.01  -85.99
   0.569  -25.35  -88.54   -0.03    1.01   -0.04    1.00  -25.19  -85.84
   0.580  -25.54  -88.68   -0.03    0.90   -0.04    0.90  -25.35  -85.75
   0.591  -25.72  -88.83   -0.03    0.80   -0.04    0.80  -25.49  -85.80
   0.603  -25.89  -88.98   -0.03    0.70   -0.04    0.69  -25.65  -85.95
   0.614  -26.07  -89.14   -0.03    0.60   -0.04    0.60  -25.82  -86.15
   0.625  -26.24  -89.30   -0.03    0.50   -0.03    0.50  -26.01  -86.22
   0.636  -26.41  -89.49   -0.03    0.41   -0.03    0.40  -26.18  -86.18
   0.648  -26.58  -89.58   -0.03    0.31   -0.04    0.31  -26.35  -85.97
   0.659  -26.74  -89.69   -0.03    0.22   -0.04    0.22  -26.48  -85.84
   0.670  -26.91  -89.83   -0.03    0.13   -0.03    0.13  -26.60  -85.85
   0.681  -27.07  -89.95   -0.03    0.04   -0.03    0.04  -26.74  -85.95
   0.693  -27.23  -90.08   -0.03   -0.04   -0.03   -0.04  -26.90  -86.05
   0.704  -27.40  -90.17   -0.03   -0.13   -0.03   -0.13  -27.07  -86.06
   0.715  -27.56  -90.31   -0.03   -0.22   -0.03   -0.21  -27.23  -85.96
   0.726  -27.71  -90.43   -0.03   -0.30   -0.03   -0.30  -27.37  -85.74
   0.738  -27.87  -90.56   -0.03   -0.38   -0.03   -0.38  -27.50  -85.58
   0.749  -28.03  -90.67   -0.03   -0.46   -0.03   -0.46  -27.61  -85.54
   0.760  -28.18  -90.82   -0.03   -0.54   -0.03   -0.54  -27.73  -85.68
   0.771  -28.33  -90.91   -0.03   -0.62   -0.03   -0.62  -27.88  -85.79
   0.783  -28.49  -91.14   -0.03   -0.70   -0.03   -0.70  -28.03  -85.84
   0.794  -28.63  -91.25   -0.03   -0.78   -0.03   -0.77  -28.19  -85.70
   0.805  -28.78  -91.46   -0.03   -0.85   -0.03   -0.85  -28.33  -85.48
   0.816  -28.93  -91.58   -0.03   -0.93   -0.03   -0.92  -28.44  -85.31
   0.828  -29.07  -91.76   -0.03   -1.00   -0.03   -1.00  -28.54  -85.27
   0.839  -29.21  -91.90   -0.03   -1.07   -0.03   -1.07  -28.66  -85.37
   0.850  -29.35  -92.05   -0.03   -1.14   -0.03   -1.14  -28.78  -85.45
   0.861  -29.49  -92.21   -0.03   -1.22   -0.03   -1.21  -28.91  -85.40
   0.873  -29.63  -92.38   -0.03   -1.29   -0.03   -1.29  -29.04  -85.29
   0.884  -29.77  -92.54   -0.03   -1.36   -0.03   -1.36  -29.17  -85.10
   0.895  -29.92  -92.67   -0.03   -1.43   -0.03   -1.43  -29.27  -84.90
   0.906  -30.06  -92.83   -0.03   -1.50   -0.03   -1.49  -29.36  -84.81
   0.918  -30.20  -92.91   -0.03   -1.56   -0.03   -1.56  -29.47  -84.73
   0.929  -30.34  -93.04   -0.03   -1.64   -0.03   -1.63  -29.58  -84.74
   0.940  -30.49  -93.21   -0.03   -1.70   -0.03   -1.70  -29.70  -84.71
   0.951  -30.63  -93.41   -0.03   -1.77   -0.03   -1.76  -29.84  -84.63
   0.963  -30.76  -93.60   -0.03   -1.84   -0.03   -1.83  -29.95  -84.39
   0.974  -30.91  -93.81   -0.03   -1.90   -0.03   -1.90  -30.06  -84.24
   0.985  -31.06  -94.02   -0.03   -1.97   -0.03   -1.96  -30.15  -84.15
   0.996  -31.20  -94.21   -0.03   -2.03   -0.03   -2.02  -30.25  -84.11
   1.008  -31.33  -94.41   -0.03   -2.10   -0.03   -2.09  -30.36  -84.14
   1.019  -31.46  -94.53   -0.03   -2.15   -0.03   -2.15  -30.48  -84.02
   1.030  -31.59  -94.68   -0.03   -2.22   -0.03   -2.22  -30.61  -83.83
   1.041  -31.71  -94.95   -0.03   -2.29   -0.03   -2.28  -30.71  -83.66
   1.053  -31.85  -95.15   -0.03   -2.35   -0.03   -2.34  -30.79  -83.40
   1.064  -31.97  -95.40   -0.03   -2.41   -0.03   -2.40  -30.87  -83.38
   1.075  -32.11  -95.61   -0.03   -2.47   -0.03   -2.47  -30.96  -83.30
   1.086  -32.26  -95.77   -0.03   -2.53   -0.03   -2.53  -31.05  -83.26
   1.098  -32.39  -95.96   -0.03   -2.59   -0.03   -2.59  -31.16  -83.18
   1.109  -32.53  -96.06   -0.03   -2.65   -0.03   -2.65  -31.27  -82.91
   1.120  -32.68  -96.22   -0.03   -2.71   -0.03   -2.71  -31.37  -82.67
   1.131  -32.81  -96.47   -0.03   -2.77   -0.03   -2.77  -31.45  -82.41
   1.143  -32.95  -96.70   -0.03   -2.84   -0.03   -2.83  -31.54  -82.24
   1.154  -33.11  -97.01   -0.03   -2.89   -0.03   -2.89  -31.62  -82.14
   1.165  -33.26  -97.18   -0.03   -2.95   -0.03   -2.95  -31.73  -82.08
   1.176  -33.41  -97.44   -0.03   -3.01   -0.03   -3.01  -31.85  -81.93
   1.188  -33.55  -97.65   -0.03   -3.07   -0.03   -3.06  -31.95  -81.62
   1.199  -33.69  -97.82   -0.03   -3.13   -0.03   -3.12  -32.05  -81.32
   1.210  -33.82  -98.13   -0.03   -3.19   -0.04   -3.18  -32.13  -81.04
   1.221  -33.95  -98.41   -0.03   -3.25   -0.04   -3.24  -32.20  -80.90
   1.233  -34.09  -98.77   -0.03   -3.30   -0.03   -3.29  -32.28  -80.86
   1.244  -34.23  -99.05   -0.03   -3.36   -0.04   -3.36  -32.38  -80.83
   1.255  -34.38  -99.29   -0.03   -3.42   -0.04   -3.42  -32.47  -80.66
   1.266  -34.53  -99.53   -0.03   -3.48   -0.04   -3.47  -32.57  -80.41
   1.278  -34.68  -99.82   -0.03   -3.53   -0.04   -3.53  -32.65  -80.11
   1.289  -34.82 -100.04   -0.03   -3.59   -0.04   -3.59  -32.71  -79.86
   1.300  -34.95 -100.28   -0.03   -3.65   -0.04   -3.64  -32.76  -79.72
   1.311  -35.10 -100.64   -0.03   -3.70   -0.04   -3.70  -32.85  -79.79
   1.323  -35.26 -100.90   -0.03   -3.76   -0.04   -3.76  -32.97  -79.77
   1.334  -35.44 -101.18   -0.03   -3.82   -0.04   -3.81  -33.10  -79.47
   1.345  -35.59 -101.30   -0.03   -3.87   -0.04   -3.87  -33.21  -79.01
   1.356  -35.76 -101.54   -0.03   -3.93   -0.04   -3.93  -33.28  -78.56
   1.368  -35.91 -101.71   -0.03   -3.99   -0.04   -3.98  -33.35  -78.20
   1.379  -36.04 -102.07   -0.03   -4.04   -0.04   -4.03  -33.40  -78.00
   1.390  -36.19 -102.54   -0.03   -4.09   -0.04   -4.09  -33.47  -77.94
   1.401  -36.33 -102.98   -0.03   -4.15   -0.04   -4.14  -33.57  -77.90
   1.413  -36.53 -103.44   -0.03   -4.21   -0.04   -4.20  -33.69  -77.71
   1.424  -36.69 -103.95   -0.03   -4.26   -0.04   -4.26  -33.79  -77.27
   1.435  -36.88 -104.25   -0.03   -4.32   -0.04   -4.31  -33.86  -76.80
   1.446  -37.03 -104.65   -0.03   -4.38   -0.04   -4.37  -33.92  -76.38
   1.458  -37.20 -105.05   -0.03   -4.43   -0.04   -4.43  -33.96  -76.15
   1.469  -37.35 -105.42   -0.03   -4.49   -0.04   -4.48  -34.01  -76.11
   1.480  -37.54 -105.95   -0.04   -4.54   -0.04   -4.54  -34.09  -76.10
   1.491  -37.72 -106.54   -0.04   -4.60   -0.04   -4.59  -34.18  -75.84
   1.503  -37.92 -107.02   -0.04   -4.66   -0.04   -4.65  -34.27  -75.41
   1.514  -38.14 -107.37   -0.04   -4.71   -0.04   -4.70  -34.35  -74.99
   1.525  -38.36 -107.73   -0.04   -4.76   -0.04   -4.75  -34.38  -74.65
   1.536  -38.56 -107.98   -0.04   -4.81   -0.04   -4.80  -34.43  -74.50
   1.548  -38.76 -108.17   -0.04   -4.87   -0.04   -4.86  -34.50  -74.55
   1.559  -38.93 -108.34   -0.04   -4.92   -0.04   -4.91  -34.59  -74.56
   1.570  -39.10 -108.80   -0.04   -4.97   -0.04   -4.97  -34.70  -74.38
   1.581  -39.28 -109.30   -0.04   -5.03   -0.04   -5.02  -34.81  -74.22
   1.593  -39.50 -110.01   -0.04   -5.08   -0.04   -5.07  -34.93  -74.16
   1.604  -39.73 -110.56   -0.04   -5.14   -0.04   -5.13  -35.05  -73.78
   1.615  -39.98 -110.79   -0.04   -5.19   -0.04   -5.18  -35.19  -73.42
   1.626  -40.20 -110.94   -0.04   -5.24   -0.04   -5.24  -35.30  -73.02
   1.638  -40.38 -111.12   -0.04   -5.30   -0.04   -5.29  -35.39  -72.52
   1.649  -40.56 -111.40   -0.04   -5.35   -0.04   -5.35  -35.48  -72.07
   1.660  -40.69 -111.94   -0.04   -5.40   -0.04   -5.40  -35.58  -71.66
   1.671  -40.78 -112.71   -0.04   -5.47   -0.05   -5.45  -35.65  -71.26
   1.683  -40.89 -113.61   -0.04   -5.51   -0.05   -5.51  -35.74  -70.83
   1.694  -41.04 -114.94   -0.04   -5.57   -0.05   -5.56  -35.83  -70.38
   1.705  -41.19 -116.57   -0.04   -5.62   -0.05   -5.61  -35.93  -69.92
   1.716  -41.41 -118.43   -0.04   -5.68   -0.05   -5.67  -36.00  -69.47
   1.728  -41.68 -120.15   -0.04   -5.73   -0.05   -5.72  -36.11  -69.01
   1.739  -41.98 -122.02   -0.04   -5.78   -0.05   -5.77  -36.23  -68.47
   1.750  -42.36 -123.68   -0.04   -5.83   -0.05   -5.82  -36.33  -67.89
   1.761  -42.70 -125.15   -0.04   -5.88   -0.05   -5.88  -36.43  -67.34
   1.773  -43.10 -126.53   -0.05   -5.94   -0.05   -5.93  -36.56  -66.77
   1.784  -43.41 -127.95   -0.05   -5.99   -0.05   -5.98  -36.64  -65.97
   1.795  -43.80 -129.32   -0.04   -6.05   -0.05   -6.04  -36.73  -65.54
   1.806  -44.11 -131.19   -0.05   -6.10   -0.05   -6.10  -36.83  -65.07
   1.818  -44.48 -132.91   -0.05   -6.16   -0.05   -6.15  -36.95  -64.48
   1.829  -44.84 -135.07   -0.05   -6.21   -0.05   -6.21  -37.05  -63.84
   1.840  -45.22 -137.34   -0.05   -6.26   -0.05   -6.26  -37.18  -63.27
   1.851  -45.61 -139.58   -0.05   -6.32   -0.05   -6.31  -37.29  -62.49
   1.863  -46.02 -142.18   -0.05   -6.37   -0.05   -6.37  -37.38  -61.73
   1.874  -46.38 -144.73   -0.05   -6.43   -0.05   -6.43  -37.44  -61.14
   1.885  -46.83 -147.54   -0.05   -6.49   -0.05   -6.49  -37.55  -60.42
   1.896  -47.21 -150.64   -0.05   -6.55   -0.05   -6.54  -37.64  -59.76
   1.908  -47.60 -154.18   -0.05   -6.60   -0.05   -6.60  -37.75  -59.01
   1.919  -47.98 -157.99   -0.05   -6.66   -0.05   -6.66  -37.88  -58.22
   1.930  -48.26 -161.64   -0.05   -6.72   -0.05   -6.71  -38.00  -57.59
   1.941  -48.54 -166.37   -0.05   -6.78   -0.05   -6.77  -38.15  -56.59
   1.953  -48.73 -171.68   -0.05   -6.83   -0.06   -6.83  -38.28  -55.68
   1.964  -48.92 -177.14   -0.05   -6.90   -0.05   -6.89  -38.43  -54.53
   1.975  -49.08  177.16   -0.05   -6.96   -0.06   -6.95  -38.57  -53.51
   1.986  -49.14  171.04   -0.05   -7.02   -0.06   -7.01  -38.69  -52.27
   1.998  -49.08  164.88   -0.05   -7.07   -0.06   -7.07  -38.87  -51.11
   2.009  -48.88  158.27   -0.05   -7.14   -0.06   -7.13  -39.07  -49.85
   2.020  -48.56  151.91   -0.05   -7.20   -0.06   -7.20  -39.21  -48.16
   2.031  -48.14  145.82   -0.05   -7.26   -0.06   -7.26  -39.36  -46.84
   2.043  -47.72  139.95   -0.06   -7.33   -0.06   -7.32  -39.52  -45.20
   2.054  -47.13  134.09   -0.06   -7.38   -0.06   -7.39  -39.68  -43.49
   2.065  -46.70  128.73   -0.06   -7.46   -0.06   -7.44  -39.85  -41.48
   2.076  -46.17  123.80   -0.06   -7.52   -0.06   -7.52  -40.01  -39.12
   2.088  -45.63  119.89   -0.06   -7.58   -0.06   -7.59  -40.13  -36.65
   2.099  -45.04  116.18   -0.06   -7.65   -0.07   -7.65  -40.19  -33.95
   2.110  -44.42  112.48   -0.06   -7.72   -0.07   -7.72  -40.26  -31.41
   2.121  -43.73  108.99   -0.06   -7.79   -0.07   -7.79  -40.36  -28.84
   2.133  -43.01  105.93   -0.06   -7.86   -0.07   -7.87  -40.52  -25.84
   2.144  -42.37  102.83   -0.07   -7.94   -0.07   -7.95  -40.64  -21.96
   2.155  -41.68   99.49   -0.07   -8.02   -0.07   -8.02  -40.66  -17.75
   2.166  -41.04   96.32   -0.07   -8.10   -0.08   -8.11  -40.57  -13.20
   2.178  -40.41   93.72   -0.07   -8.18   -0.08   -8.18  -40.36   -8.62
   2.189  -39.76   91.28   -0.07   -8.27   -0.08   -8.28  -40.11   -4.64
   2.200  -39.12   88.90   -0.08   -8.36   -0.08   -8.36  -39.86   -0.53
   2.211  -38.46   86.69   -0.08   -8.45   -0.09   -8.45  -39.60    3.68
   2.223  -37.79   84.68   -0.09   -8.55   -0.09   -8.55  -39.24    8.35
   2.234  -37.06   82.43   -0.09   -8.64   -0.09   -8.65  -38.70   13.26
   2.245  -36.34   79.97   -0.09   -8.76   -0.10   -8.75  -38.07   17.48
   2.256  -35.61   77.75   -0.10   -8.87   -0.10   -8.87  -37.33   21.39
   2.268  -34.85   75.16   -0.11   -9.00   -0.11   -8.99  -36.54   24.71
   2.279  -34.08   72.48   -0.12   -9.12   -0.12   -9.12  -35.70   27.63
   2.290  -33.29   69.83   -0.13   -9.26   -0.13   -9.26  -34.81   30.29
   2.301  -32.45   66.91   -0.14   -9.42   -0.15   -9.42  -33.82   32.56
   2.313  -31.58   63.73   -0.16   -9.59   -0.16   -9.59  -32.72   34.20
   2.324  -30.65   60.04   -0.18   -9.77   -0.18   -9.77  -31.55   35.04
   2.335  -29.67   56.01   -0.21   -9.95   -0.21   -9.95  -30.32   34.91
   2.346  -28.65   51.33   -0.25  -10.15   -0.25  -10.14  -29.05   33.88
   2.358  -27.58   45.84   -0.29  -10.34   -0.30  -10.34  -27.74   31.89
   2.369  -26.47   39.20   -0.36  -10.50   -0.37  -10.50  -26.36   28.58
   2.380  -25.36   31.15   -0.45  -10.57   -0.45  -10.56  -24.98   23.59
   2.391  -24.31   21.26   -0.56  -10.43   -0.56  -10.44  -23.64   16.47
   2.403  -23.44    9.35   -0.67   -9.97   -0.68   -9.97  -22.49    7.13
   2.414  -22.90   -4.27   -0.76   -9.09   -0.76   -9.09  -21.68   -4.15
   2.425  -22.82  -18.67   -0.77   -8.00   -0.78   -8.00  -21.33  -16.34
   2.436  -23.21  -32.42   -0.71   -7.05   -0.71   -7.04  -21.46  -28.09
   2.448  -23.94  -44.37   -0.60   -6.46   -0.61   -6.47  -21.94  -38.24
   2.459  -24.85  -54.25   -0.50   -6.22   -0.50   -6.23  -22.61  -46.49
   2.470  -25.84  -62.14   -0.41   -6.22   -0.41   -6.21  -23.37  -52.96
   2.481  -26.81  -68.47   -0.34   -6.31   -0.34   -6.31  -24.14  -58.01
   2.493  -27.73  -73.54   -0.28   -6.46   -0.29   -6.47  -24.87  -61.97
   2.504  -28.58  -77.74   -0.24   -6.63   -0.25   -6.63  -25.57  -65.16
   2.515  -29.37  -81.25   -0.21   -6.79   -0.22   -6.79  -26.23  -67.70
   2.526  -30.08  -84.21   -0.19   -6.95   -0.19   -6.95  -26.85  -69.74
   2.538  -30.73  -86.83   -0.17   -7.10   -0.17   -7.10  -27.44  -71.45
   2.549  -31.31  -89.15   -0.15   -7.24   -0.15   -7.24  -28.02  -72.73
   2.560  -31.83  -91.34   -0.14   -7.38   -0.14   -7.38  -28.58  -73.70
   2.571  -32.31  -93.48   -0.12   -7.50   -0.13   -7.50  -29.10  -74.33
   2.583  -32.75  -95.65   -0.11   -7.63   -0.12   -7.63  -29.60  -74.79
   2.594  -33.16  -97.80   -0.10   -7.75   -0.11   -7.75  -30.08  -74.84
   2.605  -33.55  -99.92   -0.10   -7.87   -0.10   -7.87  -30.52  -74.61
   2.616  -33.91 -102.21   -0.09   -7.98   -0.10   -7.98  -30.92  -74.37
   2.628  -34.26 -104.30   -0.09   -8.09   -0.09   -8.09  -31.29  -73.84
   2.639  -34.61 -106.39   -0.08   -8.20   -0.09   -8.19  -31.59  -73.18
   2.650  -34.92 -108.37   -0.08   -8.29   -0.08   -8.29  -31.87  -72.70
   2.661  -35.20 -110.55   -0.08   -8.39   -0.08   -8.38  -32.11  -72.21
   2.673  -35.53 -112.71   -0.08   -8.48   -0.08   -8.48  -32.35  -71.72
   2.684  -35.83 -114.86   -0.07   -8.56   -0.08   -8.56  -32.57  -71.28
   2.695  -36.11 -116.78   -0.07   -8.65   -0.08   -8.64  -32.77  -70.83
   2.706  -36.42 -118.82   -0.07   -8.73   -0.08   -8.73  -32.99  -70.21
   2.718  -36.68 -120.93   -0.07   -8.80   -0.08   -8.80  -33.14  -69.75
   2.729  -36.94 -122.84   -0.07   -8.88   -0.07   -8.87  -33.33  -69.33
   2.740  -37.17 -125.06   -0.07   -8.95   -0.07   -8.95  -33.49  -68.73
   2.751  -37.46 -127.11   -0.07   -9.02   -0.07   -9.02  -33.65  -68.22
   2.763  -37.71 -129.06   -0.07   -9.09   -0.07   -9.08  -33.83  -67.68
   2.774  -37.93 -130.91   -0.07   -9.15   -0.07   -9.16  -33.97  -67.12
   2.785  -38.12 -132.90   -0.07   -9.21   -0.07   -9.21  -34.10  -66.40
   2.796  -38.35 -135.00   -0.07   -9.28   -0.07   -9.28  -34.20  -65.81
   2.808  -38.56 -136.99   -0.07   -9.35   -0.07   -9.34  -34.27  -65.43
   2.819  -38.71 -138.96   -0.07   -9.41   -0.07   -9.40  -34.35  -65.20
   2.830  -38.89 -140.88   -0.07   -9.47   -0.07   -9.46  -34.43  -65.02
   2.841  -39.03 -142.98   -0.07   -9.53   -0.07   -9.52  -34.55  -64.88
   2.853  -39.17 -144.70   -0.07   -9.59   -0.07   -9.59  -34.67  -64.57
   2.864  -39.32 -146.77   -0.07   -9.65   -0.07   -9.64  -34.77  -64.28
   2.875  -39.44 -148.81   -0.07   -9.72   -0.07   -9.70  -34.86  -63.82
   2.886  -39.60 -150.57   -0.07   -9.77   -0.07   -9.76  -34.92  -63.45
   2.898  -39.70 -152.34   -0.07   -9.83   -0.07   -9.82  -34.95  -63.14
   2.909  -39.80 -154.15   -0.07   -9.89   -0.07   -9.88  -35.02  -63.18
   2.920  -39.94 -156.30   -0.07   -9.94   -0.07   -9.93  -35.10  -63.20
   2.931  -40.02 -158.07   -0.07  -10.00   -0.07   -9.99  -35.23  -62.73
   2.943  -40.11 -159.58   -0.07  -10.06   -0.07  -10.04  -35.34  -62.56
   2.954  -40.21 -161.63   -0.07  -10.11   -0.07  -10.11  -35.40  -62.21
   2.965  -40.22 -163.14   -0.07  -10.17   -0.07  -10.17  -35.49  -61.79
   2.976  -40.31 -164.95   -0.07  -10.23   -0.07  -10.22  -35.53  -61.54
   2.988  -40.33 -166.50   -0.07  -10.29   -0.07  -10.27  -35.56  -61.55
   2.999  -40.40 -167.41   -0.07  -10.34   -0.07  -10.33  -35.65  -61.58
   3.010  -40.38 -168.53   -0.07  -10.39   -0.07  -10.39  -35.78  -61.52
   3.021  -40.34 -170.16   -0.07  -10.45   -0.07  -10.45  -35.86  -61.42
   3.033  -40.30 -171.39   -0.07  -10.51   -0.07  -10.50  -35.93  -61.36
   3.044  -43.46 -173.78   -0.07  -10.55   -0.07  -10.54  -37.01  -64.10
   3.055  -43.54 -176.46   -0.07  -10.61   -0.07  -10.60  -37.13  -63.75
   3.066  -43.68 -178.36   -0.07  -10.66   -0.07  -10.66  -37.26  -63.55
   3.078  -43.84 -179.90   -0.07  -10.71   -0.07  -10.70  -37.37  -63.88
   3.089  -43.87  178.78   -0.07  -10.76   -0.07  -10.75  -37.51  -63.73
   3.100  -43.85  176.81   -0.07  -10.82   -0.07  -10.81  -37.70  -63.52
   3.111  -43.79  175.31   -0.07  -10.87   -0.08  -10.86  -37.83  -63.23
   3.123  -43.74  173.05   -0.07  -10.92   -0.07  -10.91  -37.98  -63.17
   3.134  -43.60  171.09   -0.07  -10.97   -0.07  -10.96  -38.16  -63.13
   3.145  -43.49  168.43   -0.07  -11.03   -0.07  -11.02  -38.41  -62.76
   3.156  -43.46  166.18   -0.07  -11.08   -0.08  -11.08  -38.63  -62.80
   3.168  -43.42  163.49   -0.07  -11.14   -0.08  -11.13  -38.89  -62.12
   3.179  -43.45  161.26   -0.07  -11.20   -0.08  -11.19  -39.14  -61.12
   3.190  -43.42  159.37   -0.07  -11.25   -0.08  -11.24  -39.32  -60.07
   3.201  -43.40  157.73   -0.07  -11.31   -0.08  -11.30  -39.46  -58.83
   3.213  -43.25  156.40   -0.07  -11.36   -0.08  -11.35  -39.58  -58.01
   3.224  -43.18  154.25   -0.07  -11.41   -0.08  -11.40  -39.71  -57.71
   3.235  -43.06  152.18   -0.07  -11.47   -0.08  -11.46  -39.94  -57.32
   3.246  -42.99  149.94   -0.07  -11.52   -0.08  -11.51  -40.20  -56.47
   3.258  -42.82  147.68   -0.08  -11.58   -0.08  -11.56  -40.35  -55.75
   3.269  -42.84  145.95   -0.08  -11.62   -0.08  -11.61  -40.51  -54.37
   3.280  -42.75  144.09   -0.08  -11.68   -0.08  -11.66  -40.64  -53.90
   3.291  -42.76  142.04   -0.08  -11.73   -0.08  -11.72  -40.86  -52.71
   3.303  -42.59  140.27   -0.08  -11.79   -0.08  -11.76  -40.96  -52.08
   3.314  -42.54  138.51   -0.08  -11.84   -0.08  -11.83  -41.19  -51.95
   3.325  -42.42  137.07   -0.08  -11.89   -0.08  -11.87  -41.41  -50.61
   3.336  -42.35  135.80   -0.08  -11.94   -0.08  -11.93  -41.72  -49.19
