!  American Technical Ceramics  Date:   4/26/2005
!  One Norden Lane
!  Huntington Station,  NY.   11746-2102
!  Tel:  (631) 622-4700               Fax:  (631) 622-4748
!  Part Number  600S7R5         Mounting Orientation: Horizontal
!  Description: Ultra Low ESR Microwave capacitors
!  Application: Coupling, Bypass, Tuning, DC Block
!               Filters, Matching
# GHZ S DB R 50
! Freq   |S11|   S11 Ph  |S21|   S21 Ph  |S12|   S12 Ph  |S22|   S22 Ph
   0.000   0.00    0.00	  -999.00  90.00  -999.00  90.00    0.00    0.00
   0.400   -6.72  -63.94   -1.05   26.60   -0.90   26.00   -6.46  -62.94
   0.445   -7.39  -64.63   -0.94   23.85   -0.82   22.96   -7.29  -66.61
   0.490   -8.18  -68.42   -0.73   21.71   -0.60   21.09   -7.97  -67.88
   0.535   -8.75  -68.94   -0.66   19.69   -0.55   18.74   -8.66  -70.92
   0.580   -9.50  -71.93   -0.53   18.07   -0.42   17.39   -9.28  -71.74
   0.625   -9.94  -72.24   -0.50   16.50   -0.40   15.55   -9.90  -74.21
   0.670  -10.67  -74.63   -0.40   15.20   -0.31   14.42  -10.46  -74.89
   0.715  -11.06  -74.86   -0.39   13.93   -0.31   13.10  -11.03  -76.67
   0.760  -11.73  -76.87   -0.32   12.94   -0.24   12.20  -11.53  -77.18
   0.805  -12.04  -76.64   -0.30   11.82   -0.20   11.05  -12.00  -78.80
   0.850  -12.71  -79.09   -0.26   10.98   -0.17   10.10  -12.51  -79.31
   0.895  -12.98  -78.46   -0.24   10.08   -0.17    9.23  -12.96  -80.63
   0.940  -13.60  -80.67   -0.20    9.34   -0.14    8.40  -13.41  -81.24
   0.985  -13.84  -80.01   -0.20    8.55   -0.15    7.72  -13.87  -82.15
   1.030  -14.44  -81.96   -0.17    7.93   -0.13    6.95  -14.26  -82.75
   1.075  -14.63  -81.25   -0.17    7.22   -0.13    6.41  -14.67  -83.51
   1.120  -15.23  -83.26   -0.14    6.66   -0.12    5.74  -15.06  -84.12
   1.165  -15.41  -82.29   -0.14    6.01   -0.11    5.21  -15.46  -84.74
   1.210  -15.94  -84.51   -0.13    5.53   -0.10    4.68  -15.81  -85.34
   1.255  -16.17  -83.36   -0.11    5.00   -0.10    4.16  -16.16  -85.77
   1.300  -16.59  -85.35   -0.11    4.48   -0.09    3.72  -16.54  -86.39
   1.345  -16.87  -84.47   -0.10    3.98   -0.09    3.20  -16.87  -86.73
   1.390  -17.26  -86.23   -0.09    3.55   -0.08    2.83  -17.21  -87.31
   1.435  -17.54  -85.27   -0.09    3.10   -0.09    2.29  -17.52  -87.68
   1.480  -17.90  -87.20   -0.08    2.69   -0.08    2.01  -17.88  -88.21
   1.525  -18.19  -85.84   -0.07    2.26   -0.09    1.52  -18.17  -88.43
   1.570  -18.46  -88.02   -0.07    1.88   -0.09    1.28  -18.48  -88.89
   1.615  -18.87  -86.57   -0.06    1.49   -0.07    0.84  -18.77  -89.34
   1.660  -19.00  -88.45   -0.06    1.15   -0.07    0.49  -19.11  -89.79
   1.705  -19.45  -87.41   -0.06    0.76   -0.07    0.12  -19.40  -90.13
   1.750  -19.60  -89.55   -0.05    0.43   -0.07   -0.18  -19.67  -90.29
   1.795  -20.05  -87.95   -0.05    0.05   -0.07   -0.54  -20.00  -90.72
   1.840  -20.16  -90.19   -0.05   -0.22   -0.07   -0.86  -20.28  -90.78
   1.885  -20.63  -88.55   -0.05   -0.59   -0.06   -1.14  -20.57  -91.42
   1.930  -20.68  -90.78   -0.04   -0.89   -0.07   -1.46  -20.81  -91.40
   1.975  -21.24  -89.42   -0.04   -1.22   -0.07   -1.73  -21.09  -91.73
   2.020  -21.22  -90.85   -0.04   -1.50   -0.06   -2.08  -21.40  -91.75
   2.065  -21.77  -90.46   -0.03   -1.82   -0.06   -2.33  -21.66  -92.29
   2.110  -21.77  -91.27   -0.04   -2.13   -0.07   -2.65  -21.90  -92.46
   2.155  -22.29  -91.10   -0.03   -2.40   -0.07   -2.86  -22.18  -92.57
   2.200  -22.25  -91.66   -0.03   -2.71   -0.07   -3.17  -22.46  -92.61
   2.245  -22.83  -92.10   -0.03   -2.98   -0.06   -3.43  -22.71  -92.87
   2.290  -22.77  -92.01   -0.03   -3.25   -0.06   -3.68  -22.96  -93.37
   2.335  -23.39  -93.20   -0.02   -3.53   -0.07   -3.96  -23.21  -93.18
   2.380  -23.33  -92.10   -0.03   -3.81   -0.06   -4.17  -23.48  -93.37
   2.425  -23.84  -93.90   -0.03   -4.06   -0.06   -4.47  -23.72  -93.43
   2.470  -23.84  -92.73   -0.03   -4.34   -0.06   -4.68  -23.93  -94.04
   2.515  -24.34  -94.79   -0.03   -4.59   -0.06   -4.92  -24.15  -93.78
   2.560  -24.42  -93.42   -0.02   -4.85   -0.06   -5.14  -24.38  -94.03
   2.605  -24.85  -95.29   -0.02   -5.09   -0.06   -5.41  -24.63  -93.96
   2.650  -24.95  -93.86   -0.02   -5.36   -0.05   -5.66  -24.83  -94.44
   2.695  -25.39  -96.11   -0.02   -5.59   -0.06   -5.90  -25.00  -94.43
   2.740  -25.56  -94.33   -0.01   -5.87   -0.05   -6.15  -25.22  -94.51
   2.785  -25.89  -96.16   -0.02   -6.12   -0.05   -6.38  -25.44  -94.81
   2.830  -26.10  -94.26   -0.01   -6.39   -0.05   -6.65  -25.65  -95.37
   2.875  -26.28  -95.51   -0.02   -6.62   -0.05   -6.88  -25.85  -95.78
   2.920  -26.50  -94.21   -0.02   -6.88   -0.05   -7.12  -26.08  -95.63
   2.965  -26.54  -96.12   -0.02   -7.13   -0.06   -7.34  -26.34  -95.80
   3.010  -26.82  -95.60   -0.02   -7.33   -0.06   -7.58  -26.51  -95.25
   3.055  -26.92  -95.94   -0.02   -7.55   -0.05   -7.75  -27.08  -96.85
   3.100  -27.36  -94.47   -0.02   -7.78   -0.06   -7.98  -27.35  -96.50
   3.145  -27.40  -96.71   -0.02   -7.97   -0.06   -8.17  -27.67  -96.44
   3.190  -27.97  -95.46   -0.02   -8.21   -0.05   -8.38  -27.91  -96.21
   3.235  -28.03  -96.59   -0.02   -8.43   -0.05   -8.60  -28.17  -96.45
   3.280  -28.59  -95.41   -0.02   -8.64   -0.05   -8.83  -28.40  -95.70
   3.325  -28.62  -96.26   -0.02   -8.85   -0.06   -9.03  -28.62  -95.46
   3.370  -29.07  -94.40   -0.02   -9.07   -0.05   -9.21  -28.84  -95.93
   3.415  -28.98  -95.85   -0.02   -9.27   -0.05   -9.45  -29.06  -96.26
   3.460  -29.58  -95.49   -0.02   -9.49   -0.05   -9.64  -29.34  -96.36
   3.505  -29.51  -96.09   -0.02   -9.71   -0.05   -9.87  -29.62  -95.97
   3.550  -30.09  -95.83   -0.02   -9.95   -0.05  -10.06  -29.86  -96.48
   3.595  -30.10  -95.61   -0.01  -10.15   -0.05  -10.28  -30.23  -97.02
   3.640  -30.68  -96.65   -0.02  -10.34   -0.05  -10.48  -30.56  -96.79
   3.685  -30.69  -96.08   -0.02  -10.59   -0.05  -10.71  -30.82  -96.34
   3.730  -31.31  -97.45   -0.01  -10.78   -0.05  -10.90  -31.15  -96.91
   3.775  -31.30  -96.23   -0.02  -11.00   -0.04  -11.12  -31.45  -96.96
   3.820  -31.96  -98.36   -0.02  -11.20   -0.04  -11.32  -31.72  -97.07
   3.865  -32.06  -96.60   -0.01  -11.41   -0.04  -11.53  -32.01  -96.94
   3.910  -32.60  -99.46   -0.01  -11.64   -0.04  -11.75  -32.39  -97.49
   3.955  -32.86  -96.82   -0.01  -11.86   -0.04  -11.95  -32.75  -97.91
   4.000  -33.44 -100.26   -0.02  -12.06   -0.04  -12.16  -33.06  -97.94
   4.045  -33.84  -97.60   -0.02  -12.28   -0.04  -12.38  -33.46  -98.56
   4.090  -34.37 -100.73   -0.02  -12.48   -0.05  -12.57  -33.91  -99.11
   4.135  -34.92  -97.31   -0.02  -12.67   -0.04  -12.76  -34.50  -99.71
   4.180  -35.44 -100.75   -0.02  -12.85   -0.05  -12.95  -35.00  -99.52
   4.225  -36.23  -96.49   -0.02  -13.04   -0.05  -13.12  -35.72  -99.03
   4.270  -36.42  -99.01   -0.01  -13.25   -0.04  -13.31  -36.34  -97.26
   4.315  -37.44  -95.67   -0.02  -13.48   -0.04  -13.52  -36.92  -97.25
   4.360  -37.75  -97.75   -0.02  -13.68   -0.04  -13.71  -37.57  -96.18
   4.405  -38.95  -95.34   -0.02  -13.87   -0.04  -13.93  -38.38  -94.42
   4.450  -39.52  -95.63   -0.02  -14.05   -0.04  -14.10  -39.29  -91.15
   4.495  -40.88  -89.26   -0.02  -14.23   -0.04  -14.30  -40.06  -87.55
   4.540  -41.07  -88.20   -0.01  -14.45   -0.03  -14.49  -40.67  -83.91
   4.585  -42.45  -80.93   -0.01  -14.67   -0.03  -14.72  -41.24  -78.74
   4.630  -41.96  -78.17   -0.01  -14.90   -0.03  -14.94  -41.42  -73.07
   4.675  -42.69  -78.24   -0.01  -15.12   -0.03  -15.18  -41.77  -74.29
   4.720  -43.45  -79.30   -0.01  -15.32   -0.02  -15.35  -42.93  -72.78
   4.765  -45.65  -75.61   -0.01  -15.53   -0.03  -15.57  -43.98  -67.47
   4.810  -46.77  -73.20   -0.01  -15.73   -0.03  -15.75  -45.21  -58.80
   4.855  -49.32  -58.55   -0.01  -15.94   -0.03  -15.97  -46.37  -48.74
   4.900  -49.82  -49.99   -0.01  -16.16   -0.03  -16.17  -47.06  -37.29
   4.945  -52.92  -22.78   -0.01  -16.34   -0.03  -16.37  -47.18  -22.14
   4.990  -51.05   -5.27   -0.01  -16.54   -0.02  -16.58  -46.78   -8.83
   5.035  -50.65   20.51   -0.01  -16.75   -0.03  -16.77  -46.16    2.59
   5.080  -48.33   27.98   -0.01  -16.99   -0.03  -17.02  -45.26   12.48
   5.125  -46.66   42.28   -0.01  -17.18   -0.02  -17.23  -44.10   19.73
   5.170  -45.09   44.17   -0.01  -17.39   -0.03  -17.42  -43.16   26.33
   5.215  -43.49   52.80   -0.01  -17.59   -0.03  -17.62  -41.96   32.02
   5.260  -42.02   50.96   -0.02  -17.81   -0.03  -17.87  -40.94   35.74
   5.305  -40.96   56.99   -0.01  -18.05   -0.03  -18.06  -39.94   38.23
   5.350  -39.74   55.95   -0.01  -18.24   -0.02  -18.27  -39.04   40.69
   5.395  -38.95   59.65   -0.02  -18.45   -0.02  -18.47  -38.15   42.82
   5.440  -37.91   59.23   -0.02  -18.66   -0.03  -18.70  -37.36   44.58
   5.485  -37.03   61.04   -0.02  -18.90   -0.03  -18.91  -36.61   46.31
   5.530  -36.20   60.88   -0.02  -19.11   -0.03  -19.14  -35.78   47.24
   5.575  -35.48   62.01   -0.02  -19.34   -0.03  -19.34  -35.15   48.20
   5.620  -34.65   62.02   -0.02  -19.58   -0.03  -19.60  -34.41   49.29
   5.665  -34.12   62.30   -0.02  -19.80   -0.03  -19.79  -33.74   49.93
   5.710  -33.29   62.91   -0.02  -20.02   -0.03  -20.05  -33.03   50.53
   5.755  -32.67   62.55   -0.02  -20.29   -0.03  -20.34  -32.36   50.75
   5.800  -31.98   62.98   -0.03  -20.50   -0.03  -20.54  -31.76   51.21
   5.845  -31.33   62.66   -0.03  -20.79   -0.03  -20.82  -31.11   51.39
   5.890  -30.59   62.56   -0.03  -21.02   -0.03  -21.04  -30.50   51.20
   5.935  -30.03   61.67   -0.03  -21.32   -0.04  -21.35  -29.88   51.02
   5.980  -29.35   61.16   -0.04  -21.57   -0.04  -21.59  -29.31   50.99
   6.025  -28.83   60.30   -0.05  -21.82   -0.05  -21.87  -28.65   50.96
   6.070  -28.21   60.08   -0.05  -22.12   -0.06  -22.13  -28.09   50.34
   6.115  -27.54   59.16   -0.06  -22.41   -0.06  -22.44  -27.45   50.09
   6.160  -26.91   58.29   -0.07  -22.72   -0.07  -22.77  -26.80   49.71
   6.205  -26.22   57.59   -0.08  -23.04   -0.08  -23.09  -26.10   48.96
   6.250  -25.51   55.99   -0.10  -23.42   -0.10  -23.43  -25.39   47.98
   6.295  -24.79   54.72   -0.12  -23.77   -0.12  -23.80  -24.66   46.81
   6.340  -24.00   52.68   -0.15  -24.20   -0.14  -24.26  -23.79   45.31
   6.385  -23.10   50.80   -0.18  -24.67   -0.16  -24.70  -22.96   43.32
   6.430  -22.13   47.20   -0.23  -25.19   -0.22  -25.31  -21.96   40.69
   6.475  -21.05   43.56   -0.32  -25.73   -0.29  -25.84  -20.99   36.38
   6.520  -19.89   36.63   -0.44  -26.31   -0.43  -26.58  -19.73   30.58
   6.565  -18.64   28.53   -0.65  -26.68   -0.64  -26.99  -18.53   21.83
   6.610  -17.55   14.51   -0.94  -26.30   -0.94  -26.63  -17.41    9.62
   6.655  -17.08   -2.77   -1.21  -24.34   -1.22  -24.68  -17.01   -7.63
   6.700  -17.68  -23.23   -1.18  -21.38   -1.19  -21.72  -17.60  -27.02
   6.745  -19.54  -39.75   -0.89  -19.68   -0.91  -20.05  -19.29  -42.86
   6.790  -21.73  -51.59   -0.59  -19.50   -0.63  -19.87  -21.54  -53.40
   6.835  -24.42  -58.15   -0.40  -20.01   -0.44  -20.24  -23.99  -59.01
   6.880  -26.70  -61.04   -0.28  -20.60   -0.32  -20.81  -26.45  -61.74
   6.925  -29.63  -60.69   -0.21  -21.20   -0.25  -21.37  -28.70  -60.29
   6.970  -31.74  -57.31   -0.16  -21.72   -0.21  -21.85  -30.93  -55.10
   7.015  -34.90  -49.94   -0.13  -22.22   -0.16  -22.32  -33.15  -45.88
   7.060  -36.63  -36.37   -0.11  -22.63   -0.14  -22.69  -35.00  -34.29
   7.105  -38.88  -14.77   -0.09  -23.04   -0.12  -23.10  -36.05  -20.48
   7.150  -38.38    2.01   -0.08  -23.41   -0.11  -23.45  -36.06   -5.11
   7.195  -38.06   22.15   -0.07  -23.76   -0.10  -23.78  -35.59    9.77
   7.240  -36.55   29.54   -0.06  -24.07   -0.09  -24.11  -34.80   20.49
   7.285  -35.41   41.33   -0.06  -24.35   -0.08  -24.38  -34.06   27.26
   7.330  -34.25   42.57   -0.05  -24.65   -0.08  -24.66  -33.04   32.15
   7.375  -33.37   49.30   -0.05  -24.91   -0.07  -24.91  -32.11   35.52
   7.420  -32.42   47.94   -0.04  -25.17   -0.08  -25.18  -31.39   39.96
   7.465  -31.88   52.27   -0.05  -25.46   -0.07  -25.43  -30.69   41.01
   7.510  -31.07   51.63   -0.04  -25.72   -0.07  -25.71  -30.10   42.43
   7.555  -30.76   54.67   -0.04  -25.94   -0.07  -25.94  -29.47   42.35
   7.600  -30.11   54.50   -0.04  -26.19   -0.07  -26.16  -28.98   43.91
   7.645  -29.73   57.61   -0.04  -26.43   -0.07  -26.43  -28.53   44.27
   7.690  -28.93   57.80   -0.04  -26.67   -0.07  -26.63  -28.23   44.59
   7.735  -28.63   58.60   -0.04  -26.89   -0.07  -26.89  -27.86   44.80
   7.780  -27.94   58.26   -0.04  -27.11   -0.07  -27.09  -27.47   45.68
   7.825  -27.70   58.39   -0.04  -27.36   -0.06  -27.33  -27.07   46.74
   7.870  -27.04   59.02   -0.04  -27.54   -0.06  -27.49  -26.83   46.37
   7.915  -26.83   57.92   -0.05  -27.78   -0.07  -27.77  -26.55   47.01
   7.960  -26.38   58.31   -0.04  -28.00   -0.06  -28.00  -26.17   47.03
   8.005  -26.17   57.30   -0.04  -28.20   -0.06  -28.20  -25.91   47.81
   8.050  -25.76   57.62   -0.05  -28.46   -0.07  -28.40  -25.61   47.46
   8.095  -25.59   56.58   -0.05  -28.70   -0.07  -28.70  -25.37   47.65
   8.140  -25.28   57.07   -0.04  -28.92   -0.07  -28.91  -25.10   47.69
   8.185  -25.11   56.57   -0.04  -29.14   -0.06  -29.11  -24.85   47.79
   8.230  -24.78   57.00   -0.05  -29.36   -0.07  -29.34  -24.63   47.94
   8.275  -24.55   56.60   -0.05  -29.57   -0.07  -29.53  -24.38   47.76
   8.320  -24.24   56.57   -0.05  -29.80   -0.07  -29.76  -24.18   47.75
   8.365  -24.44   53.13   -0.05  -30.02   -0.07  -29.95  -24.10   53.16
   8.410  -24.16   53.16   -0.05  -30.28   -0.07  -30.21  -23.85   53.11
   8.455  -23.97   52.79   -0.06  -30.48   -0.07  -30.39  -23.57   52.39
   8.500  -23.74   52.86   -0.07  -30.67   -0.08  -30.63  -23.35   52.09
   8.545  -23.56   52.23   -0.06  -30.90   -0.08  -30.85  -23.09   51.43
   8.590  -23.41   52.12   -0.06  -31.12   -0.09  -31.08  -22.88   50.74
   8.635  -23.23   51.90   -0.07  -31.34   -0.08  -31.29  -22.70   49.69
   8.680  -23.05   52.44   -0.08  -31.56   -0.09  -31.47  -22.59   48.92
   8.725  -22.77   51.89   -0.08  -31.77   -0.10  -31.74  -22.60   48.52
   8.770  -22.68   51.56   -0.08  -31.96   -0.10  -31.87  -22.49   48.73
   8.815  -22.57   51.10   -0.09  -32.17   -0.10  -32.13  -22.43   48.72
   8.860  -22.45   51.50   -0.09  -32.37   -0.10  -32.27  -22.21   49.31
   8.905  -22.23   51.77   -0.09  -32.54   -0.11  -32.50  -22.04   49.76
   8.950  -22.12   52.59   -0.09  -32.77   -0.10  -32.65  -21.79   49.97
   8.995  -21.84   52.74   -0.09  -32.97   -0.11  -32.95  -21.51   49.96
   9.040  -21.61   53.37   -0.09  -33.20   -0.09  -33.16  -21.17   49.50
   9.085  -21.25   53.27   -0.09  -33.45   -0.10  -33.38  -20.92   48.94
   9.130  -20.98   53.21   -0.09  -33.69   -0.10  -33.64  -20.77   47.57
   9.175  -20.65   52.21   -0.08  -33.92   -0.10  -33.84  -20.63   46.81
   9.220  -20.44   51.37   -0.08  -34.20   -0.10  -34.16  -20.55   46.02
   9.265  -20.24   50.41   -0.08  -34.52   -0.11  -34.48  -20.45   46.10
   9.310  -20.15   49.93   -0.10  -34.76   -0.11  -34.74  -20.38   46.02
   9.355  -20.00   49.46   -0.11  -35.00   -0.12  -34.95  -20.19   46.11
   9.400  -19.84   49.22   -0.11  -35.22   -0.13  -35.23  -19.96   46.25
   9.445  -19.63   49.08   -0.12  -35.49   -0.13  -35.42  -19.70   46.05
   9.490  -19.44   48.56   -0.13  -35.70   -0.14  -35.69  -19.49   45.82
   9.535  -19.26   48.61   -0.13  -36.00   -0.14  -35.92  -19.26   45.04
   9.580  -19.04   47.93   -0.13  -36.23   -0.15  -36.21  -19.03   44.66
   9.625  -18.82   47.86   -0.14  -36.59   -0.15  -36.48  -18.78   44.03
   9.670  -18.59   47.10   -0.14  -36.84   -0.15  -36.83  -18.58   43.65
   9.715  -18.37   47.16   -0.15  -37.20   -0.16  -37.17  -18.35   42.75
   9.760  -18.18   46.23   -0.16  -37.54   -0.17  -37.46  -18.09   42.00
   9.805  -17.91   46.45   -0.17  -37.86   -0.18  -37.81  -17.84   41.49
   9.850  -17.65   45.73   -0.18  -38.23   -0.18  -38.15  -17.61   40.89
   9.895  -17.35   45.31   -0.19  -38.64   -0.20  -38.56  -17.34   40.16
   9.940  -17.04   44.80   -0.21  -39.03   -0.21  -38.90  -17.02   39.28
   9.985  -16.69   43.93   -0.22  -39.39   -0.24  -39.38  -16.78   38.49
  10.030  -16.40   43.05   -0.25  -39.89   -0.25  -39.78  -16.41   37.32
  10.075  -16.01   42.10   -0.27  -40.36   -0.28  -40.32  -16.16   36.17
  10.120  -15.67   40.73   -0.31  -40.95   -0.31  -40.82  -15.76   34.84
  10.165  -15.29   39.43   -0.35  -41.45   -0.36  -41.37  -15.40   33.52
  10.210  -14.89   37.79   -0.40  -42.07   -0.42  -41.98  -15.01   31.87
  10.255  -14.51   36.01   -0.47  -42.65   -0.48  -42.55  -14.60   30.09
  10.300  -14.06   34.06   -0.55  -43.30   -0.57  -43.24  -14.18   27.76
  10.345  -13.62   31.74   -0.65  -43.98   -0.65  -43.82  -13.68   25.53
  10.390  -13.12   29.09   -0.78  -44.66   -0.79  -44.56  -13.23   22.58
  10.435  -12.65   25.98   -0.94  -45.32   -0.93  -45.17  -12.67   19.17
  10.480  -12.05   22.22   -1.13  -45.91   -1.15  -45.89  -12.20   15.00
  10.525  -11.57   17.53   -1.40  -46.45   -1.40  -46.26  -11.61   10.23
  10.570  -11.00   12.31   -1.72  -46.52   -1.73  -46.40  -11.13    4.32
  10.615  -10.55    5.46   -2.11  -46.13   -2.11  -45.94  -10.66   -2.66
  10.660  -10.17   -2.25   -2.55  -44.49   -2.54  -44.28  -10.33  -10.52
  10.705   -9.98  -11.44   -2.91  -41.80   -2.91  -41.64  -10.17  -19.82
  10.750  -10.07  -20.97   -3.10  -37.68   -3.07  -37.61  -10.25  -29.65
  10.795  -10.39  -30.76   -2.99  -33.41   -2.99  -33.41  -10.68  -39.98
  10.840  -11.08  -40.48   -2.64  -30.16   -2.63  -30.18  -11.31  -49.36
  10.885  -11.93  -48.72   -2.19  -28.27   -2.19  -28.26  -12.26  -58.00
  10.930  -13.05  -56.07   -1.76  -27.60   -1.76  -27.63  -13.29  -65.19
  10.975  -14.18  -61.37   -1.39  -27.71   -1.40  -27.68  -14.49  -71.55
  11.020  -15.37  -66.44   -1.10  -28.28   -1.11  -28.28  -15.67  -76.42
  11.065  -16.59  -69.84   -0.88  -28.97   -0.88  -28.92  -16.90  -80.32
  11.110  -17.82  -72.59   -0.72  -29.82   -0.72  -29.78  -18.16  -83.26
  11.155  -19.01  -74.24   -0.58  -30.56   -0.58  -30.50  -19.35  -85.76
  11.200  -20.17  -75.51   -0.48  -31.30   -0.47  -31.28  -20.61  -87.77
  11.245  -21.36  -76.06   -0.40  -32.01   -0.40  -31.96  -21.81  -88.53
  11.290  -22.47  -76.12   -0.33  -32.68   -0.34  -32.59  -23.06  -89.37
  11.335  -23.67  -75.62   -0.28  -33.28   -0.28  -33.23  -24.26  -89.52
  11.380  -24.74  -74.68   -0.23  -33.83   -0.24  -33.79  -25.50  -89.84
  11.425  -25.94  -73.05   -0.19  -34.40   -0.20  -34.34  -26.77  -88.49
  11.470  -27.01  -70.83   -0.17  -34.92   -0.17  -34.83  -28.12  -87.07
  11.515  -28.18  -67.40   -0.14  -35.38   -0.14  -35.32  -29.45  -84.94
  11.560  -29.23  -63.88   -0.12  -35.84   -0.12  -35.75  -30.76  -82.36
  11.605  -30.30  -59.02   -0.10  -36.32   -0.11  -36.23  -32.19  -78.11
  11.650  -31.17  -54.04   -0.09  -36.71   -0.09  -36.64  -33.64  -72.00
  11.695  -32.16  -46.77   -0.08  -37.11   -0.08  -37.02  -35.27  -65.46
  11.740  -32.87  -39.72   -0.07  -37.45   -0.07  -37.39  -36.51  -55.62
  11.785  -33.40  -30.57   -0.06  -37.83   -0.07  -37.77  -37.54  -44.18
  11.830  -33.54  -22.84   -0.05  -38.16   -0.05  -38.14  -38.13  -28.51
  11.875  -33.57  -14.29   -0.04  -38.47   -0.04  -38.44  -38.00  -13.14
  11.920  -33.39   -7.54   -0.04  -38.81   -0.03  -38.75  -37.52   -2.48
  11.965  -33.11   -0.66   -0.03  -39.13   -0.03  -39.08  -36.64    7.42
  12.010  -32.74    3.64   -0.02  -39.44   -0.03  -39.38  -35.58   13.78
  12.055  -32.31    9.35   -0.02  -39.76   -0.02  -39.70  -34.70   19.35
  12.100  -31.87   12.41   -0.02  -40.02   -0.02  -39.98  -33.92   22.94
  12.145  -31.54   16.13   -0.02  -40.34   -0.02  -40.28  -33.19   25.66
