!  American Technical Ceramics  Date:   12/2/2005
!  One Norden Lane
!  Huntington Station,  NY.   11746-2102
!  Tel:  (631) 622-4700               Fax:  (631) 622-4748
!  Part Number  600S180         Mounting Orientation: Horizontal
!  Description: Ultra Low ESR Microwave capacitors
!  Application: Coupling, Bypass, Tuning, DC Block
!               Filters, Matching
# GHZ S DB R 50
! Freq   |S11|   S11 Ph  |S21|   S21 Ph  |S12|   S12 Ph  |S22|   S22 Ph
   0.000    0.00    0.00 -999.00   90.00 -999.00   90.00    0.00    0.00
   0.400  -13.21  -77.50   -0.24   11.15   -0.27   11.20  -13.24  -78.00
   0.411  -13.42  -77.85   -0.23   10.78   -0.26   10.84  -13.46  -78.34
   0.422  -13.64  -78.21   -0.22   10.43   -0.25   10.49  -13.68  -78.68
   0.432  -13.85  -78.57   -0.21   10.10   -0.24   10.16  -13.90  -79.02
   0.443  -14.05  -78.93   -0.20    9.78   -0.24    9.85  -14.11  -79.36
   0.454  -14.26  -79.31   -0.19    9.47   -0.23    9.54  -14.31  -79.67
   0.465  -14.46  -79.58   -0.18    9.18   -0.22    9.24  -14.51  -79.97
   0.475  -14.66  -79.89   -0.18    8.89   -0.21    8.95  -14.71  -80.28
   0.486  -14.85  -80.14   -0.17    8.62   -0.20    8.67  -14.90  -80.52
   0.497  -15.04  -80.37   -0.16    8.36   -0.20    8.41  -15.08  -80.75
   0.508  -15.23  -80.57   -0.16    8.11   -0.19    8.15  -15.26  -80.98
   0.518  -15.41  -80.74   -0.15    7.86   -0.19    7.91  -15.43  -81.21
   0.529  -15.59  -80.97   -0.15    7.62   -0.18    7.67  -15.61  -81.44
   0.540  -15.77  -81.12   -0.14    7.39   -0.18    7.44  -15.78  -81.66
   0.551  -15.94  -81.34   -0.14    7.15   -0.17    7.21  -15.96  -81.85
   0.561  -16.12  -81.50   -0.13    6.92   -0.17    6.99  -16.13  -82.05
   0.572  -16.28  -81.65   -0.13    6.70   -0.16    6.77  -16.29  -82.22
   0.583  -16.44  -81.75   -0.12    6.49   -0.16    6.56  -16.46  -82.40
   0.594  -16.59  -82.01   -0.12    6.27   -0.16    6.35  -16.62  -82.58
   0.604  -16.74  -82.18   -0.12    6.07   -0.15    6.14  -16.78  -82.72
   0.615  -16.88  -82.46   -0.12    5.87   -0.15    5.94  -16.93  -82.97
   0.626  -17.03  -82.70   -0.11    5.69   -0.15    5.76  -17.09  -83.16
   0.637  -17.18  -82.92   -0.11    5.52   -0.14    5.58  -17.25  -83.33
   0.647  -17.33  -83.10   -0.11    5.35   -0.14    5.40  -17.40  -83.49
   0.658  -17.48  -83.28   -0.10    5.19   -0.14    5.23  -17.56  -83.65
   0.669  -17.63  -83.43   -0.10    5.02   -0.13    5.07  -17.71  -83.80
   0.680  -17.78  -83.57   -0.10    4.87   -0.13    4.90  -17.86  -83.95
   0.690  -17.93  -83.70   -0.09    4.72   -0.13    4.74  -18.00  -84.09
   0.701  -18.08  -83.81   -0.09    4.57   -0.13    4.58  -18.14  -84.26
   0.712  -18.23  -83.92   -0.09    4.42   -0.12    4.43  -18.28  -84.42
   0.723  -18.37  -84.00   -0.09    4.28   -0.12    4.28  -18.41  -84.57
   0.733  -18.52  -84.07   -0.09    4.14   -0.12    4.13  -18.54  -84.72
   0.744  -18.65  -84.12   -0.08    4.00   -0.12    3.99  -18.67  -84.83
   0.755  -18.78  -84.11   -0.08    3.85   -0.12    3.92  -18.79  -84.99
   0.766  -18.90  -84.18   -0.08    3.71   -0.11    3.78  -18.91  -85.10
   0.776  -19.01  -84.28   -0.08    3.57   -0.11    3.64  -19.03  -85.21
   0.787  -19.12  -84.42   -0.08    3.43   -0.11    3.50  -19.15  -85.31
   0.798  -19.23  -84.57   -0.08    3.29   -0.11    3.37  -19.27  -85.41
   0.809  -19.34  -84.74   -0.07    3.16   -0.11    3.24  -19.40  -85.50
   0.819  -19.45  -84.90   -0.07    3.03   -0.11    3.11  -19.53  -85.59
   0.830  -19.57  -85.04   -0.07    2.91   -0.11    2.99  -19.66  -85.66
   0.841  -19.69  -85.16   -0.07    2.79   -0.10    2.87  -19.79  -85.73
   0.852  -19.81  -85.27   -0.07    2.67   -0.10    2.75  -19.92  -85.81
   0.862  -19.94  -85.39   -0.07    2.56   -0.10    2.63  -20.05  -85.89
   0.873  -20.07  -85.47   -0.07    2.46   -0.10    2.52  -20.18  -86.00
   0.884  -20.20  -85.55   -0.07    2.36   -0.10    2.42  -20.30  -86.14
   0.895  -20.33  -85.61   -0.06    2.27   -0.10    2.33  -20.42  -86.30
   0.905  -20.47  -85.65   -0.06    2.18   -0.10    2.24  -20.54  -86.45
   0.916  -20.60  -85.67   -0.06    2.07   -0.09    2.13  -20.66  -86.63
   0.927  -20.72  -85.68   -0.06    1.94   -0.09    2.01  -20.76  -86.78
   0.938  -20.83  -85.72   -0.06    1.82   -0.09    1.89  -20.86  -86.91
   0.948  -20.93  -85.77   -0.06    1.70   -0.09    1.78  -20.96  -87.03
   0.959  -21.03  -85.82   -0.06    1.59   -0.09    1.67  -21.05  -87.14
   0.970  -21.12  -85.90   -0.06    1.49   -0.09    1.57  -21.15  -87.22
   0.981  -21.21  -86.01   -0.06    1.38   -0.09    1.47  -21.24  -87.29
   0.991  -21.29  -86.12   -0.06    1.28   -0.09    1.36  -21.35  -87.31
   1.002  -21.39  -86.24   -0.06    1.17   -0.09    1.26  -21.46  -87.29
   1.013  -21.48  -86.34   -0.06    1.07   -0.09    1.15  -21.57  -87.22
   1.024  -21.57  -86.45   -0.05    0.98   -0.09    1.05  -21.69  -87.17
   1.034  -21.67  -86.56   -0.05    0.88   -0.09    0.95  -21.80  -87.15
   1.045  -21.78  -86.69   -0.05    0.80   -0.09    0.85  -21.93  -87.13
   1.056  -21.89  -86.82   -0.05    0.71   -0.09    0.76  -22.04  -87.17
   1.067  -22.02  -86.93   -0.05    0.64   -0.09    0.67  -22.17  -87.28
   1.077  -22.15  -87.01   -0.05    0.55   -0.09    0.58  -22.28  -87.46
   1.088  -22.28  -87.09   -0.05    0.46   -0.09    0.49  -22.40  -87.65
   1.099  -22.40  -87.08   -0.05    0.40   -0.08    0.41  -22.50  -87.88
   1.110  -22.51  -87.08   -0.05    0.30   -0.08    0.32  -22.60  -88.10
   1.120  -22.62  -87.07   -0.05    0.20   -0.08    0.23  -22.69  -88.31
   1.131  -22.71  -87.06   -0.05    0.12   -0.08    0.14  -22.77  -88.50
   1.142  -22.79  -87.06   -0.05    0.03   -0.08    0.06  -22.84  -88.64
   1.153  -22.87  -87.07   -0.05   -0.06   -0.08   -0.03  -22.91  -88.73
   1.163  -22.95  -87.07   -0.05   -0.15   -0.08   -0.11  -22.99  -88.79
   1.174  -23.02  -87.09   -0.05   -0.24   -0.08   -0.20  -23.07  -88.76
   1.185  -23.09  -87.12   -0.04   -0.33   -0.08   -0.29  -23.16  -88.70
   1.196  -23.16  -87.15   -0.04   -0.42   -0.08   -0.37  -23.25  -88.55
   1.206  -23.23  -87.23   -0.05   -0.49   -0.08   -0.46  -23.35  -88.40
   1.217  -23.31  -87.36   -0.04   -0.56   -0.08   -0.53  -23.46  -88.25
   1.228  -23.41  -87.54   -0.04   -0.64   -0.08   -0.60  -23.57  -88.15
   1.239  -23.52  -87.72   -0.04   -0.71   -0.08   -0.66  -23.70  -88.12
   1.249  -23.64  -87.89   -0.04   -0.77   -0.08   -0.73  -23.83  -88.16
   1.260  -23.77  -88.05   -0.04   -0.86   -0.08   -0.80  -23.96  -88.24
   1.271  -23.91  -88.12   -0.04   -0.94   -0.08   -0.88  -24.08  -88.40
   1.282  -24.04  -88.12   -0.04   -1.02   -0.08   -0.96  -24.19  -88.65
   1.292  -24.16  -88.08   -0.04   -1.10   -0.08   -1.04  -24.29  -88.91
   1.303  -24.26  -88.01   -0.04   -1.19   -0.08   -1.12  -24.37  -89.23
   1.314  -24.35  -87.95   -0.04   -1.27   -0.08   -1.20  -24.44  -89.55
   1.325  -24.42  -87.87   -0.04   -1.35   -0.08   -1.28  -24.51  -89.86
   1.335  -24.49  -87.82   -0.04   -1.45   -0.07   -1.37  -24.57  -90.08
   1.346  -24.55  -87.71   -0.04   -1.50   -0.07   -1.45  -24.63  -90.20
   1.357  -24.61  -87.61   -0.04   -1.57   -0.07   -1.52  -24.69  -90.22
   1.368  -24.66  -87.56   -0.04   -1.67   -0.07   -1.60  -24.76  -90.16
   1.378  -24.71  -87.49   -0.04   -1.74   -0.07   -1.68  -24.83  -90.01
   1.389  -24.76  -87.50   -0.04   -1.79   -0.07   -1.75  -24.90  -89.83
   1.400  -24.82  -87.61   -0.04   -1.88   -0.07   -1.83  -24.99  -89.65
   1.411  -24.90  -87.82   -0.04   -1.96   -0.07   -1.90  -25.09  -89.47
   1.421  -24.99  -88.08   -0.04   -2.01   -0.07   -1.97  -25.21  -89.36
   1.432  -25.11  -88.38   -0.04   -2.09   -0.07   -2.04  -25.33  -89.24
   1.443  -25.24  -88.65   -0.04   -2.17   -0.07   -2.11  -25.46  -89.24
   1.454  -25.39  -88.87   -0.04   -2.22   -0.07   -2.17  -25.59  -89.32
   1.464  -25.54  -88.98   -0.04   -2.29   -0.07   -2.24  -25.72  -89.42
   1.475  -25.68  -89.03   -0.04   -2.38   -0.07   -2.30  -25.82  -89.58
   1.486  -25.80  -88.93   -0.04   -2.43   -0.07   -2.36  -25.93  -89.81
   1.497  -25.91  -88.77   -0.04   -2.49   -0.07   -2.42  -26.01  -90.07
   1.507  -26.00  -88.45   -0.04   -2.51   -0.07   -2.46  -26.08  -90.36
   1.518  -26.06  -88.23   -0.04   -2.59   -0.07   -2.52  -26.12  -90.67
   1.529  -26.11  -87.99   -0.04   -2.68   -0.07   -2.59  -26.16  -90.97
   1.540  -26.14  -87.73   -0.04   -2.72   -0.07   -2.65  -26.19  -91.15
   1.550  -26.16  -87.55   -0.04   -2.79   -0.07   -2.72  -26.23  -91.27
   1.561  -26.19  -87.41   -0.04   -2.87   -0.07   -2.78  -26.28  -91.32
   1.572  -26.22  -87.41   -0.04   -2.95   -0.07   -2.86  -26.35  -91.24
   1.583  -26.27  -87.46   -0.04   -3.00   -0.07   -2.93  -26.42  -91.14
   1.593  -26.33  -87.61   -0.04   -3.07   -0.07   -3.00  -26.51  -91.03
   1.604  -26.43  -87.87   -0.04   -3.16   -0.07   -3.07  -26.63  -90.94
   1.615  -26.54  -88.11   -0.04   -3.24   -0.07   -3.15  -26.75  -90.89
   1.626  -26.68  -88.29   -0.04   -3.29   -0.07   -3.23  -26.89  -90.86
   1.636  -26.81  -88.47   -0.04   -3.37   -0.07   -3.30  -27.02  -90.82
   1.647  -26.95  -88.63   -0.04   -3.45   -0.07   -3.37  -27.16  -90.84
   1.658  -27.07  -88.74   -0.04   -3.53   -0.07   -3.45  -27.29  -90.91
   1.669  -27.17  -88.79   -0.04   -3.59   -0.07   -3.52  -27.40  -91.05
   1.679  -27.26  -88.93   -0.04   -3.67   -0.07   -3.59  -27.50  -91.29
   1.690  -27.35  -88.99   -0.04   -3.75   -0.07   -3.65  -27.59  -91.54
   1.701  -27.42  -88.98   -0.04   -3.80   -0.07   -3.71  -27.68  -91.76
   1.712  -27.50  -88.81   -0.04   -3.85   -0.07   -3.76  -27.76  -91.91
   1.722  -27.55  -88.61   -0.04   -3.92   -0.07   -3.81  -27.82  -92.00
   1.733  -27.60  -88.33   -0.04   -3.96   -0.07   -3.86  -27.88  -92.03
   1.744  -27.63  -88.12   -0.04   -4.00   -0.07   -3.91  -27.91  -92.01
   1.755  -27.66  -87.97   -0.04   -4.05   -0.07   -3.96  -27.96  -91.97
   1.765  -27.70  -87.92   -0.04   -4.11   -0.07   -4.00  -28.00  -91.88
   1.776  -27.75  -88.01   -0.04   -4.13   -0.07   -4.05  -28.06  -91.89
   1.787  -27.83  -88.16   -0.04   -4.18   -0.07   -4.09  -28.14  -91.77
   1.798  -27.93  -88.36   -0.04   -4.25   -0.07   -4.14  -28.24  -91.64
   1.808  -28.05  -88.55   -0.04   -4.28   -0.07   -4.19  -28.36  -91.48
   1.819  -28.18  -88.74   -0.04   -4.31   -0.07   -4.25  -28.49  -91.29
   1.830  -28.31  -88.93   -0.04   -4.37   -0.07   -4.31  -28.62  -91.14
   1.841  -28.44  -89.05   -0.04   -4.45   -0.07   -4.38  -28.75  -91.08
   1.851  -28.57  -89.21   -0.04   -4.51   -0.07   -4.44  -28.86  -91.09
   1.862  -28.67  -89.36   -0.04   -4.58   -0.07   -4.52  -28.96  -91.27
   1.873  -28.78  -89.43   -0.04   -4.67   -0.07   -4.59  -29.07  -91.53
   1.884  -28.87  -89.40   -0.04   -4.73   -0.07   -4.64  -29.17  -91.82
   1.894  -28.97  -89.31   -0.04   -4.79   -0.07   -4.70  -29.26  -92.09
   1.905  -29.05  -89.03   -0.04   -4.86   -0.07   -4.75  -29.35  -92.32
   1.916  -29.12  -88.67   -0.04   -4.91   -0.07   -4.80  -29.43  -92.50
   1.927  -29.18  -88.25   -0.04   -4.93   -0.07   -4.85  -29.51  -92.60
   1.937  -29.23  -87.90   -0.04   -4.99   -0.07   -4.91  -29.57  -92.61
   1.948  -29.27  -87.57   -0.04   -5.03   -0.07   -4.98  -29.63  -92.58
   1.959  -29.31  -87.44   -0.04   -5.09   -0.07   -5.05  -29.68  -92.59
   1.970  -29.37  -87.44   -0.04   -5.16   -0.07   -5.11  -29.74  -92.58
   1.980  -29.44  -87.56   -0.04   -5.23   -0.07   -5.18  -29.84  -92.64
   1.991  -29.53  -87.86   -0.04   -5.31   -0.07   -5.24  -29.94  -92.63
   2.002  -29.63  -88.15   -0.04   -5.40   -0.07   -5.30  -30.05  -92.56
   2.013  -29.73  -88.55   -0.04   -5.46   -0.07   -5.36  -30.16  -92.47
   2.023  -29.85  -88.99   -0.04   -5.53   -0.07   -5.42  -30.26  -92.37
   2.034  -29.96  -89.42   -0.04   -5.60   -0.07   -5.47  -30.36  -92.16
   2.045  -30.08  -89.90   -0.04   -5.66   -0.07   -5.53  -30.44  -91.90
   2.056  -30.22  -90.21   -0.04   -5.71   -0.07   -5.59  -30.53  -91.88
   2.066  -30.34  -90.39   -0.04   -5.77   -0.07   -5.64  -30.62  -91.77
   2.077  -30.49  -90.35   -0.04   -5.82   -0.07   -5.69  -30.73  -91.71
   2.088  -30.63  -90.06   -0.04   -5.88   -0.08   -5.74  -30.84  -91.77
   2.099  -30.74  -89.46   -0.04   -5.92   -0.08   -5.79  -30.96  -91.76
   2.109  -30.83  -88.72   -0.04   -5.97   -0.08   -5.85  -31.07  -91.72
   2.120  -30.90  -88.01   -0.04   -6.02   -0.08   -5.90  -31.19  -91.80
   2.131  -30.94  -87.38   -0.04   -6.09   -0.08   -5.96  -31.29  -91.87
   2.142  -30.99  -86.96   -0.04   -6.14   -0.08   -6.01  -31.39  -91.99
   2.152  -31.01  -86.67   -0.05   -6.19   -0.08   -6.06  -31.49  -92.22
   2.163  -31.06  -86.57   -0.04   -6.23   -0.08   -6.11  -31.58  -92.52
   2.174  -31.11  -86.75   -0.05   -6.30   -0.08   -6.17  -31.68  -92.77
   2.185  -31.18  -87.07   -0.05   -6.35   -0.08   -6.23  -31.77  -93.01
   2.195  -31.24  -87.53   -0.04   -6.41   -0.08   -6.28  -31.86  -93.07
   2.206  -31.32  -88.10   -0.04   -6.46   -0.08   -6.34  -31.94  -93.05
   2.217  -31.41  -88.84   -0.05   -6.52   -0.08   -6.40  -32.00  -92.91
   2.228  -31.53  -89.46   -0.04   -6.57   -0.08   -6.45  -32.06  -92.71
   2.238  -31.66  -90.05   -0.05   -6.61   -0.08   -6.51  -32.13  -92.51
   2.249  -31.81  -90.38   -0.05   -6.67   -0.08   -6.56  -32.21  -92.27
   2.260  -31.97  -90.39   -0.05   -6.71   -0.08   -6.61  -32.30  -91.87
   2.271  -32.14  -90.19   -0.05   -6.77   -0.08   -6.66  -32.41  -91.59
   2.281  -32.28  -89.66   -0.05   -6.82   -0.08   -6.72  -32.54  -91.31
   2.292  -32.41  -88.84   -0.05   -6.87   -0.08   -6.77  -32.68  -91.05
   2.303  -32.51  -87.97   -0.05   -6.93   -0.08   -6.83  -32.83  -90.93
   2.314  -32.58  -87.02   -0.05   -6.98   -0.08   -6.88  -33.00  -90.82
   2.324  -32.64  -86.23   -0.05   -7.03   -0.08   -6.93  -33.16  -90.83
   2.335  -32.68  -85.72   -0.05   -7.08   -0.08   -6.99  -33.33  -90.97
   2.346  -32.72  -85.52   -0.05   -7.14   -0.08   -7.04  -33.45  -91.13
   2.357  -32.77  -85.57   -0.05   -7.19   -0.08   -7.10  -33.56  -91.38
   2.367  -32.82  -85.90   -0.05   -7.25   -0.08   -7.16  -33.64  -91.59
   2.378  -32.88  -86.34   -0.05   -7.30   -0.08   -7.21  -33.66  -91.78
   2.389  -32.95  -86.95   -0.05   -7.35   -0.08   -7.26  -33.68  -92.03
   2.400  -33.02  -87.73   -0.05   -7.41   -0.08   -7.32  -33.67  -92.11
   2.410  -33.11  -88.60   -0.05   -7.46   -0.08   -7.37  -33.66  -92.15
   2.421  -33.24  -89.24   -0.05   -7.52   -0.09   -7.42  -33.66  -92.20
   2.432  -33.36  -89.81   -0.05   -7.58   -0.09   -7.47  -33.68  -92.03
   2.443  -33.53  -90.10   -0.05   -7.63   -0.09   -7.52  -33.75  -91.70
   2.453  -33.70  -90.06   -0.05   -7.69   -0.09   -7.57  -33.86  -91.20
   2.464  -33.90  -89.58   -0.05   -7.75   -0.09   -7.62  -33.99  -90.46
   2.475  -34.09  -88.81   -0.05   -7.80   -0.09   -7.67  -34.15  -89.82
   2.486  -34.26  -87.80   -0.05   -7.85   -0.09   -7.72  -34.34  -89.21
   2.496  -34.42  -86.68   -0.05   -7.90   -0.09   -7.76  -34.56  -88.79
   2.507  -34.56  -85.57   -0.05   -7.94   -0.09   -7.81  -34.77  -88.47
   2.518  -34.67  -84.64   -0.05   -8.00   -0.09   -7.86  -34.96  -88.51
   2.529  -34.75  -83.88   -0.05   -8.04   -0.09   -7.91  -35.17  -89.14
   2.539  -34.83  -83.28   -0.05   -8.08   -0.09   -7.95  -35.33  -89.96
   2.550  -34.87  -82.90   -0.06   -8.11   -0.09   -7.99  -35.45  -90.85
   2.561  -34.85  -82.95   -0.06   -8.15   -0.09   -8.03  -35.52  -92.03
   2.572  -34.83  -83.36   -0.06   -8.19   -0.09   -8.06  -35.55  -93.17
   2.582  -34.81  -84.11   -0.05   -8.24   -0.09   -8.10  -35.54  -94.20
   2.593  -34.79  -85.14   -0.05   -8.28   -0.09   -8.14  -35.52  -94.93
   2.604  -34.79  -86.19   -0.06   -8.33   -0.09   -8.19  -35.53  -95.39
   2.615  -34.83  -87.30   -0.06   -8.37   -0.09   -8.24  -35.58  -95.52
   2.625  -34.91  -87.94   -0.05   -8.41   -0.09   -8.29  -35.68  -95.23
   2.636  -35.00  -88.65   -0.05   -8.46   -0.09   -8.35  -35.82  -94.38
   2.647  -35.15  -88.79   -0.05   -8.51   -0.09   -8.41  -36.01  -93.32
   2.658  -35.31  -88.76   -0.05   -8.58   -0.08   -8.47  -36.22  -91.95
   2.668  -35.50  -88.38   -0.05   -8.64   -0.08   -8.53  -36.45  -90.44
   2.679  -35.69  -87.91   -0.05   -8.69   -0.08   -8.59  -36.70  -89.08
   2.690  -35.90  -87.33   -0.05   -8.75   -0.08   -8.65  -36.98  -88.03
   2.701  -36.12  -86.94   -0.05   -8.80   -0.08   -8.70  -37.27  -87.47
   2.711  -36.34  -86.42   -0.05   -8.86   -0.08   -8.76  -37.60  -87.23
   2.722  -36.52  -86.17   -0.05   -8.91   -0.08   -8.82  -37.94  -87.46
   2.733  -36.66  -85.91   -0.05   -8.97   -0.08   -8.87  -38.24  -88.02
   2.744  -36.77  -86.21   -0.05   -9.01   -0.08   -8.92  -38.49  -88.81
   2.754  -36.84  -86.97   -0.05   -9.07   -0.08   -8.97  -38.62  -89.77
   2.765  -36.90  -87.80   -0.05   -9.11   -0.08   -9.01  -38.73  -90.67
   2.776  -36.93  -88.86   -0.05   -9.16   -0.08   -9.06  -38.75  -91.41
   2.787  -36.97  -89.79   -0.05   -9.21   -0.08   -9.11  -38.75  -91.47
   2.797  -37.00  -90.83   -0.05   -9.26   -0.08   -9.15  -38.70  -91.27
   2.808  -37.04  -91.76   -0.05   -9.31   -0.08   -9.20  -38.66  -90.21
   2.819  -37.12  -92.61   -0.05   -9.36   -0.08   -9.24  -38.66  -88.79
   2.830  -37.26  -93.04   -0.05   -9.41   -0.08   -9.29  -38.68  -87.02
   2.840  -37.42  -93.47   -0.05   -9.46   -0.08   -9.33  -38.72  -84.83
   2.851  -37.67  -93.66   -0.05   -9.51   -0.08   -9.38  -38.80  -82.73
   2.862  -37.99  -93.53   -0.05   -9.56   -0.08   -9.43  -38.99  -80.73
   2.873  -38.34  -93.21   -0.05   -9.61   -0.08   -9.47  -39.22  -78.92
   2.883  -38.74  -92.74   -0.05   -9.66   -0.09   -9.52  -39.55  -77.57
   2.894  -39.13  -91.86   -0.05   -9.71   -0.09   -9.56  -39.89  -76.47
   2.905  -39.46  -91.27   -0.05   -9.75   -0.09   -9.60  -40.27  -76.03
   2.916  -39.74  -91.05   -0.05   -9.80   -0.09   -9.64  -40.65  -76.24
   2.926  -39.93  -90.74   -0.05   -9.84   -0.09   -9.69  -40.99  -76.87
   2.937  -40.06  -90.96   -0.05   -9.88   -0.09   -9.73  -41.28  -78.11
   2.948  -40.07  -91.89   -0.05   -9.92   -0.09   -9.78  -41.45  -79.17
   2.959  -40.03  -93.51   -0.05   -9.96   -0.09   -9.82  -41.49  -80.11
   2.969  -39.97  -95.35   -0.05  -10.02   -0.08   -9.87  -41.37  -80.83
   2.980  -39.94  -97.18   -0.05  -10.06   -0.08   -9.92  -41.25  -81.08
   2.991  -39.95  -99.14   -0.05  -10.11   -0.08   -9.97  -40.98  -80.49
   3.002  -40.04 -101.26   -0.04  -10.19   -0.08  -10.04  -40.77  -80.10
   3.012  -40.25 -102.59   -0.04  -10.24   -0.08  -10.09  -40.52  -78.91
   3.023  -40.43 -103.47   -0.04  -10.30   -0.08  -10.15  -40.39  -76.86
   3.034  -40.76 -104.17   -0.04  -10.35   -0.08  -10.21  -40.25  -75.00
   3.045  -40.93  -80.53   -0.04  -10.40   -0.07  -10.27  -42.52  -82.83
   3.055  -41.45  -79.63   -0.04  -10.45   -0.07  -10.33  -42.75  -80.19
   3.066  -42.06  -77.57   -0.04  -10.50   -0.07  -10.38  -43.23  -78.26
   3.077  -42.67  -74.97   -0.04  -10.56   -0.07  -10.45  -43.88  -75.98
   3.088  -43.32  -72.15   -0.04  -10.62   -0.07  -10.50  -44.80  -74.85
   3.098  -43.91  -68.17   -0.04  -10.66   -0.07  -10.56  -45.84  -73.43
   3.109  -44.27  -64.49   -0.04  -10.71   -0.07  -10.62  -47.00  -72.83
   3.120  -44.55  -61.80   -0.04  -10.77   -0.07  -10.68  -48.16  -73.54
   3.131  -44.74  -59.45   -0.04  -10.83   -0.07  -10.73  -49.19  -75.21
   3.141  -44.67  -58.15   -0.04  -10.87   -0.07  -10.79  -49.96  -77.89
   3.152  -44.64  -57.96   -0.04  -10.92   -0.07  -10.85  -50.38  -81.46
   3.163  -44.57  -59.20   -0.04  -10.97   -0.07  -10.90  -50.38  -84.38
   3.174  -44.55  -59.83   -0.04  -11.02   -0.07  -10.96  -50.16  -84.99
   3.184  -44.66  -61.10   -0.04  -11.07   -0.07  -11.02  -49.69  -84.23
   3.195  -44.72  -62.35   -0.04  -11.11   -0.07  -11.06  -49.12  -82.65
   3.206  -45.02  -62.70   -0.04  -11.15   -0.07  -11.12  -48.84  -78.28
