!  American Technical Ceramics  Date:   10/27/06
!  One Norden Lane
!  Huntington Station,  NY.   11746-2102
!  Tel:  (631) 622-4700               Fax:  (631) 622-4748
!  Part Number  600S470         Mounting Orientation: Horizontal
!  Description: Ultra Low ESR Microwave capacitors
!  Application: Coupling, Bypass, Tuning, DC Block
!               Filters, Matching
# GHZ S DB R 50
! Freq   |S11|   S11 Ph  |S21|   S21 Ph  |S12|   S12 Ph  |S22|   S22 Ph
   0.000    0.00    0.00 -999.00   90.00 -999.00   90.00    0.00    0.00
   0.400  -21.59  -85.75   -0.05    3.44   -0.04    3.43  -21.61  -84.98
   0.423  -22.10  -86.02   -0.05    3.10   -0.03    3.08  -22.11  -84.45
   0.445  -22.58  -86.26   -0.04    2.78   -0.03    2.76  -22.47  -84.91
   0.468  -23.04  -86.59   -0.04    2.48   -0.03    2.47  -23.00  -85.80
   0.490  -23.51  -86.81   -0.04    2.20   -0.03    2.19  -23.55  -85.33
   0.513  -23.94  -87.00   -0.04    1.94   -0.02    1.92  -23.87  -84.94
   0.535  -24.35  -87.28   -0.03    1.70   -0.02    1.68  -24.24  -86.00
   0.558  -24.77  -87.57   -0.03    1.46   -0.02    1.44  -24.80  -86.27
   0.580  -25.17  -87.69   -0.03    1.24   -0.02    1.22  -25.18  -85.43
   0.603  -25.53  -87.89   -0.03    1.03   -0.02    1.01  -25.42  -85.87
   0.625  -25.91  -88.17   -0.03    0.83   -0.02    0.81  -25.87  -86.87
   0.648  -26.30  -88.33   -0.03    0.63   -0.02    0.61  -26.34  -86.25
   0.670  -26.65  -88.45   -0.03    0.45   -0.01    0.42  -26.55  -85.72
   0.693  -27.00  -88.73   -0.03    0.27   -0.01    0.24  -26.85  -86.80
   0.715  -27.37  -88.99   -0.03    0.09   -0.01    0.06  -27.38  -87.00
   0.738  -27.71  -88.95   -0.03   -0.08   -0.01   -0.12  -27.70  -85.85
   0.760  -28.02  -89.14   -0.02   -0.25   -0.01   -0.28  -27.88  -86.34
   0.783  -28.36  -89.41   -0.02   -0.41   -0.01   -0.44  -28.32  -87.52
   0.805  -28.70  -89.46   -0.02   -0.56   -0.01   -0.60  -28.79  -86.61
   0.828  -29.02  -89.52   -0.02   -0.72   -0.01   -0.74  -28.93  -85.95
   0.850  -29.34  -89.84   -0.02   -0.87   -0.01   -0.90  -29.19  -87.31
   0.873  -29.71  -90.07   -0.02   -1.02   -0.01   -1.04  -29.72  -87.43
   0.895  -30.04  -90.02   -0.02   -1.16   -0.01   -1.19  -30.01  -85.83
   0.918  -30.32  -90.19   -0.02   -1.29   -0.01   -1.33  -30.11  -86.38
   0.940  -30.65  -90.64   -0.02   -1.44   -0.01   -1.47  -30.58  -87.69
   0.963  -31.01  -90.60   -0.02   -1.57   -0.01   -1.60  -31.07  -86.38
   0.985  -31.29  -90.51   -0.02   -1.70   -0.01   -1.74  -31.15  -85.54
   1.008  -31.58  -90.97   -0.02   -1.84   -0.01   -1.87  -31.38  -87.35
   1.030  -31.95  -91.41   -0.02   -1.97   -0.01   -1.99  -31.99  -87.39
   1.053  -32.32  -91.24   -0.02   -2.09   -0.01   -2.13  -32.26  -85.31
   1.075  -32.60  -91.26   -0.02   -2.22   -0.01   -2.25  -32.29  -85.99
   1.098  -32.91  -91.75   -0.02   -2.34   -0.01   -2.38  -32.79  -87.59
   1.120  -33.27  -91.92   -0.02   -2.46   -0.01   -2.50  -33.34  -85.64
   1.143  -33.60  -91.96   -0.02   -2.59   -0.01   -2.62  -33.34  -84.52
   1.165  -33.94  -92.26   -0.02   -2.71   -0.01   -2.74  -33.58  -86.71
   1.188  -34.32  -92.40   -0.02   -2.83   -0.01   -2.86  -34.31  -86.71
   1.210  -34.67  -92.40   -0.02   -2.95   -0.01   -2.98  -34.54  -83.81
   1.233  -35.03  -92.67   -0.02   -3.06   -0.01   -3.10  -34.52  -84.88
   1.255  -35.40  -92.90   -0.02   -3.18   -0.01   -3.22  -35.13  -86.92
   1.278  -35.78  -92.98   -0.02   -3.29   -0.01   -3.33  -35.77  -84.20
   1.300  -36.11  -93.21   -0.02   -3.41   -0.01   -3.44  -35.66  -82.54
   1.323  -36.51  -93.65   -0.02   -3.52   -0.01   -3.56  -35.94  -85.65
   1.345  -36.95  -93.78   -0.02   -3.63   -0.01   -3.67  -36.82  -84.95
   1.368  -37.35  -93.75   -0.02   -3.74   -0.01   -3.78  -37.03  -81.06
   1.390  -37.79  -94.15   -0.02   -3.85   -0.01   -3.89  -36.96  -82.57
   1.413  -38.30  -94.24   -0.02   -3.97   -0.01   -4.01  -37.76  -84.62
   1.435  -38.72  -94.00   -0.02   -4.08   -0.01   -4.12  -38.47  -80.04
   1.458  -39.11  -94.58   -0.02   -4.20   -0.01   -4.23  -38.17  -78.27
   1.480  -39.68  -95.45   -0.02   -4.31   -0.01   -4.35  -38.50  -82.02
   1.503  -40.31  -94.64   -0.02   -4.41   -0.01   -4.45  -39.51  -80.79
   1.525  -40.71  -94.12   -0.02   -4.51   -0.01   -4.56  -39.53  -76.52
   1.548  -41.23  -95.14   -0.02   -4.61   -0.01   -4.66  -39.44  -80.10
   1.570  -42.10  -95.26   -0.02   -4.73   -0.01   -4.77  -40.72  -82.64
   1.593  -42.78  -92.98   -0.02   -4.83   -0.01   -4.88  -41.62  -75.65
   1.615  -43.15  -92.56   -0.02   -4.94   -0.01   -4.98  -41.21  -73.69
   1.638  -43.76  -93.73   -0.02   -5.04   -0.01   -5.08  -41.91  -79.09
   1.660  -44.64  -93.54   -0.02   -5.15   -0.01   -5.19  -43.68  -74.91
   1.683  -45.25  -91.55   -0.02   -5.25   -0.01   -5.30  -43.50  -66.52
   1.705  -45.65  -92.08   -0.02   -5.36   -0.01   -5.41  -43.35  -70.87
   1.728  -46.35  -94.67   -0.02   -5.47   -0.01   -5.51  -45.21  -72.29
   1.750  -47.42  -97.24   -0.03   -5.57   -0.01   -5.61  -46.01  -59.22
   1.773  -48.69  -99.63   -0.03   -5.67   -0.01   -5.72  -45.20  -59.43
   1.795  -50.44 -103.41   -0.03   -5.78   -0.02   -5.81  -46.92  -65.90
   1.818  -52.78 -103.04   -0.03   -5.88   -0.01   -5.92  -49.46  -49.32
   1.840  -54.66 -100.56   -0.03   -5.98   -0.01   -6.02  -47.93  -37.50
   1.863  -57.21 -105.44   -0.03   -6.08   -0.02   -6.12  -48.50  -44.35
   1.885  -61.85 -115.62   -0.03   -6.18   -0.01   -6.23  -51.68  -30.54
   1.908  -71.69 -135.89   -0.03   -6.29   -0.01   -6.34  -49.62   -7.64
   1.930  -69.58  110.88   -0.03   -6.40   -0.01   -6.44  -48.67  -14.67
   1.953  -61.42   96.28   -0.03   -6.50   -0.01   -6.54  -51.34   -8.40
   1.975  -57.00   89.35   -0.03   -6.61   -0.01   -6.65  -49.63   18.24
   1.998  -54.37   87.14   -0.03   -6.72   -0.01   -6.76  -47.64   13.68
   2.020  -52.16   85.05   -0.03   -6.83   -0.02   -6.87  -49.10   14.90
   2.043  -50.34   82.83   -0.03   -6.94   -0.02   -6.98  -48.30   36.99
   2.065  -49.34   81.35   -0.03   -7.04   -0.02   -7.09  -45.86   36.41
   2.088  -48.11   83.17   -0.03   -7.15   -0.02   -7.20  -46.21   32.41
   2.110  -46.69   83.14   -0.03   -7.26   -0.02   -7.31  -46.34   46.56
   2.133  -45.66   81.32   -0.03   -7.37   -0.02   -7.42  -43.86   50.65
   2.155  -44.98   81.65   -0.03   -7.48   -0.02   -7.53  -43.22   43.55
   2.178  -44.02   83.31   -0.03   -7.59   -0.02   -7.64  -43.84   48.64
   2.200  -42.92   82.21   -0.03   -7.71   -0.02   -7.75  -42.33   57.30
   2.223  -42.15   80.26   -0.03   -7.82   -0.02   -7.87  -41.00   53.77
   2.245  -41.58   80.24   -0.03   -7.94   -0.02   -7.99  -41.20   51.17
   2.268  -40.73   80.64   -0.03   -8.06   -0.02   -8.10  -40.90   59.11
   2.290  -39.92   79.99   -0.03   -8.18   -0.02   -8.22  -39.37   60.69
   2.313  -39.26   79.24   -0.03   -8.30   -0.02   -8.34  -38.88   56.88
   2.335  -38.52   78.87   -0.04   -8.44   -0.03   -8.48  -38.89   60.33
   2.358  -37.75   77.74   -0.04   -8.57   -0.03   -8.62  -37.67   64.53
   2.380  -37.11   76.57   -0.04   -8.71   -0.03   -8.76  -36.60   61.28
   2.403  -36.43   75.60   -0.04   -8.86   -0.03   -8.91  -36.44   60.10
   2.425  -35.63   74.25   -0.05   -9.02   -0.04   -9.06  -35.76   64.01
   2.448  -34.87   72.41   -0.05   -9.18   -0.04   -9.22  -34.46   63.38
   2.470  -34.13   70.91   -0.06   -9.35   -0.05   -9.40  -33.87   60.52
   2.493  -33.27   69.51   -0.07   -9.54   -0.06   -9.59  -33.31   61.71
   2.515  -32.30   67.05   -0.08   -9.77   -0.07   -9.81  -32.04   62.39
   2.538  -31.34   64.03   -0.10  -10.00   -0.08  -10.04  -30.84   59.23
   2.560  -30.21   60.45   -0.12  -10.27   -0.11  -10.32  -29.85   56.59
   2.583  -28.87   55.39   -0.16  -10.58   -0.15  -10.63  -28.44   54.13
   2.605  -27.40   47.68   -0.23  -10.88   -0.22  -10.93  -26.73   47.64
   2.628  -25.83   36.29   -0.34  -11.07   -0.33  -11.12  -25.14   37.06
   2.650  -24.45   19.11   -0.50  -10.75   -0.49  -10.80  -23.77   21.87
   2.673  -23.99   -4.21   -0.61   -9.47   -0.60   -9.52  -23.21    1.10
   2.695  -25.10  -28.23   -0.53   -8.09   -0.52   -8.13  -24.09  -20.34
   2.718  -27.26  -46.49   -0.37   -7.64   -0.36   -7.69  -26.02  -36.53
   2.740  -29.70  -58.55   -0.25   -7.77   -0.24   -7.82  -28.36  -45.92
   2.763  -32.05  -66.52   -0.18   -8.05   -0.17   -8.10  -30.44  -49.17
   2.785  -34.27  -72.40   -0.14   -8.35   -0.13   -8.40  -32.06  -51.33
   2.808  -36.50  -76.72   -0.11   -8.60   -0.10   -8.66  -33.85  -53.28
   2.830  -38.64  -79.86   -0.09   -8.84   -0.08   -8.89  -35.71  -50.31
   2.853  -40.79  -83.30   -0.08   -9.05   -0.07   -9.10  -36.69  -45.59
   2.875  -43.13  -87.96   -0.07   -9.24   -0.06   -9.29  -37.66  -45.19
   2.898  -45.89  -92.86   -0.07   -9.42   -0.06   -9.47  -39.34  -41.29
   2.920  -48.79  -97.42   -0.06   -9.58   -0.05   -9.64  -39.90  -31.88
   2.943  -51.74 -108.29   -0.06   -9.73   -0.05   -9.79  -39.89  -29.87
   2.965  -55.66 -129.70   -0.06   -9.87   -0.05   -9.93  -41.01  -28.83
   2.988  -58.64 -174.16   -0.05  -10.01   -0.04  -10.07  -41.68  -18.55
   3.010  -56.67  147.16   -0.05  -10.15   -0.04  -10.20  -41.05  -14.34
   3.033  -52.46   45.39   -0.05  -10.27   -0.04  -10.32  -44.36   -7.48
   3.055  -49.92   55.16   -0.05  -10.40   -0.04  -10.45  -45.90    7.12
   3.078  -48.42   59.88   -0.05  -10.51   -0.04  -10.57  -44.52   19.79
   3.100  -47.10   64.14   -0.05  -10.64   -0.04  -10.69  -44.21   19.10
   3.123  -45.63   66.41   -0.05  -10.75   -0.04  -10.81  -45.14   27.87
   3.145  -44.87   64.09   -0.05  -10.87   -0.04  -10.92  -43.73   40.52
   3.168  -44.37   64.68   -0.05  -10.98   -0.04  -11.04  -42.53   38.13
   3.190  -43.64   68.03   -0.05  -11.09   -0.04  -11.15  -42.94   39.17
   3.213  -42.62   68.37   -0.05  -11.20   -0.04  -11.26  -42.23   49.66
   3.235  -42.20   67.56   -0.05  -11.31   -0.04  -11.36  -40.66   48.48
   3.258  -41.93   68.84   -0.05  -11.42   -0.04  -11.48  -40.56   44.89
   3.280  -41.43   71.55   -0.05  -11.51   -0.04  -11.58  -40.94   50.07
   3.303  -40.92   72.76   -0.04  -11.64   -0.04  -11.69  -39.85   54.57
   3.325  -40.39   73.91   -0.04  -11.74   -0.04  -11.81  -39.29   52.06
   3.348  -39.79   74.78   -0.04  -11.86   -0.04  -11.93  -39.68   52.28
   3.370  -39.21   73.99   -0.04  -11.98   -0.04  -12.04  -39.26   57.98
   3.393  -38.82   73.24   -0.04  -12.09   -0.04  -12.15  -38.42   56.16
   3.415  -38.42   73.92   -0.04  -12.20   -0.04  -12.27  -38.58   54.39
   3.438  -37.87   73.75   -0.04  -12.32   -0.04  -12.38  -38.57   59.65
   3.460  -37.43   72.74   -0.05  -12.44   -0.04  -12.50  -37.55   61.83
   3.483  -37.14   72.10   -0.05  -12.56   -0.04  -12.62  -37.16   58.77
   3.505  -36.84   72.73   -0.05  -12.67   -0.04  -12.74  -37.44   60.65
   3.528  -36.41   72.41   -0.05  -12.79   -0.04  -12.85  -36.89   65.09
   3.550  -36.07   72.01   -0.05  -12.88   -0.04  -12.96  -36.16   63.20
   3.573  -35.74   71.59   -0.06  -13.01   -0.05  -13.07  -36.28   61.37
   3.595  -35.38   71.26   -0.06  -13.11   -0.05  -13.18  -36.19   65.15
   3.618  -35.07   70.69   -0.06  -13.22   -0.05  -13.29  -35.38   65.92
   3.640  -34.76   70.56   -0.06  -13.33   -0.05  -13.40  -35.04   63.36
   3.663  -34.35   69.85   -0.06  -13.44   -0.05  -13.52  -35.10   64.54
   3.685  -34.03   68.86   -0.06  -13.56   -0.05  -13.63  -34.53   67.14
   3.708  -33.82   68.51   -0.06  -13.67   -0.05  -13.75  -34.02   65.42
   3.730  -33.48   68.87   -0.06  -13.80   -0.05  -13.87  -34.09   64.87
   3.753  -33.06   68.29   -0.06  -13.93   -0.06  -13.99  -33.90   67.74
   3.775  -32.77   67.39   -0.07  -14.05   -0.06  -14.12  -33.25   67.66
   3.798  -32.51   66.87   -0.07  -14.17   -0.06  -14.24  -33.11   65.63
   3.820  -32.13   66.42   -0.07  -14.29   -0.06  -14.36  -33.09   67.51
   3.843  -31.74   65.49   -0.07  -14.42   -0.07  -14.49  -32.47   69.99
   3.865  -31.43   64.46   -0.08  -14.54   -0.07  -14.62  -31.86   68.40
   3.888  -31.12   64.05   -0.08  -14.68   -0.07  -14.75  -31.70   67.98
   3.910  -30.73   63.21   -0.08  -14.81   -0.07  -14.89  -31.27   69.72
   3.933  -30.43   62.30   -0.09  -14.96   -0.08  -15.03  -30.59   69.13
   3.955  -30.14   62.00   -0.09  -15.10   -0.08  -15.18  -30.31   67.27
   3.978  -29.71   61.44   -0.09  -15.26   -0.08  -15.32  -30.09   67.96
   4.000  -29.29   59.95   -0.10  -15.42   -0.09  -15.49  -29.48   68.45
   4.023  -28.97   58.59   -0.10  -15.58   -0.10  -15.65  -28.91   66.66
   4.045  -28.61   57.84   -0.11  -15.75   -0.10  -15.82  -28.64   65.38
   4.068  -28.13   56.93   -0.12  -15.93   -0.11  -16.01  -28.16   66.00
   4.090  -27.68   55.71   -0.13  -16.13   -0.12  -16.21  -27.47   64.59
   4.113  -27.22   54.39   -0.14  -16.33   -0.13  -16.40  -27.03   62.36
   4.135  -26.74   53.18   -0.15  -16.54   -0.15  -16.61  -26.68   61.65
   4.158  -26.21   51.55   -0.17  -16.76   -0.16  -16.84  -26.04   60.96
   4.180  -25.69   49.71   -0.19  -16.99   -0.18  -17.06  -25.40   58.34
   4.203  -25.12   47.69   -0.22  -17.24   -0.21  -17.31  -24.95   56.09
   4.225  -24.48   45.19   -0.25  -17.49   -0.24  -17.57  -24.35   54.65
   4.248  -23.84   42.33   -0.29  -17.76   -0.28  -17.84  -23.59   51.98
   4.270  -23.16   39.09   -0.34  -18.02   -0.33  -18.10  -22.92   48.23
   4.293  -22.42   35.22   -0.41  -18.28   -0.40  -18.36  -22.29   44.81
   4.315  -21.69   30.39   -0.49  -18.49   -0.48  -18.56  -21.51   40.77
   4.338  -20.96   24.70   -0.59  -18.60   -0.58  -18.67  -20.71   34.98
   4.360  -20.25   17.93   -0.71  -18.54   -0.71  -18.62  -20.06   28.08
   4.383  -19.61    9.67   -0.85  -18.20   -0.84  -18.29  -19.47   20.46
   4.405  -19.16    0.07   -0.98  -17.47   -0.97  -17.54  -18.96   11.37
   4.428  -18.95  -10.49   -1.06  -16.36   -1.06  -16.44  -18.72    0.77
   4.450  -19.05  -21.32   -1.07  -15.06   -1.07  -15.14  -18.85  -10.07
   4.473  -19.44  -31.88   -1.00  -13.90   -0.99  -13.97  -19.28  -20.09
   4.495  -20.11  -41.55   -0.88  -13.09   -0.87  -13.17  -19.89  -29.29
   4.518  -20.97  -49.83   -0.74  -12.67   -0.74  -12.76  -20.71  -37.76
   4.540  -21.91  -56.66   -0.62  -12.57   -0.61  -12.64  -21.72  -44.67
   4.563  -22.87  -62.44   -0.51  -12.64   -0.51  -12.73  -22.72  -49.60
   4.585  -23.85  -67.34   -0.43  -12.83   -0.42  -12.92  -23.61  -54.10
   4.608  -24.83  -71.20   -0.36  -13.06   -0.36  -13.16  -24.58  -58.53
   4.630  -25.77  -74.16   -0.31  -13.34   -0.30  -13.41  -25.66  -61.28
   4.653  -26.64  -76.89   -0.27  -13.59   -0.26  -13.67  -26.51  -62.73
   4.675  -27.55  -79.18   -0.24  -13.83   -0.23  -13.92  -27.28  -65.32
   4.698  -28.44  -80.74   -0.21  -14.06   -0.21  -14.15  -28.26  -67.46
   4.720  -29.24  -82.06   -0.19  -14.29   -0.18  -14.37  -29.19  -67.38
   4.743  -30.05  -83.52   -0.17  -14.50   -0.17  -14.59  -29.75  -68.08
   4.765  -30.86  -84.47   -0.16  -14.71   -0.15  -14.79  -30.53  -70.71
   4.788  -31.59  -84.84   -0.14  -14.90   -0.14  -14.98  -31.57  -71.03
   4.810  -32.29  -85.66   -0.13  -15.09   -0.13  -15.18  -32.18  -69.56
   4.833  -33.05  -86.19   -0.12  -15.27   -0.12  -15.36  -32.64  -71.32
   4.855  -33.79  -85.95   -0.11  -15.45   -0.11  -15.53  -33.67  -73.15
   4.878  -34.46  -86.07   -0.11  -15.61   -0.10  -15.70  -34.61  -70.67
   4.900  -35.20  -86.37   -0.10  -15.77   -0.10  -15.86  -34.96  -69.68
   4.923  -35.94  -85.86   -0.10  -15.92   -0.09  -16.02  -35.69  -72.55
   4.945  -36.56  -85.52   -0.10  -16.08   -0.09  -16.17  -36.99  -71.72
   4.968  -37.29  -85.95   -0.09  -16.22   -0.09  -16.32  -37.54  -67.98
   4.990  -38.16  -84.91   -0.09  -16.37   -0.08  -16.45  -37.94  -69.84
   5.013  -38.85  -82.85   -0.08  -16.50   -0.08  -16.59  -39.24  -71.01
   5.035  -39.45  -82.45   -0.08  -16.63   -0.08  -16.73  -40.22  -65.20
   5.058  -40.38  -81.99   -0.08  -16.76   -0.08  -16.86  -40.31  -63.42
   5.080  -41.27  -79.56   -0.08  -16.89   -0.08  -16.99  -41.37  -67.03
   5.103  -41.85  -76.31   -0.08  -17.02   -0.07  -17.11  -43.32  -61.64
   5.125  -42.61  -75.50   -0.08  -17.14   -0.07  -17.23  -43.48  -52.57
   5.148  -43.67  -73.55   -0.08  -17.26   -0.07  -17.36  -43.95  -56.72
   5.170  -44.48  -68.40   -0.08  -17.38   -0.07  -17.48  -46.46  -55.20
   5.193  -45.25  -65.16   -0.07  -17.49   -0.07  -17.60  -47.34  -37.73
   5.215  -46.32  -60.71   -0.07  -17.62   -0.07  -17.71  -46.65  -36.75
   5.238  -47.16  -52.56   -0.07  -17.72   -0.07  -17.82  -48.88  -38.88
   5.260  -47.50  -47.36   -0.07  -17.84   -0.07  -17.93  -50.65  -12.09
   5.283  -48.52  -40.05   -0.07  -17.95   -0.07  -18.05  -48.65   -1.93
   5.305  -49.01  -28.58   -0.07  -18.06   -0.07  -18.16  -49.70   -2.20
   5.328  -48.71  -19.71   -0.07  -18.17   -0.07  -18.27  -50.60   23.01
   5.350  -48.76  -13.27   -0.07  -18.28   -0.07  -18.38  -47.78   32.75
   5.373  -48.80   -2.60   -0.07  -18.38   -0.07  -18.47  -47.62   28.61
   5.395  -48.01    6.94   -0.07  -18.48   -0.07  -18.58  -48.43   43.26
   5.418  -47.34   12.40   -0.08  -18.59   -0.07  -18.68  -45.82   53.77
   5.440  -46.75   18.04   -0.07  -18.69   -0.07  -18.79  -44.55   47.80
   5.463  -46.06   22.79   -0.07  -18.79   -0.07  -18.88  -45.25   50.11
   5.485  -45.27   25.93   -0.07  -18.89   -0.07  -18.98  -43.95   61.51
   5.508  -44.87   29.64   -0.08  -18.98   -0.07  -19.08  -42.22   59.51
   5.530  -44.03   34.21   -0.08  -19.08   -0.07  -19.18  -42.24   56.76
   5.553  -43.11   34.91   -0.07  -19.18   -0.07  -19.28  -42.04   63.81
   5.575  -42.82   35.60   -0.08  -19.28   -0.07  -19.38  -40.63   65.79
   5.598  -42.36   39.30   -0.07  -19.38   -0.07  -19.48  -40.14   61.57
   5.620  -41.50   41.54   -0.08  -19.47   -0.07  -19.58  -40.26   63.48
   5.643  -40.80   40.68   -0.07  -19.58   -0.07  -19.68  -39.27   67.37
   5.665  -40.54   40.80   -0.07  -19.67   -0.07  -19.77  -38.35   63.69
   5.688  -40.08   42.16   -0.07  -19.77   -0.07  -19.87  -38.46   61.24
   5.710  -39.52   42.59   -0.07  -19.86   -0.07  -19.97  -38.20   65.54
   5.733  -39.12   42.62   -0.08  -19.96   -0.07  -20.07  -37.13   65.71
   5.755  -38.71   43.35   -0.07  -20.06   -0.07  -20.17  -36.81   61.77
   5.778  -38.20   43.49   -0.07  -20.16   -0.07  -20.27  -37.02   62.62
   5.800  -37.90   43.08   -0.08  -20.26   -0.07  -20.36  -36.38   65.24
   5.823  -37.63   43.59   -0.07  -20.36   -0.07  -20.46  -35.70   62.32
   5.845  -37.19   43.98   -0.07  -20.46   -0.07  -20.57  -35.86   59.68
   5.868  -36.79   43.56   -0.07  -20.57   -0.07  -20.67  -35.75   62.56
   5.890  -36.52   43.36   -0.07  -20.66   -0.07  -20.77  -34.95   62.48
   5.913  -36.16   43.94   -0.07  -20.77   -0.07  -20.88  -34.71   59.51
   5.935  -35.68   43.82   -0.07  -20.88   -0.07  -20.99  -34.77   60.31
   5.958  -35.38   43.14   -0.07  -20.99   -0.07  -21.10  -34.28   62.03
   5.980  -35.07   42.95   -0.07  -21.11   -0.07  -21.20  -33.75   59.32
   6.003  -34.72   42.73   -0.08  -21.21   -0.08  -21.31  -33.83   57.41
   6.025  -34.41   42.05   -0.08  -21.33   -0.08  -21.43  -33.72   59.46
   6.048  -34.11   41.55   -0.08  -21.44   -0.08  -21.54  -33.07   59.19
   6.070  -33.77   41.25   -0.08  -21.55   -0.08  -21.65  -32.86   56.28
   6.093  -33.40   40.20   -0.08  -21.67   -0.08  -21.77  -32.89   56.44
   6.115  -33.13   39.19   -0.09  -21.79   -0.09  -21.90  -32.40   57.78
   6.138  -32.84   38.86   -0.09  -21.91   -0.09  -22.01  -31.90   55.33
   6.160  -32.40   38.16   -0.10  -22.02   -0.09  -22.13  -31.87   53.49
   6.183  -32.06   36.56   -0.10  -22.14   -0.10  -22.25  -31.66   54.27
   6.205  -31.83   35.02   -0.11  -22.25   -0.11  -22.36  -31.10   53.20
   6.228  -31.49   33.86   -0.12  -22.37   -0.12  -22.48  -30.85   50.11
   6.250  -31.11   31.72   -0.13  -22.48   -0.13  -22.58  -30.82   49.00
   6.273  -30.84   29.30   -0.14  -22.58   -0.14  -22.68  -30.37   48.60
