!  American Technical Ceramics  Date:   10/26/00
!  One Norden Lane
!  Huntington Station,  NY.   11746-2102
!  Tel:  (631) 622-4700               Fax:  (631) 622-4748
!  Part Number  600S0R9AW      Mounting Orientation: Horizontal
!  Description: Ultra Low ESR Microwave capacitors
!  Application: Coupling, Bypass, Tuning, DC Block
!               Filters, Matching
# GHZ S DB R 50
! Freq   |S11|   S11 Ph  |S21|   S21 Ph  |S12|   S12 Ph  |S22|   S22 Ph
   0.000   0.00    0.00	  -999.00  90.00  -999.00  90.00    0.00    0.00
   0.400   -0.25  -14.15  -13.14   75.54  -13.16   75.44   -0.24  -13.74
   0.482   -0.35  -17.19  -11.62   72.24  -11.65   72.09   -0.42  -16.21
   0.563   -0.43  -19.63  -10.35   69.58  -10.40   69.31   -0.56  -19.24
   0.645   -0.57  -21.90   -9.29   67.15   -9.33   66.77   -0.62  -21.97
   0.726   -0.80  -24.41   -8.45   64.69   -8.44   64.30   -0.75  -24.29
   0.808   -0.85  -27.25   -7.63   61.81   -7.65   61.75   -0.91  -26.83
   0.889   -1.12  -29.38   -6.97   59.77   -6.94   59.40   -1.01  -29.18
   0.971   -1.21  -32.34   -6.37   56.91   -6.38   57.31   -1.31  -31.00
   1.052   -1.42  -34.15   -5.83   54.82   -5.85   54.83   -1.46  -33.78
   1.134   -1.58  -36.13   -5.34   52.75   -5.37   52.89   -1.63  -35.80
   1.215   -1.89  -38.32   -4.99   50.74   -4.97   50.58   -1.83  -37.81
   1.297   -2.02  -40.70   -4.57   48.32   -4.59   48.33   -2.05  -40.12
   1.378   -2.23  -42.48   -4.23   46.56   -4.20   46.56   -2.19  -41.69
   1.460   -2.44  -44.50   -3.96   44.47   -3.94   44.75   -2.49  -43.41
   1.541   -2.64  -46.15   -3.64   42.44   -3.66   42.53   -2.69  -45.92
   1.623   -2.84  -47.79   -3.37   40.84   -3.38   40.97   -2.87  -47.32
   1.704   -3.12  -49.22   -3.17   39.27   -3.19   39.19   -3.10  -49.05
   1.786   -3.31  -51.32   -2.98   37.29   -2.97   37.42   -3.33  -50.64
   1.867   -3.52  -52.60   -2.76   35.88   -2.76   35.93   -3.51  -52.20
   1.949   -3.75  -54.07   -2.62   34.21   -2.63   34.50   -3.80  -53.68
   2.030   -4.00  -55.68   -2.45   32.70   -2.45   32.65   -3.97  -55.37
   2.112   -4.19  -56.98   -2.30   31.21   -2.31   31.41   -4.21  -56.73
   2.193   -4.45  -58.31   -2.19   29.91   -2.19   29.95   -4.43  -58.05
   2.275   -4.65  -59.73   -2.06   28.40   -2.06   28.47   -4.65  -59.51
   2.356   -4.84  -60.95   -1.93   27.07   -1.94   27.29   -4.88  -60.66
   2.438   -5.10  -61.91   -1.83   25.88   -1.85   25.96   -5.08  -61.96
   2.519   -5.31  -63.13   -1.75   24.63   -1.77   24.73   -5.30  -63.15
   2.601   -5.54  -64.29   -1.68   23.53   -1.67   23.51   -5.51  -64.02
   2.682   -5.75  -65.18   -1.60   22.19   -1.61   22.37   -5.74  -65.36
   2.764   -5.94  -66.36   -1.52   21.12   -1.52   21.13   -5.93  -66.31
   2.845   -6.16  -67.12   -1.46   20.04   -1.47   20.17   -6.14  -67.32
   2.927   -6.33  -68.18   -1.40   18.98   -1.39   19.07   -6.33  -68.30
   3.008   -6.59  -68.72   -1.31   17.80   -1.33   17.87   -6.53  -70.14
   3.090   -6.77  -69.87   -1.28   16.94   -1.26   16.95   -6.73  -70.81
   3.171   -6.95  -70.61   -1.23   15.94   -1.23   16.10   -6.90  -71.78
   3.253   -7.13  -71.83   -1.16   15.11   -1.17   15.04   -7.06  -72.61
   3.334   -7.32  -72.62   -1.13   14.22   -1.13   14.25   -7.27  -73.27
   3.416   -7.50  -73.44   -1.10   13.31   -1.08   13.42   -7.43  -74.14
   3.497   -7.69  -74.44   -1.03   12.48   -1.05   12.53   -7.55  -74.92
   3.579   -7.83  -75.32   -1.00   11.82   -0.99   11.72   -7.76  -75.59
   3.660   -8.04  -76.10   -0.98   10.79   -0.99   10.91   -7.93  -76.65
   3.742   -8.19  -77.11   -0.92   10.06   -0.92   10.01   -8.09  -77.22
   3.823   -8.37  -77.61   -0.90    9.39   -0.90    9.34   -8.28  -77.82
   3.905   -8.56  -78.25   -0.89    8.57   -0.88    8.58   -8.46  -78.74
   3.986   -8.66  -79.16   -0.85    7.74   -0.86    7.75   -8.54  -79.28
   4.068   -8.86  -79.72   -0.82    7.20   -0.82    7.12   -8.79  -79.85
   4.149   -9.05  -80.32   -0.81    6.32   -0.81    6.34   -8.94  -80.69
   4.231   -9.19  -81.24   -0.75    5.64   -0.77    5.59   -9.07  -81.18
   4.312   -9.35  -81.61   -0.75    5.14   -0.74    5.12   -9.24  -81.62
   4.394   -9.51  -82.11   -0.74    4.38   -0.74    4.31   -9.40  -82.22
   4.475   -9.69  -82.93   -0.71    3.59   -0.72    3.62   -9.52  -83.10
   4.557   -9.82  -83.58   -0.68    3.11   -0.69    3.04   -9.71  -83.50
   4.638  -10.01  -84.12   -0.69    2.32   -0.69    2.26   -9.85  -84.62
   4.720  -10.15  -84.80   -0.63    1.63   -0.63    1.57   -9.97  -85.05
   4.801  -10.32  -85.26   -0.62    1.18   -0.63    1.18  -10.14  -85.49
   4.883  -10.46  -85.71   -0.63    0.59   -0.63    0.41  -10.36  -86.15
   4.964  -10.66  -86.06   -0.62   -0.22   -0.60   -0.18  -10.42  -87.00
   5.046  -10.78  -86.91   -0.58   -0.68   -0.60   -0.76  -10.63  -86.96
   5.127  -10.95  -86.98   -0.60   -1.36   -0.58   -1.46  -10.77  -88.20
   5.209  -11.10  -87.49   -0.55   -1.99   -0.55   -2.00  -10.87  -88.40
   5.290  -11.29  -87.99   -0.54   -2.41   -0.56   -2.36  -11.03  -88.41
   5.372  -11.39  -87.93   -0.54   -3.00   -0.54   -3.18  -11.23  -89.44
   5.453  -11.60  -88.41   -0.53   -3.78   -0.52   -3.72  -11.25  -89.89
   5.535  -11.65  -89.30   -0.51   -4.29   -0.54   -4.35  -11.45  -90.42
   5.616  -11.81  -89.43   -0.51   -4.81   -0.51   -4.96  -11.63  -91.38
   5.698  -12.01  -90.03   -0.49   -5.41   -0.49   -5.31  -11.72  -91.71
   5.779  -12.13  -90.44   -0.49   -5.78   -0.50   -5.87  -11.95  -92.13
   5.861  -12.35  -90.88   -0.49   -6.42   -0.49   -6.47  -12.07  -92.80
   5.942  -12.53  -91.18   -0.49   -6.97   -0.48   -6.92  -12.20  -93.20
   6.024  -12.63  -91.99   -0.46   -7.52   -0.49   -7.55  -12.43  -93.37
   6.105  -12.82  -91.55   -0.46   -7.93   -0.44   -8.05  -12.54  -94.36
   6.187  -12.97  -92.60   -0.43   -8.49   -0.45   -8.51  -12.72  -94.06
   6.268  -13.16  -92.15   -0.44   -8.93   -0.43   -9.03  -12.87  -95.07
   6.350  -13.37  -92.87   -0.43   -9.54   -0.43   -9.54  -12.99  -95.20
   6.431  -13.51  -93.59   -0.43  -10.06   -0.44  -10.07  -13.18  -95.21
   6.513  -13.65  -93.76   -0.40  -10.62   -0.41  -10.70  -13.38  -95.93
   6.594  -13.82  -93.94   -0.39  -11.02   -0.41  -11.12  -13.55  -96.21
   6.676  -14.03  -94.26   -0.39  -11.51   -0.40  -11.61  -13.72  -96.43
   6.757  -14.22  -94.27   -0.39  -11.92   -0.39  -12.09  -13.91  -97.34
   6.839  -14.49  -95.34   -0.39  -12.56   -0.38  -12.42  -13.99  -96.60
   6.920  -14.58  -95.66   -0.38  -13.07   -0.40  -13.15  -14.29  -97.58
   7.002  -14.77  -96.14   -0.36  -13.59   -0.38  -13.57  -14.44  -97.35
   7.083  -14.96  -95.78   -0.36  -13.94   -0.36  -14.09  -14.65  -98.17
   7.165  -15.15  -96.26   -0.35  -14.41   -0.36  -14.50  -14.80  -98.27
   7.246  -15.45  -96.49   -0.36  -14.89   -0.36  -14.95  -14.94  -98.55
   7.328  -15.62  -97.43   -0.35  -15.44   -0.35  -15.39  -15.15  -98.16
   7.409  -15.74  -98.01   -0.33  -15.94   -0.36  -15.93  -15.44  -98.47
   7.491  -15.99  -97.63   -0.33  -16.34   -0.34  -16.46  -15.62  -99.33
   7.572  -16.19  -97.78   -0.32  -16.78   -0.33  -16.92  -15.87  -99.49
   7.654  -16.57  -98.09   -0.33  -17.24   -0.32  -17.38  -15.96  -99.94
   7.735  -16.70  -98.39   -0.31  -17.71   -0.32  -17.80  -16.28  -99.52
   7.817  -17.02  -99.19   -0.32  -18.23   -0.30  -18.18  -16.45  -98.94
   7.898  -17.08  -99.08   -0.29  -18.71   -0.32  -18.81  -16.88  -99.41
   7.980  -17.41  -99.17   -0.29  -19.11   -0.30  -19.19  -17.04  -99.22
   8.061  -17.70  -99.09   -0.29  -19.54   -0.29  -19.71  -17.24  -99.51
   8.143  -17.97 -100.22   -0.28  -20.12   -0.28  -20.18  -17.38  -98.78
   8.224  -18.20 -101.25   -0.28  -20.56   -0.29  -20.62  -17.66  -98.73
   8.306  -18.54 -101.90   -0.28  -21.15   -0.30  -21.18  -17.90  -98.90
   8.387  -18.37 -108.16   -0.29  -21.80   -0.29  -21.84  -17.26  -95.84
   8.469  -18.85 -107.76   -0.28  -22.11   -0.30  -22.21  -17.60  -95.79
   8.550  -19.39 -108.01   -0.29  -22.53   -0.29  -22.59  -17.89  -95.27
   8.632  -19.91 -108.37   -0.28  -22.94   -0.29  -23.00  -18.24  -94.40
   8.713  -20.29 -108.65   -0.27  -23.37   -0.29  -23.33  -18.77  -93.58
   8.795  -20.93 -108.56   -0.27  -23.72   -0.27  -23.77  -19.11  -92.54
   8.876  -21.55 -108.54   -0.26  -24.08   -0.27  -24.14  -19.53  -91.55
   8.958  -22.13 -107.65   -0.26  -24.48   -0.26  -24.45  -19.91  -90.06
   9.039  -22.74 -107.54   -0.25  -24.89   -0.25  -24.97  -20.39  -89.10
   9.121  -23.30 -108.24   -0.24  -25.38   -0.24  -25.43  -20.87  -87.29
   9.202  -24.09 -108.97   -0.24  -25.82   -0.25  -25.85  -21.41  -85.27
   9.284  -24.93 -109.83   -0.25  -26.15   -0.24  -26.19  -21.91  -82.66
   9.365  -25.85 -110.45   -0.25  -26.61   -0.24  -26.65  -22.38  -79.40
   9.447  -26.85 -112.12   -0.24  -26.96   -0.24  -27.00  -22.83  -76.80
   9.528  -28.08 -113.48   -0.23  -27.35   -0.25  -27.49  -23.22  -73.86
   9.610  -29.56 -116.29   -0.23  -27.76   -0.23  -27.81  -23.63  -70.52
   9.691  -31.28 -119.36   -0.21  -28.13   -0.21  -28.20  -24.04  -66.90
   9.773  -33.50 -124.83   -0.20  -28.57   -0.20  -28.65  -24.52  -63.15
   9.854  -36.66 -132.94   -0.18  -29.08   -0.18  -29.12  -24.90  -58.49
   9.936  -41.10 -150.45   -0.16  -29.64   -0.17  -29.70  -25.35  -54.02
  10.017  -47.14  165.41   -0.16  -30.14   -0.16  -30.26  -25.51  -48.94
  10.099  -44.58  100.56   -0.16  -30.60   -0.17  -30.70  -25.68  -42.41
  10.180  -40.13   82.31   -0.16  -31.19   -0.17  -31.19  -25.73  -37.24
  10.262  -37.01   76.19   -0.17  -31.72   -0.17  -31.72  -25.72  -31.35
  10.343  -34.35   76.40   -0.18  -32.19   -0.19  -32.23  -25.62  -26.27
  10.425  -31.98   74.68   -0.19  -32.64   -0.20  -32.74  -25.30  -21.49
  10.506  -30.27   71.32   -0.20  -33.03   -0.21  -33.17  -24.93  -17.93
  10.588  -29.07   66.64   -0.22  -33.46   -0.22  -33.50  -24.63  -14.55
  10.669  -28.25   64.64   -0.22  -33.89   -0.22  -33.95  -24.47  -11.40
  10.751  -27.56   62.52   -0.21  -34.28   -0.22  -34.27  -24.29   -9.38
  10.832  -26.95   61.65   -0.21  -34.69   -0.21  -34.74  -24.07   -6.25
  10.914  -26.50   60.38   -0.22  -35.13   -0.23  -35.24  -23.84   -4.56
  10.995  -26.07   59.04   -0.22  -35.54   -0.22  -35.59  -23.60   -1.40
  11.077  -25.84   59.47   -0.22  -35.90   -0.23  -35.96  -23.35   -0.23
  11.158  -25.42   59.53   -0.22  -36.35   -0.22  -36.33  -23.25    1.89
  11.240  -25.08   60.84   -0.20  -36.65   -0.21  -36.71  -23.18    3.09
  11.321  -24.71   60.54   -0.19  -37.11   -0.21  -37.19  -22.95    5.01
  11.403  -24.32   60.42   -0.18  -37.59   -0.18  -37.61  -22.84    7.10
  11.484  -24.04   60.27   -0.17  -38.02   -0.18  -38.12  -22.55    7.90
  11.566  -23.66   59.77   -0.17  -38.50   -0.18  -38.52  -22.53    9.46
  11.647  -23.36   59.44   -0.17  -38.96   -0.18  -39.02  -22.39    9.65
  11.729  -23.14   58.57   -0.16  -39.38   -0.17  -39.43  -22.31   10.02
  11.810  -23.05   56.82   -0.17  -39.87   -0.16  -39.92  -22.18   11.16
  11.892  -22.85   55.85   -0.16  -40.40   -0.17  -40.39  -22.38   11.35
  11.973  -22.94   55.00   -0.17  -40.79   -0.17  -40.87  -22.33   11.90
  12.055  -22.90   54.00   -0.17  -41.25   -0.17  -41.28  -22.37   13.00
  12.136  -22.84   53.50   -0.17  -41.72   -0.18  -41.72  -22.50   13.37
  12.218  -22.94   52.82   -0.17  -42.14   -0.18  -42.27  -22.41   13.72
  12.299  -22.97   51.68   -0.17  -42.54   -0.18  -42.54  -22.57   14.73
  12.381  -22.85   50.97   -0.17  -43.05   -0.17  -43.04  -22.67   14.95
  12.462  -23.05   50.33   -0.17  -43.43   -0.19  -43.50  -22.73   14.67
  12.544  -23.07   48.75   -0.18  -43.83   -0.19  -43.78  -22.89   15.29
  12.625  -23.24   48.26   -0.18  -44.23   -0.19  -44.30  -23.02   15.29
  12.707  -23.35   46.88   -0.17  -44.66   -0.18  -44.70  -23.19   15.53
  12.788  -23.42   46.02   -0.18  -45.02   -0.17  -44.97  -23.49   17.40
  12.870  -23.67   45.52   -0.17  -45.47   -0.17  -45.45  -23.77   15.72
  12.951  -23.80   44.41   -0.16  -45.91   -0.16  -46.01  -23.95   16.49
  13.033  -24.17   43.69   -0.17  -46.24   -0.18  -46.33  -24.23   16.15
  13.114  -24.24   42.63   -0.17  -46.80   -0.17  -46.81  -24.54   17.10
  13.196  -24.56   42.75   -0.16  -47.21   -0.16  -47.37  -24.88   17.14
  13.277  -24.40   41.48   -0.18  -47.67   -0.19  -47.68  -25.37   17.06
  13.359  -24.45   39.41   -0.17  -48.13   -0.17  -48.10  -25.78   18.31
  13.440  -24.85   35.50   -0.15  -48.62   -0.17  -48.65  -26.12   18.20
  13.522  -25.28   34.21   -0.17  -48.84   -0.19  -48.91  -26.45   19.94
  13.603  -25.66   31.81   -0.20  -49.44   -0.20  -49.29  -26.85   18.95
  13.685  -25.86   30.84   -0.16  -49.84   -0.17  -49.87  -27.26   20.54
  13.766  -26.31   28.32   -0.17  -50.27   -0.19  -50.34  -27.75   20.89
  13.848  -26.46   27.63   -0.20  -50.65   -0.20  -50.75  -28.07   21.95
  13.929  -26.72   26.04   -0.18  -51.10   -0.19  -51.23  -28.56   23.33
  14.011  -26.79   23.02   -0.19  -51.41   -0.21  -51.51  -28.55   24.56
  14.092  -26.83   20.72   -0.20  -51.81   -0.22  -51.88  -29.00   26.46
  14.174  -27.04   18.18   -0.19  -52.26   -0.19  -52.24  -29.19   24.87
  14.255  -27.09   15.78   -0.20  -52.66   -0.21  -52.75  -29.42   26.77
  14.337  -26.98   13.45   -0.20  -53.05   -0.20  -53.07  -29.71   25.60
  14.418  -27.14   11.85   -0.20  -53.46   -0.19  -53.45  -30.09   24.40
  14.500  -26.95    8.42   -0.19  -53.85   -0.20  -53.84  -30.75   22.22
  14.581  -26.52    5.62   -0.17  -54.26   -0.18  -54.21  -31.93   24.79
  14.663  -26.65   -0.04   -0.16  -54.81   -0.15  -54.79  -32.59   31.69
  14.744  -26.94   -4.00   -0.15  -55.41   -0.15  -55.31  -32.06   39.16
  14.826  -27.33   -5.45   -0.16  -55.99   -0.16  -56.03  -31.59   41.25
  14.907  -27.33   -5.94   -0.18  -56.50   -0.19  -56.48  -30.86   39.36
  14.989  -27.60   -8.06   -0.19  -56.96   -0.19  -56.90  -30.95   36.64
  15.070  -27.84   -6.19   -0.22  -57.41   -0.22  -57.21  -31.32   35.81
  15.152  -27.86   -2.79   -0.24  -57.78   -0.23  -57.77  -31.56   40.25
  15.233  -27.42   -2.27   -0.25  -58.13   -0.24  -58.21  -31.09   42.19
  15.315  -26.95    0.92   -0.26  -58.57   -0.26  -58.53  -30.55   44.88
  15.396  -26.50    1.67   -0.27  -58.96   -0.26  -58.98  -29.97   42.88
  15.478  -25.93    3.30   -0.27  -59.28   -0.27  -59.28  -29.27   43.45
  15.559  -25.25    2.65   -0.27  -59.72   -0.27  -59.74  -29.15   42.28
  15.641  -24.70    3.40   -0.27  -60.15   -0.28  -60.18  -28.37   42.16
  15.722  -24.20    2.62   -0.28  -60.63   -0.27  -60.61  -28.14   42.74
  15.804  -23.73    3.53   -0.29  -61.10   -0.27  -60.98  -27.33   42.23
  15.885  -23.39    3.92   -0.29  -61.52   -0.29  -61.40  -26.80   42.50
  15.967  -22.91    3.54   -0.29  -61.90   -0.29  -61.86  -26.02   41.51
  16.048  -22.49    4.77   -0.31  -62.37   -0.31  -62.23  -25.46   41.90
  16.130  -22.04    5.49   -0.32  -62.81   -0.32  -62.72  -24.73   40.48
  16.211  -21.59    6.64   -0.33  -63.16   -0.33  -63.12  -24.01   39.98
  16.293  -21.04    7.20   -0.34  -63.48   -0.34  -63.47  -23.38   38.49
  16.374  -20.50    7.82   -0.34  -63.89   -0.35  -63.83  -22.65   36.99
  16.456  -20.02    7.43   -0.34  -64.32   -0.33  -64.22  -22.02   35.17
  16.537  -19.56    7.91   -0.34  -64.72   -0.33  -64.64  -21.41   33.63
  16.619  -19.23    7.72   -0.36  -65.17   -0.35  -65.22  -20.92   32.72
  16.700  -18.72    8.76   -0.35  -65.64   -0.35  -65.42  -20.35   31.57
  16.782  -18.41    8.74   -0.38  -65.96   -0.36  -65.91  -19.86   30.89
  16.863  -17.89    9.44   -0.39  -66.57   -0.36  -66.30  -19.31   29.60
  16.945  -17.51    9.99   -0.38  -66.96   -0.36  -66.85  -18.84   28.72
  17.026  -17.13    9.93   -0.37  -67.47   -0.39  -67.35  -18.19   27.91
  17.108  -16.68   10.42   -0.41  -67.81   -0.39  -67.79  -17.83   27.47
  17.189  -16.29   10.68   -0.40  -68.24   -0.42  -68.19  -17.28   26.18
  17.271  -15.84   11.75   -0.45  -68.67   -0.44  -68.46  -16.80   25.68
  17.352  -15.39   11.47   -0.45  -69.11   -0.44  -69.07  -16.42   24.40
  17.434  -15.07   12.13   -0.47  -69.67   -0.48  -69.31  -15.86   23.83
  17.515  -14.63   11.48   -0.48  -69.94   -0.48  -70.01  -15.49   23.11
  17.597  -14.20   11.32   -0.49  -70.39   -0.49  -70.34  -14.98   22.21
  17.678  -13.87   11.61   -0.53  -70.68   -0.50  -70.60  -14.61   20.89
  17.760  -13.57   11.20   -0.54  -71.03   -0.53  -71.09  -14.26   19.94
  17.841  -13.36   11.99   -0.59  -71.66   -0.54  -71.35  -13.93   18.80
  17.923  -13.06   11.16   -0.56  -72.03   -0.58  -71.81  -13.54   18.49
  18.004  -12.70   11.72   -0.57  -72.31   -0.57  -72.32  -13.28   18.04
  18.086  -12.38   11.84   -0.60  -72.66   -0.57  -72.84  -13.04   16.73
  18.167  -12.15   12.02   -0.60  -73.30   -0.59  -72.98  -12.59   16.44
  18.249  -11.84   12.15   -0.62  -73.60   -0.59  -73.56  -12.40   15.44
  18.330  -11.59   12.11   -0.63  -74.24   -0.61  -73.96  -12.07   14.83
  18.412  -11.36   11.52   -0.63  -74.74   -0.66  -74.44  -11.83   14.55
  18.493  -11.00   11.70   -0.65  -74.95   -0.66  -75.08  -11.62   13.83
  18.575  -10.86   12.00   -0.71  -75.52   -0.67  -75.50  -11.33   12.74
  18.656  -10.62   11.54   -0.71  -76.03   -0.70  -75.95  -11.03   12.33
  18.738  -10.41   11.51   -0.74  -76.50   -0.73  -76.37  -10.83   11.86
  18.819  -10.19   11.33   -0.76  -76.87   -0.75  -76.72  -10.55   11.16
  18.901   -9.97   11.22   -0.79  -77.20   -0.79  -77.21  -10.37   10.78
  18.982   -9.77   11.42   -0.83  -77.63   -0.79  -77.75  -10.15    9.20
  19.064   -9.65   11.11   -0.86  -78.22   -0.83  -78.06   -9.89    8.91
  19.145   -9.45   10.41   -0.84  -78.67   -0.84  -78.51   -9.71    8.37
  19.227   -9.24   10.34   -0.86  -79.11   -0.86  -79.00   -9.56    7.68
  19.308   -9.14   10.61   -0.89  -79.38   -0.87  -79.35   -9.38    6.87
  19.390   -8.97   10.31   -0.91  -79.95   -0.91  -79.93   -9.25    6.23
  19.471   -8.93   10.92   -0.96  -80.36   -0.89  -80.34   -9.05    4.93
  19.553   -8.83   10.00   -0.96  -81.06   -0.96  -80.66   -8.90    5.15
  19.634   -8.68   10.01   -0.97  -81.47   -0.96  -81.18   -8.79    4.57
  19.716   -8.42    9.97   -0.96  -81.72   -0.99  -81.72   -8.74    3.78
  19.797   -8.44   10.29   -1.02  -82.09   -0.99  -81.94   -8.55    3.34
  19.879   -8.29   10.10   -1.03  -82.44   -1.03  -82.64   -8.52    2.18
  19.960   -8.31    9.75   -1.07  -83.15   -1.00  -83.04   -8.25    1.98
  20.042   -8.23    9.03   -1.08  -83.59   -1.05  -83.29   -8.21    1.93
  20.123   -8.08    8.70   -1.07  -84.23   -1.10  -84.08   -8.19    1.25
  20.205   -8.04    9.19   -1.11  -84.36   -1.09  -84.38   -8.10    0.51
  20.286   -7.95    8.96   -1.14  -84.84   -1.13  -84.75   -8.00    0.25
  20.368   -7.97    8.82   -1.20  -85.22   -1.17  -85.34   -7.93   -0.65
  20.449   -7.90    8.29   -1.19  -85.91   -1.12  -85.99   -7.72   -1.28
  20.531   -7.83    7.50   -1.19  -86.32   -1.16  -85.96   -7.75   -0.77
  20.612   -7.68    7.51   -1.18  -86.82   -1.19  -86.62   -7.73   -1.89
  20.694   -7.72    7.60   -1.19  -87.06   -1.18  -87.01   -7.61   -2.38
  20.775   -7.68    6.90   -1.23  -87.48   -1.23  -87.40   -7.62   -2.85
  20.857   -7.72    6.81   -1.27  -87.99   -1.25  -88.19   -7.53   -3.76
  20.938   -7.73    5.97   -1.26  -88.54   -1.19  -88.44   -7.39   -3.69
  21.020   -7.65    5.06   -1.24  -88.97   -1.23  -88.67   -7.47   -3.47
  21.101   -7.59    5.62   -1.21  -89.16   -1.25  -89.14   -7.50   -4.86
  21.183   -7.68    4.80   -1.24  -89.56   -1.20  -89.45   -7.35   -4.53
  21.264   -7.64    4.69   -1.24  -89.89   -1.25  -89.88   -7.50   -5.62
  21.346   -7.66    3.89   -1.25  -90.76   -1.23  -90.94   -7.36   -6.05
  21.427   -7.74    3.30   -1.25  -91.10   -1.19  -91.19   -7.33   -5.88
  21.509   -7.56    2.50   -1.23  -91.99   -1.23  -91.62   -7.46   -6.02
  21.590   -7.68    2.51   -1.22  -92.28   -1.20  -92.44   -7.35   -6.51
  21.672   -7.62    1.53   -1.23  -92.70   -1.23  -92.59   -7.41   -6.56
