!  American Technical Ceramics  Date:   4/26/2005
!  One Norden Lane
!  Huntington Station,  NY.   11746-2102
!  Tel:  (631) 622-4700               Fax:  (631) 622-4748
!  Part Number  600S0R4         Mounting Orientation: Horizontal
!  Description: Ultra Low ESR Microwave capacitors
!  Application: Coupling, Bypass, Tuning, DC Block
!               Filters, Matching
# GHZ S DB R 50
! Freq   |S11|   S11 Ph  |S21|   S21 Ph  |S12|   S12 Ph  |S22|   S22 Ph
   0.000   0.00    0.00	  -999.00  90.00  -999.00  90.00    0.00    0.00
   0.400   -0.02   -6.48  -20.61   83.02  -20.57   82.90   -0.01   -6.81
   0.482   -0.01   -7.80  -18.99   81.07  -18.98   80.42   -0.14   -8.81
   0.563    0.00   -8.70  -17.64   79.87  -17.66   78.82   -0.19  -10.82
   0.645   -0.07   -9.62  -16.51   78.82  -16.49   77.66   -0.14  -12.26
   0.726   -0.19  -11.24  -15.56   77.40  -15.49   76.33   -0.14  -13.43
   0.808   -0.10  -12.48  -14.59   76.05  -14.56   75.14   -0.17  -14.79
   0.889   -0.24  -13.88  -13.86   74.99  -13.77   74.07   -0.17  -15.77
   0.971   -0.15  -15.28  -13.08   73.45  -13.11   72.74   -0.35  -17.29
   1.052   -0.24  -16.37  -12.43   72.40  -12.41   71.37   -0.31  -18.69
   1.134   -0.30  -17.38  -11.84   71.39  -11.84   70.23   -0.38  -19.97
   1.215   -0.39  -19.58  -11.32   69.60  -11.29   68.69   -0.43  -21.10
   1.297   -0.34  -20.47  -10.73   68.51  -10.73   67.54   -0.46  -22.50
   1.378   -0.43  -21.81  -10.29   67.39  -10.28   66.61   -0.54  -23.28
   1.460   -0.45  -23.12   -9.81   65.93   -9.86   65.01   -0.63  -25.04
   1.541   -0.52  -24.27   -9.35   64.99   -9.36   63.80   -0.58  -26.10
   1.623   -0.61  -25.43   -8.99   63.96   -9.01   62.94   -0.68  -26.97
   1.704   -0.69  -26.79   -8.65   62.49   -8.62   61.49   -0.69  -27.51
   1.786   -0.67  -28.40   -8.22   61.37   -8.26   60.49   -0.80  -29.26
   1.867   -0.80  -29.59   -7.94   60.37   -7.97   59.39   -0.87  -30.24
   1.949   -0.86  -31.01   -7.61   58.98   -7.65   57.76   -0.92  -31.85
   2.030   -0.91  -32.50   -7.31   57.76   -7.31   56.87   -0.96  -32.40
   2.112   -1.01  -33.64   -7.03   56.62   -7.06   55.55   -1.04  -33.78
   2.193   -1.06  -35.20   -6.75   55.27   -6.75   54.42   -1.09  -34.67
   2.275   -1.12  -36.27   -6.46   54.25   -6.49   53.46   -1.16  -35.63
   2.356   -1.23  -37.43   -6.23   53.23   -6.28   52.26   -1.25  -36.83
   2.438   -1.34  -39.05   -6.02   51.92   -6.03   50.99   -1.32  -37.75
   2.519   -1.40  -40.40   -5.79   50.67   -5.80   49.86   -1.39  -38.81
   2.601   -1.46  -41.65   -5.55   49.31   -5.60   48.79   -1.48  -39.91
   2.682   -1.58  -42.87   -5.33   48.44   -5.36   47.48   -1.50  -40.88
   2.764   -1.66  -43.93   -5.14   47.14   -5.19   46.61   -1.63  -41.81
   2.845   -1.76  -45.30   -4.95   45.92   -4.98   45.21   -1.69  -43.06
   2.927   -1.87  -46.41   -4.77   44.72   -4.84   44.04   -1.82  -44.03
   3.008   -1.98  -47.92   -4.64   43.37   -4.64   42.80   -1.92  -44.94
   3.090   -1.99  -48.54   -4.48   42.45   -4.56   42.11   -2.03  -45.98
   3.171   -2.07  -49.54   -4.35   41.65   -4.38   41.01   -2.08  -46.66
   3.253   -2.17  -50.52   -4.24   40.52   -4.27   40.29   -2.21  -47.63
   3.334   -2.24  -51.49   -4.07   39.58   -4.13   39.26   -2.24  -48.65
   3.416   -2.32  -52.38   -3.94   38.75   -3.99   38.29   -2.31  -49.46
   3.497   -2.40  -53.35   -3.86   37.78   -3.84   37.50   -2.43  -50.35
   3.579   -2.50  -54.34   -3.69   36.56   -3.76   36.55   -2.51  -51.58
   3.660   -2.56  -55.22   -3.59   35.90   -3.59   35.62   -2.57  -52.24
   3.742   -2.69  -56.05   -3.51   34.73   -3.55   34.88   -2.70  -53.21
   3.823   -2.75  -57.21   -3.38   33.73   -3.42   33.72   -2.75  -54.32
   3.905   -2.81  -58.00   -3.27   33.08   -3.30   32.93   -2.83  -55.03
   3.986   -2.91  -58.71   -3.21   32.22   -3.21   32.29   -2.96  -55.86
   4.068   -3.01  -59.82   -3.10   31.12   -3.12   31.30   -3.02  -56.99
   4.149   -3.07  -60.40   -3.00   30.71   -3.02   30.67   -3.12  -57.42
   4.231   -3.22  -61.34   -2.97   29.54   -2.98   29.81   -3.28  -58.50
   4.312   -3.26  -62.53   -2.81   28.63   -2.83   28.75   -3.29  -59.35
   4.394   -3.33  -63.11   -2.72   28.04   -2.73   28.20   -3.35  -59.79
   4.475   -3.44  -63.76   -2.69   27.27   -2.68   27.36   -3.51  -60.60
   4.557   -3.52  -64.84   -2.57   26.18   -2.58   26.54   -3.52  -61.60
   4.638   -3.58  -65.51   -2.49   25.76   -2.51   25.87   -3.65  -62.00
   4.720   -3.76  -66.55   -2.49   24.41   -2.48   24.65   -3.79  -63.13
   4.801   -3.77  -67.48   -2.37   23.61   -2.35   23.86   -3.81  -63.98
   4.883   -3.89  -68.04   -2.30   23.11   -2.33   23.53   -3.90  -64.08
   4.964   -3.96  -68.81   -2.28   22.45   -2.25   22.48   -4.07  -65.08
   5.046   -4.10  -69.81   -2.19   21.33   -2.18   21.88   -4.07  -65.79
   5.127   -4.13  -70.44   -2.15   20.96   -2.16   21.12   -4.22  -66.14
   5.209   -4.28  -71.48   -2.11   19.82   -2.09   20.04   -4.32  -67.28
   5.290   -4.35  -72.11   -2.02   19.15   -1.98   19.57   -4.33  -67.81
   5.372   -4.42  -73.05   -1.96   18.76   -1.99   18.96   -4.49  -67.78
   5.453   -4.56  -73.41   -1.96   17.94   -1.90   18.06   -4.56  -69.22
   5.535   -4.68  -74.63   -1.88   17.10   -1.88   17.53   -4.62  -69.30
   5.616   -4.73  -75.46   -1.84   16.45   -1.84   16.57   -4.78  -70.00
   5.698   -4.86  -76.04   -1.80   15.60   -1.76   15.81   -4.81  -71.00
   5.779   -4.91  -76.96   -1.71   15.13   -1.71   15.35   -4.89  -71.01
   5.861   -5.05  -77.41   -1.71   14.48   -1.68   14.63   -5.01  -71.80
   5.942   -5.17  -78.07   -1.67   13.79   -1.62   13.92   -5.11  -72.54
   6.024   -5.32  -79.78   -1.62   12.76   -1.63   13.25   -5.18  -72.47
   6.105   -5.33  -79.70   -1.57   12.32   -1.56   12.17   -5.34  -73.71
   6.187   -5.49  -80.84   -1.52   11.44   -1.51   11.82   -5.36  -73.71
   6.268   -5.52  -80.81   -1.50   11.17   -1.46   11.05   -5.53  -74.57
   6.350   -5.70  -81.56   -1.49   10.37   -1.44   10.50   -5.56  -74.93
   6.431   -5.85  -82.63   -1.48    9.61   -1.43    9.93   -5.64  -74.98
   6.513   -5.85  -83.74   -1.40    8.88   -1.39    8.86   -5.77  -75.98
   6.594   -5.92  -84.08   -1.34    8.46   -1.35    8.31   -5.88  -76.32
   6.676   -6.06  -84.72   -1.32    7.83   -1.31    7.77   -5.97  -76.93
   6.757   -6.10  -84.82   -1.29    7.48   -1.28    7.07   -6.13  -77.80
   6.839   -6.39  -86.04   -1.30    6.49   -1.27    6.82   -6.06  -77.53
   6.920   -6.30  -87.07   -1.25    5.89   -1.30    5.84   -6.35  -78.31
   7.002   -6.37  -88.00   -1.18    5.16   -1.22    5.32   -6.39  -78.68
   7.083   -6.42  -88.02   -1.15    4.86   -1.19    4.59   -6.54  -79.68
   7.165   -6.55  -88.79   -1.12    4.31   -1.14    4.13   -6.61  -80.04
   7.246   -6.78  -89.36   -1.13    3.72   -1.10    3.69   -6.62  -80.77
   7.328   -6.88  -90.89   -1.09    2.89   -1.11    3.21   -6.77  -80.44
   7.409   -6.85  -91.92   -1.03    2.20   -1.11    2.42   -7.02  -80.99
   7.491   -6.97  -91.72   -0.99    1.83   -1.04    1.63   -7.09  -82.34
   7.572   -7.05  -92.23   -0.95    1.30   -1.01    1.05   -7.23  -82.82
   7.654   -7.33  -93.02   -0.99    0.64   -0.95    0.55   -7.18  -83.48
   7.735   -7.35  -93.82   -0.92    0.11   -0.95    0.09   -7.41  -83.61
   7.817   -7.54  -95.35   -0.93   -0.83   -0.93   -0.44   -7.50  -83.26
   7.898   -7.47  -95.00   -0.84   -1.17   -0.94   -1.36   -7.79  -84.83
   7.980   -7.68  -95.52   -0.83   -1.67   -0.88   -1.79   -7.81  -85.27
   8.061   -7.92  -95.83   -0.84   -2.13   -0.86   -2.55   -7.89  -86.37
   8.143   -8.00  -97.48   -0.81   -3.03   -0.81   -2.98   -8.00  -85.90
   8.224   -8.09  -97.92   -0.78   -3.51   -0.82   -3.47   -8.19  -86.37
   8.306   -8.18  -98.21   -0.75   -4.07   -0.79   -4.21   -8.32  -87.20
   8.387   -8.29  -99.06   -0.73   -4.79   -0.79   -4.90   -8.45  -87.78
   8.469   -8.49  -99.03   -0.73   -5.14   -0.77   -5.50   -8.54  -88.70
   8.550   -8.62 -100.26   -0.71   -5.91   -0.73   -6.10   -8.60  -88.99
   8.632   -8.74 -101.27   -0.70   -6.52   -0.69   -6.51   -8.72  -88.86
   8.713   -8.76 -101.18   -0.64   -6.99   -0.70   -7.16   -8.95  -90.11
   8.795   -8.88 -102.19   -0.64   -7.50   -0.67   -7.72   -8.90  -90.57
   8.876   -9.10 -102.60   -0.61   -8.06   -0.65   -8.32   -9.16  -91.25
   8.958   -9.26 -103.17   -0.61   -8.65   -0.64   -8.84   -9.33  -91.65
   9.039   -9.41 -103.62   -0.59   -9.23   -0.60   -9.40   -9.43  -91.97
   9.121   -9.50 -104.00   -0.56   -9.69   -0.59   -9.81   -9.63  -92.20
   9.202   -9.63 -104.63   -0.54  -10.28   -0.57  -10.46   -9.75  -92.52
   9.284   -9.71 -104.99   -0.52  -10.83   -0.55  -11.06   -9.85  -92.63
   9.365   -9.80 -106.06   -0.50  -11.47   -0.54  -11.49   -9.99  -92.62
   9.447  -10.01 -106.65   -0.50  -11.91   -0.54  -12.12  -10.06  -93.39
   9.528  -10.21 -107.02   -0.49  -12.38   -0.50  -12.55  -10.10  -93.70
   9.610  -10.35 -107.66   -0.48  -12.91   -0.49  -13.03  -10.22  -94.10
   9.691  -10.47 -108.30   -0.45  -13.55   -0.46  -13.61  -10.37  -94.99
   9.773  -10.57 -108.42   -0.43  -14.06   -0.46  -14.11  -10.48  -95.40
   9.854  -10.67 -108.76   -0.41  -14.66   -0.44  -14.69  -10.66  -96.36
   9.936  -10.82 -108.71   -0.38  -15.01   -0.42  -15.22  -10.71  -96.77
  10.017  -10.97 -109.94   -0.40  -15.62   -0.39  -15.79  -10.83  -97.07
  10.099  -11.02 -110.71   -0.39  -16.27   -0.38  -16.22  -11.03  -97.33
  10.180  -11.09 -111.10   -0.35  -16.83   -0.36  -16.79  -11.17  -98.12
  10.262  -11.26 -111.34   -0.34  -17.24   -0.37  -17.20  -11.29  -98.53
  10.343  -11.39 -111.92   -0.33  -17.85   -0.35  -17.85  -11.40  -99.25
  10.425  -11.56 -112.44   -0.31  -18.30   -0.33  -18.37  -11.48  -99.59
  10.506  -11.65 -113.43   -0.33  -18.80   -0.31  -18.85  -11.67  -99.70
  10.588  -11.75 -113.98   -0.32  -19.50   -0.33  -19.41  -11.85 -100.59
  10.669  -11.88 -114.33   -0.28  -19.93   -0.29  -19.74  -11.96 -100.98
  10.751  -12.11 -114.62   -0.29  -20.23   -0.32  -20.32  -12.05 -101.49
  10.832  -12.21 -115.28   -0.29  -20.88   -0.29  -20.83  -12.20 -101.75
  10.914  -12.35 -115.87   -0.28  -21.27   -0.27  -21.22  -12.33 -101.96
  10.995  -12.46 -115.91   -0.26  -21.83   -0.27  -21.73  -12.47 -102.80
  11.077  -12.60 -116.64   -0.24  -22.39   -0.24  -22.27  -12.56 -103.10
  11.158  -12.74 -116.76   -0.22  -22.80   -0.24  -22.73  -12.63 -103.80
  11.240  -12.87 -117.39   -0.23  -23.32   -0.23  -23.28  -12.79 -104.03
  11.321  -12.96 -117.99   -0.22  -23.84   -0.20  -23.76  -12.91 -104.50
  11.403  -13.06 -118.01   -0.21  -24.32   -0.22  -24.19  -13.04 -105.24
  11.484  -13.18 -118.70   -0.21  -24.84   -0.20  -24.76  -13.18 -105.39
  11.566  -13.31 -118.83   -0.19  -25.33   -0.20  -25.19  -13.23 -106.27
  11.647  -13.39 -119.56   -0.19  -25.74   -0.18  -25.64  -13.37 -106.42
  11.729  -13.53 -120.46   -0.19  -26.21   -0.19  -26.19  -13.51 -106.92
  11.810  -13.59 -120.56   -0.17  -26.86   -0.16  -26.48  -13.67 -107.78
  11.892  -13.80 -121.23   -0.16  -27.12   -0.17  -27.13  -13.73 -107.88
  11.973  -13.85 -121.78   -0.17  -27.75   -0.16  -27.62  -13.90 -108.54
  12.055  -14.01 -122.23   -0.17  -28.25   -0.17  -28.13  -14.04 -109.32
  12.136  -14.15 -123.02   -0.15  -28.63   -0.15  -28.66  -14.14 -109.46
  12.218  -14.20 -123.29   -0.17  -29.18   -0.15  -29.02  -14.36 -110.23
  12.299  -14.39 -123.80   -0.15  -29.67   -0.16  -29.54  -14.41 -110.79
  12.381  -14.54 -124.80   -0.14  -30.05   -0.15  -30.04  -14.53 -110.72
  12.462  -14.56 -125.07   -0.17  -30.55   -0.14  -30.45  -14.76 -111.57
  12.544  -14.79 -125.80   -0.14  -31.07   -0.15  -31.01  -14.78 -112.00
  12.625  -14.85 -126.38   -0.14  -31.52   -0.13  -31.43  -14.96 -112.53
  12.707  -15.00 -126.77   -0.15  -31.96   -0.13  -31.82  -15.11 -113.22
  12.788  -15.24 -127.75   -0.13  -32.53   -0.15  -32.43  -15.13 -113.97
  12.870  -15.28 -128.58   -0.13  -32.78   -0.13  -32.79  -15.42 -113.57
  12.951  -15.50 -128.66   -0.14  -33.29   -0.14  -33.17  -15.52 -114.70
  13.033  -15.63 -129.28   -0.12  -33.92   -0.12  -33.74  -15.66 -115.11
  13.114  -15.77 -130.07   -0.11  -34.22   -0.11  -34.14  -15.84 -115.07
  13.196  -15.98 -130.01   -0.12  -34.79   -0.13  -34.45  -15.95 -116.02
  13.277  -16.09 -131.42   -0.09  -35.15   -0.10  -35.13  -16.10 -115.37
  13.359  -16.22 -131.63   -0.10  -35.57   -0.11  -35.48  -16.27 -116.28
  13.440  -16.44 -131.81   -0.13  -36.15   -0.13  -35.95  -16.44 -116.85
  13.522  -16.61 -132.85   -0.09  -36.65   -0.10  -36.57  -16.51 -116.99
  13.603  -16.77 -133.07   -0.08  -37.13   -0.11  -37.05  -16.67 -117.59
  13.685  -16.97 -133.97   -0.10  -37.53   -0.11  -37.47  -16.86 -117.83
  13.766  -17.15 -134.26   -0.08  -37.89   -0.10  -37.68  -16.97 -118.41
  13.848  -17.26 -134.87   -0.11  -38.25   -0.10  -38.23  -17.27 -119.15
  13.929  -17.57 -135.73   -0.11  -38.90   -0.12  -38.72  -17.44 -119.59
  14.011  -17.80 -136.24   -0.08  -39.32   -0.10  -39.05  -17.62 -120.14
  14.092  -18.01 -136.92   -0.08  -39.62   -0.10  -39.61  -17.88 -119.68
  14.174  -18.26 -136.13   -0.08  -40.25   -0.08  -40.18  -18.15 -121.21
  14.255  -18.43 -136.26   -0.08  -40.70   -0.09  -40.56  -18.38 -120.90
  14.337  -18.42 -136.49   -0.09  -41.12   -0.10  -41.03  -18.71 -120.86
  14.418  -18.55 -137.62   -0.11  -41.74   -0.09  -41.53  -18.96 -121.51
  14.500  -18.74 -139.43   -0.10  -42.08   -0.11  -41.79  -19.17 -120.64
  14.581  -19.03 -140.81   -0.10  -42.43   -0.11  -42.38  -19.50 -120.33
  14.663  -19.40 -141.10   -0.11  -42.91   -0.11  -42.81  -19.62 -121.35
  14.744  -19.69 -142.57   -0.11  -43.41   -0.12  -43.28  -19.90 -120.97
  14.826  -19.93 -142.98   -0.11  -43.76   -0.12  -43.73  -20.24 -121.31
  14.907  -20.27 -143.56   -0.12  -44.16   -0.13  -44.02  -20.54 -121.46
  14.989  -20.63 -144.36   -0.12  -44.56   -0.13  -44.40  -20.81 -121.41
  15.070  -20.82 -144.55   -0.11  -44.87   -0.12  -44.89  -21.19 -121.11
  15.152  -21.15 -145.76   -0.10  -45.37   -0.11  -45.29  -21.51 -121.47
  15.233  -21.41 -147.74   -0.10  -45.87   -0.12  -45.70  -21.72 -120.74
  15.315  -21.84 -148.58   -0.11  -46.26   -0.11  -46.26  -22.15 -120.94
  15.396  -22.25 -150.10   -0.11  -46.79   -0.11  -46.70  -22.33 -121.77
  15.478  -22.71 -151.67   -0.11  -47.22   -0.11  -47.14  -22.74 -122.08
  15.559  -23.07 -154.03   -0.11  -47.70   -0.12  -47.68  -23.19 -122.73
  15.641  -23.63 -156.14   -0.13  -48.15   -0.11  -48.11  -23.63 -122.70
  15.722  -24.12 -159.01   -0.13  -48.59   -0.14  -48.40  -24.33 -123.31
  15.804  -24.76 -161.33   -0.15  -48.94   -0.14  -48.96  -24.84 -124.17
  15.885  -25.51 -164.69   -0.15  -49.41   -0.15  -49.36  -25.67 -124.51
  15.967  -26.25 -168.63   -0.16  -49.89   -0.16  -49.73  -26.34 -123.64
  16.048  -27.08 -172.09   -0.17  -50.24   -0.16  -50.18  -27.34 -123.27
  16.130  -27.92 -176.28   -0.17  -50.63   -0.17  -50.50  -28.37 -122.77
  16.211  -28.91  178.53   -0.18  -50.97   -0.17  -50.88  -29.55 -120.24
  16.293  -29.80  172.20   -0.18  -51.39   -0.19  -51.25  -30.88 -118.54
  16.374  -30.79  165.22   -0.18  -51.78   -0.18  -51.62  -32.19 -114.48
  16.456  -31.62  156.35   -0.18  -52.11   -0.19  -51.99  -33.83 -107.44
  16.537  -32.25  145.95   -0.19  -52.56   -0.18  -52.44  -35.24  -99.28
  16.619  -32.77  132.45   -0.19  -52.97   -0.18  -52.91  -37.33  -87.25
  16.700  -33.06  119.24   -0.20  -53.37   -0.19  -53.44  -39.18  -70.18
  16.782  -32.74  106.24   -0.21  -53.77   -0.19  -53.65  -39.62  -39.24
  16.863  -32.23   95.94   -0.20  -54.13   -0.21  -54.10  -38.16  -14.22
  16.945  -31.34   86.56   -0.21  -54.53   -0.21  -54.33  -35.58    1.48
  17.026  -30.55   78.45   -0.22  -54.77   -0.20  -54.76  -33.16    8.68
  17.108  -29.59   71.61   -0.21  -55.27   -0.19  -55.18  -31.14   11.08
  17.189  -28.66   66.11   -0.21  -55.71   -0.18  -55.58  -29.84   12.83
  17.271  -27.76   60.47   -0.21  -56.18   -0.20  -56.15  -28.39   14.09
  17.352  -26.85   56.07   -0.22  -56.61   -0.21  -56.47  -27.20   15.28
  17.434  -26.07   50.35   -0.22  -57.01   -0.22  -56.90  -26.00   14.69
  17.515  -25.54   45.13   -0.25  -57.45   -0.24  -57.38  -25.13   13.08
  17.597  -25.37   41.53   -0.26  -57.83   -0.25  -57.77  -24.54    9.88
  17.678  -25.51   38.99   -0.28  -58.05   -0.27  -57.93  -23.91    8.02
  17.760  -25.46   40.03   -0.27  -58.26   -0.26  -58.23  -23.91    6.51
  17.841  -24.98   42.54   -0.25  -58.48   -0.25  -58.46  -23.82    6.75
  17.923  -24.23   43.39   -0.24  -58.80   -0.23  -58.76  -23.92    9.73
  18.004  -23.47   43.59   -0.21  -59.29   -0.20  -59.28  -23.44   11.28
  18.086  -22.88   42.94   -0.20  -59.76   -0.21  -59.66  -22.81   13.96
  18.167  -22.30   40.98   -0.20  -60.23   -0.20  -60.16  -22.37   15.29
  18.249  -21.84   39.46   -0.20  -60.74   -0.19  -60.73  -21.67   15.48
  18.330  -21.44   37.68   -0.21  -61.18   -0.20  -61.15  -21.31   15.06
  18.412  -21.08   36.51   -0.22  -61.60   -0.21  -61.60  -20.94   14.24
  18.493  -20.87   35.94   -0.22  -61.96   -0.21  -61.83  -20.63   13.64
  18.575  -20.57   34.65   -0.21  -62.31   -0.21  -62.29  -20.36   13.44
  18.656  -20.26   34.23   -0.22  -62.70   -0.21  -62.73  -20.13   13.76
  18.738  -19.97   33.68   -0.22  -63.08   -0.20  -63.04  -19.96   13.28
  18.819  -19.72   32.95   -0.20  -63.53   -0.21  -63.55  -19.74   13.58
  18.901  -19.47   32.87   -0.19  -63.90   -0.18  -63.88  -19.60   13.22
  18.982  -19.26   31.86   -0.18  -64.36   -0.20  -64.32  -19.30   13.97
  19.064  -18.93   31.41   -0.18  -64.68   -0.18  -64.70  -19.23   14.36
  19.145  -18.72   30.97   -0.18  -65.20   -0.18  -65.20  -18.97   14.06
  19.227  -18.54   30.36   -0.17  -65.68   -0.17  -65.65  -18.70   14.44
  19.308  -18.31   29.59   -0.17  -66.13   -0.17  -66.16  -18.56   14.37
  19.390  -18.08   29.20   -0.17  -66.58   -0.17  -66.66  -18.32   14.51
  19.471  -17.83   27.91   -0.17  -67.02   -0.18  -67.09  -18.26   15.06
  19.553  -17.67   27.98   -0.19  -67.37   -0.18  -67.57  -18.04   14.03
  19.634  -17.54   26.74   -0.20  -67.83   -0.19  -67.90  -17.86   14.68
  19.716  -17.48   25.79   -0.19  -68.28   -0.18  -68.20  -17.57   14.49
  19.797  -17.26   25.05   -0.18  -68.64   -0.19  -68.69  -17.48   14.46
  19.879  -17.17   23.97   -0.17  -69.15   -0.19  -69.07  -17.29   13.92
  19.960  -16.98   23.79   -0.18  -69.41   -0.19  -69.48  -17.21   13.56
  20.042  -16.94   23.00   -0.17  -69.97   -0.17  -70.12  -17.06   12.67
  20.123  -16.97   22.30   -0.18  -70.49   -0.17  -70.47  -16.87   12.96
  20.205  -16.84   21.57   -0.16  -71.00   -0.17  -70.95  -16.86   12.97
  20.286  -16.78   21.19   -0.16  -71.46   -0.15  -71.45  -16.69   12.68
  20.368  -16.70   20.69   -0.15  -71.87   -0.16  -71.85  -16.66   12.45
  20.449  -16.63   20.62   -0.18  -72.38   -0.19  -72.44  -16.59   12.12
  20.531  -16.64   20.27   -0.17  -72.94   -0.13  -73.07  -16.39   11.72
  20.612  -16.52   18.93   -0.18  -73.53   -0.18  -73.41  -16.39   12.39
  20.694  -16.43   19.02   -0.16  -73.99   -0.17  -74.01  -16.34   11.89
  20.775  -16.42   18.43   -0.18  -74.44   -0.18  -74.43  -16.25   11.91
  20.857  -16.37   18.27   -0.21  -74.83   -0.21  -74.70  -16.24   12.15
  20.938  -16.33   17.92   -0.23  -75.43   -0.22  -75.67  -16.12   11.28
  21.020  -16.33   17.25   -0.23  -75.95   -0.20  -75.84  -15.98   12.06
  21.101  -16.15   16.24   -0.23  -76.45   -0.25  -76.46  -16.08   11.75
  21.183  -16.20   16.70   -0.26  -76.84   -0.24  -76.97  -15.97   11.18
  21.264  -16.15   15.80   -0.26  -77.22   -0.25  -77.16  -16.06   12.17
  21.346  -16.10   16.00   -0.31  -77.73   -0.31  -77.77  -16.07   12.30
  21.427  -16.05   16.34   -0.31  -78.19   -0.30  -78.31  -15.92   12.65
  21.509  -15.93   15.20   -0.33  -78.69   -0.32  -78.50  -15.86   14.43
  21.590  -15.78   16.17   -0.32  -79.00   -0.35  -79.09  -15.66   13.91
  21.672  -15.62   15.18   -0.34  -79.41   -0.32  -79.40  -15.45   14.33
