!  American Technical Ceramics  Date:   12/2/2005
!  One Norden Lane
!  Huntington Station,  NY.   11746-2102
!  Tel:  (631) 622-4700               Fax:  (631) 622-4748
!  Part Number  600S330         Mounting Orientation: Horizontal
!  Description: Ultra Low ESR Microwave capacitors
!  Application: Coupling, Bypass, Tuning, DC Block
!               Filters, Matching
# GHZ S DB R 50
! Freq   |S11|   S11 Ph  |S21|   S21 Ph  |S12|   S12 Ph  |S22|   S22 Ph
   0.000    0.00    0.00 -999.00   90.00 -999.00   90.00    0.00    0.00
   0.400  -18.42  -84.72   -0.08    5.58   -0.06    5.57  -18.33  -83.25
   0.411  -18.67  -84.85   -0.07    5.34   -0.06    5.34  -18.56  -83.95
   0.423  -18.90  -84.99   -0.06    5.11   -0.05    5.10  -18.85  -84.52
   0.434  -19.12  -85.22   -0.06    4.88   -0.05    4.88  -19.16  -84.74
   0.445  -19.34  -85.54   -0.06    4.67   -0.05    4.66  -19.43  -84.57
   0.456  -19.57  -85.84   -0.06    4.48   -0.05    4.47  -19.65  -84.31
   0.468  -19.81  -86.09   -0.06    4.30   -0.05    4.29  -19.81  -84.28
   0.479  -20.04  -86.26   -0.05    4.12   -0.04    4.11  -19.97  -84.62
   0.490  -20.25  -86.34   -0.05    3.95   -0.04    3.94  -20.17  -85.18
   0.501  -20.46  -86.46   -0.05    3.77   -0.04    3.76  -20.41  -85.68
   0.513  -20.65  -86.65   -0.04    3.59   -0.03    3.59  -20.68  -85.86
   0.524  -20.84  -86.90   -0.04    3.43   -0.03    3.42  -20.93  -85.71
   0.535  -21.04  -87.16   -0.04    3.28   -0.03    3.27  -21.12  -85.45
   0.546  -21.25  -87.36   -0.04    3.14   -0.03    3.12  -21.27  -85.43
   0.558  -21.45  -87.52   -0.04    3.00   -0.03    2.98  -21.41  -85.70
   0.569  -21.64  -87.60   -0.04    2.86   -0.03    2.84  -21.58  -86.20
   0.580  -21.82  -87.71   -0.04    2.71   -0.02    2.70  -21.80  -86.65
   0.591  -21.99  -87.84   -0.04    2.57   -0.02    2.56  -22.03  -86.85
   0.603  -22.16  -88.05   -0.03    2.44   -0.02    2.42  -22.26  -86.73
   0.614  -22.34  -88.28   -0.03    2.32   -0.02    2.30  -22.43  -86.48
   0.625  -22.53  -88.44   -0.03    2.19   -0.02    2.18  -22.56  -86.39
   0.636  -22.71  -88.60   -0.03    2.07   -0.02    2.06  -22.67  -86.62
   0.648  -22.89  -88.65   -0.03    1.96   -0.02    1.94  -22.82  -87.06
   0.659  -23.05  -88.73   -0.03    1.84   -0.02    1.82  -23.02  -87.52
   0.670  -23.21  -88.86   -0.03    1.72   -0.02    1.71  -23.25  -87.72
   0.681  -23.36  -89.05   -0.03    1.60   -0.02    1.59  -23.46  -87.56
   0.693  -23.53  -89.28   -0.03    1.50   -0.02    1.48  -23.63  -87.26
   0.704  -23.71  -89.46   -0.03    1.39   -0.02    1.38  -23.75  -87.07
   0.715  -23.88  -89.55   -0.03    1.29   -0.01    1.27  -23.85  -87.25
   0.726  -24.04  -89.58   -0.02    1.19   -0.01    1.17  -23.98  -87.74
   0.738  -24.19  -89.65   -0.02    1.08   -0.01    1.06  -24.17  -88.26
   0.749  -24.33  -89.77   -0.02    0.98   -0.01    0.96  -24.39  -88.46
   0.760  -24.47  -89.97   -0.02    0.88   -0.01    0.86  -24.60  -88.31
   0.771  -24.62  -90.17   -0.02    0.78   -0.01    0.77  -24.76  -87.91
   0.783  -24.78  -90.32   -0.02    0.69   -0.01    0.67  -24.86  -87.73
   0.794  -24.94  -90.38   -0.02    0.60   -0.01    0.58  -24.94  -87.92
   0.805  -25.09  -90.42   -0.02    0.50   -0.01    0.48  -25.05  -88.44
   0.816  -25.23  -90.47   -0.02    0.41   -0.01    0.39  -25.23  -88.98
   0.828  -25.37  -90.57   -0.02    0.32   -0.01    0.30  -25.45  -89.21
   0.839  -25.50  -90.77   -0.02    0.23   -0.01    0.21  -25.66  -88.98
   0.850  -25.65  -90.97   -0.02    0.14   -0.01    0.12  -25.81  -88.54
   0.861  -25.82  -91.13   -0.02    0.06   -0.01    0.04  -25.89  -88.26
   0.873  -25.97  -91.19   -0.02   -0.03   -0.01   -0.05  -25.96  -88.42
   0.884  -26.12  -91.20   -0.02   -0.11   -0.01   -0.13  -26.07  -88.97
   0.895  -26.25  -91.23   -0.02   -0.20   -0.01   -0.21  -26.24  -89.57
   0.906  -26.37  -91.32   -0.02   -0.29    0.00   -0.30  -26.47  -89.82
   0.918  -26.50  -91.51   -0.02   -0.36    0.00   -0.38  -26.69  -89.56
   0.929  -26.64  -91.74   -0.02   -0.45   -0.01   -0.46  -26.84  -89.02
   0.940  -26.78  -91.90   -0.02   -0.52    0.00   -0.54  -26.91  -88.69
   0.951  -26.94  -91.98   -0.01   -0.60    0.00   -0.61  -26.96  -88.89
   0.963  -27.08  -91.95   -0.01   -0.67    0.00   -0.70  -27.05  -89.52
   0.974  -27.21  -91.94   -0.01   -0.75    0.00   -0.78  -27.23  -90.17
   0.985  -27.32  -92.04   -0.01   -0.83    0.00   -0.85  -27.46  -90.44
   0.996  -27.45  -92.21   -0.01   -0.91    0.00   -0.93  -27.68  -90.17
   1.008  -27.58  -92.44   -0.01   -0.98    0.00   -1.00  -27.82  -89.53
   1.019  -27.74  -92.62   -0.01   -1.06    0.00   -1.07  -27.88  -89.14
   1.030  -27.89  -92.72   -0.01   -1.12    0.00   -1.15  -27.91  -89.34
   1.041  -28.04  -92.75   -0.01   -1.20    0.00   -1.22  -28.00  -89.99
   1.053  -28.16  -92.75   -0.01   -1.28    0.00   -1.29  -28.17  -90.68
   1.064  -28.28  -92.76   -0.01   -1.35    0.00   -1.37  -28.41  -90.97
   1.075  -28.41  -92.89   -0.01   -1.41    0.00   -1.44  -28.65  -90.59
   1.086  -28.53  -93.11   -0.01   -1.49    0.00   -1.51  -28.79  -89.83
   1.098  -28.67  -93.29   -0.01   -1.56    0.00   -1.58  -28.84  -89.37
   1.109  -28.81  -93.39   -0.01   -1.62    0.00   -1.65  -28.85  -89.60
   1.120  -28.95  -93.41   -0.01   -1.69    0.00   -1.72  -28.93  -90.36
   1.131  -29.07  -93.45   -0.01   -1.76    0.00   -1.79  -29.11  -91.21
   1.143  -29.19  -93.51   -0.01   -1.84    0.00   -1.86  -29.37  -91.53
   1.154  -29.31  -93.65   -0.01   -1.90   -0.01   -1.92  -29.62  -91.08
   1.165  -29.45  -93.80   -0.01   -1.96    0.00   -1.99  -29.76  -90.27
   1.176  -29.59  -93.92   -0.01   -2.03    0.00   -2.05  -29.79  -89.77
   1.188  -29.73  -93.98   -0.01   -2.09    0.00   -2.12  -29.79  -90.00
   1.199  -29.87  -93.97   -0.01   -2.16   -0.01   -2.19  -29.87  -90.91
   1.210  -29.99  -94.01   -0.01   -2.22   -0.01   -2.25  -30.06  -91.82
   1.221  -30.12  -94.12   -0.01   -2.30   -0.01   -2.32  -30.34  -92.11
   1.233  -30.26  -94.22   -0.01   -2.36   -0.01   -2.38  -30.60  -91.52
   1.244  -30.39  -94.36   -0.01   -2.43   -0.01   -2.45  -30.74  -90.56
   1.255  -30.53  -94.44   -0.01   -2.49   -0.01   -2.51  -30.75  -89.92
   1.266  -30.67  -94.53   -0.01   -2.55   -0.01   -2.58  -30.73  -90.21
   1.278  -30.80  -94.55   -0.01   -2.61   -0.01   -2.63  -30.80  -91.25
   1.289  -30.92  -94.63   -0.01   -2.67    0.00   -2.70  -31.01  -92.19
   1.300  -31.05  -94.78   -0.01   -2.73    0.00   -2.76  -31.32  -92.49
   1.311  -31.17  -94.99   -0.01   -2.80   -0.01   -2.82  -31.59  -91.88
   1.323  -31.32  -95.12   -0.01   -2.86    0.00   -2.89  -31.72  -90.72
   1.334  -31.46  -95.25   -0.01   -2.92   -0.01   -2.95  -31.71  -90.13
   1.345  -31.61  -95.25   -0.01   -2.98   -0.01   -3.01  -31.67  -90.55
   1.356  -31.75  -95.30   -0.01   -3.04   -0.01   -3.07  -31.75  -91.74
   1.368  -31.87  -95.28   -0.01   -3.10   -0.01   -3.13  -31.98  -92.89
   1.379  -31.99  -95.42   -0.01   -3.16   -0.01   -3.19  -32.31  -93.12
   1.390  -32.14  -95.66   -0.01   -3.23   -0.01   -3.25  -32.61  -92.33
   1.401  -32.30  -95.69   -0.01   -3.28   -0.01   -3.31  -32.74  -90.98
   1.413  -32.44  -95.71   -0.01   -3.34   -0.01   -3.37  -32.72  -90.23
   1.424  -32.57  -95.68   -0.01   -3.40   -0.01   -3.43  -32.67  -90.65
   1.435  -32.70  -95.62   -0.01   -3.47   -0.01   -3.50  -32.73  -91.97
   1.446  -32.82  -95.77   -0.01   -3.53   -0.01   -3.55  -32.99  -93.18
   1.458  -32.94  -96.04   -0.01   -3.58   -0.01   -3.62  -33.36  -93.51
   1.469  -33.10  -96.36   -0.01   -3.65   -0.01   -3.68  -33.69  -92.44
   1.480  -33.28  -96.52   -0.01   -3.71   -0.01   -3.73  -33.82  -90.79
   1.491  -33.47  -96.51   -0.01   -3.77   -0.01   -3.79  -33.75  -89.91
   1.503  -33.63  -96.20   -0.01   -3.82   -0.01   -3.85  -33.66  -90.46
   1.514  -33.78  -96.11   -0.01   -3.88   -0.01   -3.91  -33.71  -91.97
   1.525  -33.91  -96.31   -0.01   -3.93   -0.01   -3.96  -33.96  -93.52
   1.536  -34.01  -96.24   -0.01   -3.99   -0.01   -4.03  -34.36  -93.98
   1.548  -34.17  -96.59   -0.01   -4.05   -0.01   -4.08  -34.70  -92.95
   1.559  -34.32  -96.80   -0.01   -4.11   -0.01   -4.14  -34.84  -91.36
   1.570  -34.53  -96.77   -0.01   -4.16   -0.01   -4.20  -34.77  -90.45
   1.581  -34.71  -96.45   -0.01   -4.21   -0.01   -4.25  -34.69  -91.21
   1.593  -34.84  -96.06   -0.01   -4.28   -0.01   -4.31  -34.76  -92.90
   1.604  -34.94  -95.84   -0.01   -4.33   -0.01   -4.36  -35.07  -94.57
   1.615  -35.05  -95.84   -0.01   -4.38    0.00   -4.42  -35.54  -94.93
   1.626  -35.14  -95.97   -0.01   -4.44    0.00   -4.47  -35.94  -93.52
   1.638  -35.28  -96.27   -0.01   -4.50    0.00   -4.53  -36.08  -91.62
   1.649  -35.44  -96.44   -0.01   -4.55    0.00   -4.59  -35.99  -90.63
   1.660  -35.57  -96.64   -0.01   -4.60    0.00   -4.64  -35.89  -91.55
   1.671  -35.72  -96.69   -0.01   -4.66    0.00   -4.69  -35.99  -93.46
   1.683  -35.86  -96.95   -0.01   -4.72    0.00   -4.75  -36.35  -95.48
   1.694  -36.01  -97.33   -0.01   -4.77    0.00   -4.80  -36.89  -95.68
   1.705  -36.17  -97.70   -0.01   -4.83    0.00   -4.86  -37.36  -93.86
   1.716  -36.37  -98.04   -0.01   -4.88    0.00   -4.92  -37.49  -91.34
   1.728  -36.59  -98.25   -0.01   -4.94    0.00   -4.97  -37.32  -90.13
   1.739  -36.79  -98.32   -0.01   -4.99    0.00   -5.03  -37.14  -91.16
   1.750  -36.97  -98.26   -0.01   -5.04    0.00   -5.08  -37.24  -93.52
   1.761  -37.13  -98.26   -0.01   -5.10    0.00   -5.13  -37.64  -95.60
   1.773  -37.30  -98.46   -0.01   -5.15    0.00   -5.18  -38.25  -96.02
   1.784  -37.49  -98.72   -0.01   -5.21    0.00   -5.24  -38.79  -93.98
   1.795  -37.71  -98.82   -0.01   -5.26    0.00   -5.30  -38.91  -91.01
   1.806  -37.94  -98.95   -0.01   -5.32    0.00   -5.35  -38.69  -89.64
   1.818  -38.14  -98.80   -0.01   -5.37    0.00   -5.40  -38.53  -91.08
   1.829  -38.32  -98.48   -0.01   -5.42    0.00   -5.46  -38.65  -94.08
   1.840  -38.49  -98.57   -0.01   -5.47    0.00   -5.51  -39.16  -96.78
   1.851  -38.66  -98.56   -0.01   -5.53    0.00   -5.57  -39.91  -97.02
   1.863  -38.85  -99.00   -0.01   -5.58    0.00   -5.62  -40.55  -94.57
   1.874  -39.08  -99.23   -0.01   -5.64    0.00   -5.67  -40.69  -90.71
   1.885  -39.33  -99.44   -0.01   -5.68    0.00   -5.72  -40.42  -89.43
   1.896  -39.58  -99.49   -0.01   -5.75    0.00   -5.77  -40.20  -91.17
   1.908  -39.82  -99.15   -0.01   -5.79    0.00   -5.83  -40.36  -94.72
   1.919  -40.00  -99.28   -0.01   -5.85    0.00   -5.88  -40.97  -97.81
   1.930  -40.22  -99.51   -0.01   -5.90    0.00   -5.93  -41.92  -98.05
   1.941  -40.48  -99.95   -0.01   -5.95    0.00   -5.99  -42.71  -94.33
   1.953  -40.77 -100.31   -0.01   -6.00    0.00   -6.04  -42.81  -89.05
   1.964  -41.06 -100.46   -0.01   -6.06    0.00   -6.09  -42.37  -87.22
   1.975  -41.35 -100.29   -0.01   -6.11    0.00   -6.15  -42.05  -89.60
   1.986  -41.60 -100.25   -0.01   -6.17    0.00   -6.19  -42.24  -94.31
   1.998  -41.82 -100.34   -0.01   -6.22    0.00   -6.25  -43.12  -98.00
   2.009  -42.10 -100.41   -0.01   -6.26    0.00   -6.30  -44.37  -98.35
   2.020  -42.40 -100.54   -0.01   -6.32    0.00   -6.36  -45.33  -92.73
   2.031  -42.72 -100.64   -0.01   -6.37    0.00   -6.41  -45.36  -85.84
   2.043  -43.02 -100.49   -0.01   -6.43    0.00   -6.46  -44.73  -84.02
   2.054  -43.34 -100.36   -0.01   -6.48    0.00   -6.51  -44.36  -87.69
   2.065  -43.63 -100.33   -0.01   -6.54    0.00   -6.57  -44.66  -94.07
   2.076  -43.96 -100.93   -0.01   -6.58    0.00   -6.62  -45.73  -99.71
   2.088  -44.32 -101.32   -0.01   -6.64    0.00   -6.67  -47.49 -100.35
   2.099  -44.76 -101.77   -0.01   -6.69    0.00   -6.72  -48.99  -92.23
   2.110  -45.27 -101.70   -0.01   -6.75    0.00   -6.78  -48.98  -82.28
   2.121  -45.73 -101.26   -0.01   -6.79    0.00   -6.82  -48.08  -79.28
   2.133  -46.07 -100.37   -0.01   -6.85   -0.01   -6.88  -47.59  -84.10
   2.144  -46.39  -99.62   -0.01   -6.90    0.00   -6.93  -48.03  -93.06
   2.155  -46.59 -100.84   -0.02   -6.95   -0.01   -6.98  -49.71 -100.73
   2.166  -46.99 -101.77   -0.01   -7.01   -0.01   -7.03  -52.65 -100.93
   2.178  -47.58 -103.22   -0.01   -7.06   -0.01   -7.08  -55.25  -82.82
   2.189  -48.35 -103.92   -0.01   -7.11   -0.01   -7.14  -54.24  -64.03
   2.200  -49.07 -103.36   -0.01   -7.16   -0.01   -7.19  -52.49  -63.20
   2.211  -49.79 -101.94   -0.01   -7.21   -0.01   -7.25  -52.08  -73.92
   2.223  -50.35 -101.10   -0.01   -7.27   -0.01   -7.30  -53.29  -88.96
   2.234  -50.91 -100.99   -0.02   -7.32   -0.01   -7.35  -56.89 -105.26
   2.245  -51.56 -101.56   -0.02   -7.37   -0.01   -7.40  -66.94 -108.27
   2.256  -52.48 -103.81   -0.02   -7.42   -0.01   -7.45  -65.41   11.43
   2.268  -53.63 -104.75   -0.02   -7.47   -0.01   -7.50  -58.58    2.28
   2.279  -54.86 -105.61   -0.02   -7.52   -0.01   -7.55  -56.98  -14.97
   2.290  -56.49 -104.59   -0.02   -7.57   -0.01   -7.60  -58.70  -35.72
   2.301  -57.61 -105.50   -0.02   -7.62   -0.01   -7.65  -66.67  -59.24
   2.313  -59.04 -105.91   -0.02   -7.68   -0.01   -7.71  -66.92  105.40
   2.324  -61.08 -112.74   -0.02   -7.73   -0.01   -7.75  -57.23   83.67
   2.335  -64.72 -122.89   -0.02   -7.78   -0.01   -7.82  -53.52   65.94
   2.346  -70.47 -143.05   -0.02   -7.83   -0.01   -7.86  -52.36   49.22
   2.358  -77.55  136.27   -0.02   -7.89   -0.01   -7.92  -53.13   37.13
   2.369  -71.33   81.23   -0.02   -7.94   -0.01   -7.97  -55.36   39.88
   2.380  -66.42   81.30   -0.02   -7.99   -0.01   -8.02  -56.41   65.66
   2.391  -62.90   76.64   -0.02   -8.05   -0.01   -8.08  -52.83   82.69
   2.403  -60.54   78.29   -0.02   -8.10   -0.01   -8.13  -49.74   79.23
   2.414  -58.10   77.66   -0.02   -8.16   -0.01   -8.18  -48.22   69.94
   2.425  -56.30   75.25   -0.02   -8.20   -0.01   -8.24  -47.77   60.06
   2.436  -54.96   72.61   -0.02   -8.25   -0.01   -8.30  -48.53   55.04
   2.448  -53.98   71.68   -0.02   -8.31   -0.01   -8.34  -49.69   58.42
   2.459  -53.16   71.84   -0.02   -8.37   -0.01   -8.40  -49.74   71.81
   2.470  -52.42   72.91   -0.02   -8.42   -0.01   -8.45  -47.86   80.13
   2.481  -51.63   73.19   -0.02   -8.47   -0.01   -8.50  -45.99   77.89
   2.493  -50.78   74.29   -0.02   -8.52   -0.01   -8.56  -44.95   70.64
   2.504  -50.09   73.70   -0.02   -8.58   -0.01   -8.61  -44.96   63.31
   2.515  -49.47   73.54   -0.02   -8.62   -0.01   -8.67  -45.70   60.35
   2.526  -49.05   73.67   -0.02   -8.68   -0.01   -8.72  -46.64   65.51
   2.538  -48.70   74.08   -0.02   -8.74   -0.01   -8.77  -46.32   75.92
   2.549  -48.24   75.40   -0.02   -8.79   -0.01   -8.82  -44.82   82.22
   2.560  -47.63   76.89   -0.02   -8.84   -0.01   -8.88  -43.33   80.17
   2.571  -47.00   77.98   -0.02   -8.90   -0.01   -8.93  -42.47   75.03
   2.583  -46.36   78.16   -0.02   -8.95   -0.01   -8.98  -42.44   69.27
   2.594  -45.77   78.07   -0.02   -9.00   -0.02   -9.04  -43.00   67.43
   2.605  -45.25   77.32   -0.02   -9.05   -0.01   -9.10  -43.46   71.67
   2.616  -44.81   77.27   -0.02   -9.12   -0.01   -9.15  -43.12   78.78
   2.628  -44.38   77.74   -0.02   -9.17   -0.01   -9.21  -41.94   82.24
   2.639  -43.93   77.67   -0.02   -9.23   -0.01   -9.26  -40.76   80.84
   2.650  -43.41   77.99   -0.02   -9.28   -0.01   -9.32  -40.09   76.28
   2.661  -42.92   77.72   -0.02   -9.34   -0.02   -9.38  -40.03   71.91
   2.673  -42.49   77.49   -0.02   -9.39   -0.02   -9.43  -40.41   70.20
   2.684  -42.09   77.04   -0.02   -9.46   -0.02   -9.49  -40.77   73.12
   2.695  -41.72   76.78   -0.02   -9.52   -0.02   -9.55  -40.38   78.10
   2.706  -41.38   76.58   -0.02   -9.57   -0.02   -9.61  -39.47   80.49
   2.718  -41.02   77.01   -0.03   -9.63   -0.02   -9.67  -38.57   78.90
   2.729  -40.60   76.95   -0.03   -9.69   -0.02   -9.73  -38.06   75.18
   2.740  -40.20   76.36   -0.03   -9.75   -0.02   -9.79  -38.02   71.45
   2.751  -39.84   75.87   -0.03   -9.81   -0.02   -9.85  -38.32   70.34
   2.763  -39.46   75.29   -0.03   -9.88   -0.02   -9.91  -38.55   72.78
   2.774  -39.17   74.73   -0.03   -9.94   -0.02   -9.97  -38.29   76.97
   2.785  -38.85   74.51   -0.03  -10.00   -0.02  -10.04  -37.46   79.19
   2.796  -38.51   74.26   -0.03  -10.07   -0.02  -10.10  -36.62   77.99
   2.808  -38.11   73.87   -0.03  -10.14   -0.02  -10.17  -36.09   74.72
   2.819  -37.74   73.55   -0.03  -10.21   -0.02  -10.24  -36.00   71.65
   2.830  -37.40   72.43   -0.03  -10.27   -0.02  -10.31  -36.15   70.44
   2.841  -37.10   72.06   -0.03  -10.34   -0.02  -10.38  -36.26   72.31
   2.853  -36.78   71.66   -0.03  -10.42   -0.02  -10.45  -35.91   75.39
   2.864  -36.45   71.43   -0.04  -10.49   -0.03  -10.52  -35.18   76.90
   2.875  -36.11   71.11   -0.04  -10.56   -0.03  -10.60  -34.43   75.70
   2.886  -35.74   70.80   -0.04  -10.65   -0.03  -10.69  -33.94   72.78
   2.898  -35.35   70.46   -0.04  -10.73   -0.03  -10.76  -33.78   69.96
   2.909  -34.96   69.71   -0.04  -10.80   -0.03  -10.85  -33.85   68.80
   2.920  -34.56   68.93   -0.04  -10.89   -0.04  -10.94  -33.82   70.24
   2.931  -34.19   68.22   -0.05  -10.99   -0.04  -11.03  -33.44   72.38
   2.943  -33.80   67.46   -0.05  -11.08   -0.04  -11.13  -32.75   73.34
   2.954  -33.38   66.61   -0.05  -11.18   -0.05  -11.23  -32.01   71.90
   2.965  -32.91   65.81   -0.06  -11.29   -0.05  -11.33  -31.49   68.98
   2.976  -32.45   64.68   -0.07  -11.39   -0.06  -11.43  -31.21   66.27
   2.988  -31.97   63.30   -0.07  -11.50   -0.06  -11.54  -31.08   64.83
   2.999  -31.50   61.90   -0.08  -11.62   -0.07  -11.66  -30.87   65.19
   3.010  -30.99   60.31   -0.09  -11.74   -0.08  -11.79  -30.38   66.15
   3.021  -30.46   58.62   -0.10  -11.88   -0.09  -11.93  -29.63   65.91
   3.033  -29.90   56.68   -0.11  -12.02   -0.11  -12.07  -28.80   63.86
   3.044  -28.83   53.07   -0.13  -12.18   -0.12  -12.21  -28.31   60.95
   3.055  -28.22   50.64   -0.15  -12.33   -0.15  -12.37  -27.76   58.22
   3.066  -27.55   47.79   -0.18  -12.48   -0.17  -12.53  -27.21   55.53
   3.078  -26.89   44.38   -0.22  -12.65   -0.21  -12.69  -26.60   52.73
   3.089  -26.17   40.38   -0.26  -12.78   -0.25  -12.83  -25.89   49.48
   3.100  -25.44   35.62   -0.32  -12.89   -0.31  -12.94  -25.09   45.07
   3.111  -24.70   29.70   -0.38  -12.93   -0.37  -12.97  -24.31   39.27
   3.123  -24.00   22.58   -0.46  -12.84   -0.45  -12.88  -23.62   32.00
   3.134  -23.41   13.93   -0.55  -12.55   -0.54  -12.59  -23.05   23.30
   3.145  -23.02    4.04   -0.62  -12.02   -0.61  -12.06  -22.71   13.40
   3.156  -22.90   -6.85   -0.66  -11.27   -0.65  -11.32  -22.67    2.72
   3.168  -23.11  -17.99   -0.65  -10.47   -0.65  -10.52  -22.95   -7.93
   3.179  -23.66  -28.54   -0.60   -9.79   -0.59   -9.84  -23.53  -17.83
   3.190  -24.46  -37.90   -0.52   -9.34   -0.51   -9.39  -24.32  -26.49
   3.201  -25.41  -45.85   -0.44   -9.14   -0.43   -9.19  -25.23  -33.78
   3.213  -26.44  -52.33   -0.36   -9.09   -0.35   -9.15  -26.19  -40.02
   3.224  -27.48  -57.72   -0.30   -9.15   -0.29   -9.21  -27.20  -45.35
   3.235  -28.55  -62.18   -0.25   -9.28   -0.24   -9.33  -28.29  -49.98
   3.246  -29.58  -65.96   -0.21   -9.42   -0.20   -9.47  -29.44  -53.35
   3.258  -30.62  -69.10   -0.18   -9.56   -0.17   -9.62  -30.58  -55.35
   3.269  -31.65  -71.73   -0.15   -9.72   -0.15   -9.78  -31.62  -55.96
   3.280  -32.67  -73.68   -0.13   -9.87   -0.13   -9.92  -32.46  -56.52
   3.291  -33.68  -75.22   -0.12  -10.02   -0.11  -10.06  -33.20  -57.50
   3.303  -34.63  -76.29   -0.10  -10.14   -0.10  -10.20  -33.95  -59.29
   3.314  -35.56  -77.21   -0.09  -10.28   -0.09  -10.33  -34.88  -61.35
   3.325  -36.50  -78.07   -0.09  -10.40   -0.08  -10.45  -36.00  -62.55
   3.336  -37.43  -78.57   -0.08  -10.50   -0.07  -10.56  -37.19  -61.69
