!  American Technical Ceramics  Date:   10/26/00
!  One Norden Lane
!  Huntington Station,  NY.   11746-2102
!  Tel:  (631) 622-4700               Fax:  (631) 622-4748
!  Part Number  600S3R0BW      Mounting Orientation: Horizontal
!  Description: Ultra Low ESR Microwave capacitors
!  Application: Coupling, Bypass, Tuning, DC Block
!               Filters, Matching
# GHZ S DB R 50
! Freq   |S11|   S11 Ph  |S21|   S21 Ph  |S12|   S12 Ph  |S22|   S22 Ph
   0.000   0.00    0.00	  -999.00  90.00  -999.00  90.00    0.00    0.00
   0.400   -1.99  -38.28   -4.41   51.54   -4.41   51.46   -1.97  -37.99
   0.465   -2.51  -42.72   -3.62   47.07   -3.63   46.91   -2.51  -42.49
   0.530   -3.08  -46.45   -3.01   43.10   -3.03   42.22   -3.09  -46.81
   0.595   -3.64  -50.49   -2.55   39.67   -2.56   39.47   -3.62  -49.17
   0.660   -4.12  -53.52   -2.16   36.42   -2.19   36.67   -4.17  -52.29
   0.725   -4.69  -55.90   -1.86   33.60   -1.87   33.57   -4.67  -55.66
   0.790   -5.16  -58.63   -1.60   30.82   -1.60   30.59   -5.21  -58.75
   0.855   -5.71  -61.29   -1.42   28.70   -1.42   28.36   -5.72  -60.60
   0.920   -6.18  -63.32   -1.23   26.65   -1.27   26.42   -6.19  -62.55
   0.985   -6.65  -65.41   -1.10   24.65   -1.09   24.83   -6.66  -63.98
   1.050   -7.09  -66.62   -0.96   22.85   -0.98   22.95   -7.13  -66.61
   1.115   -7.55  -68.22   -0.86   21.29   -0.88   21.08   -7.56  -68.42
   1.180   -8.01  -70.42   -0.79   19.72   -0.79   19.43   -8.02  -69.41
   1.245   -8.41  -71.50   -0.69   18.52   -0.70   18.37   -8.39  -70.71
   1.310   -8.83  -72.60   -0.64   17.14   -0.65   17.23   -8.82  -72.03
   1.375   -9.21  -73.64   -0.57   15.88   -0.56   15.90   -9.20  -73.47
   1.440   -9.59  -74.80   -0.53   14.71   -0.54   14.60   -9.65  -74.85
   1.505  -10.00  -76.10   -0.47   13.75   -0.49   13.42   -9.96  -75.58
   1.570  -10.37  -77.05   -0.45   12.77   -0.46   12.70  -10.35  -76.34
   1.635  -10.69  -77.57   -0.41   11.68   -0.40   11.78  -10.70  -77.63
   1.700  -11.05  -78.13   -0.37   10.89   -0.38   10.85  -11.04  -78.75
   1.765  -11.36  -79.34   -0.35    9.92   -0.35    9.82  -11.40  -79.66
   1.830  -11.73  -80.28   -0.32    9.26   -0.34    9.01  -11.70  -80.08
   1.895  -12.04  -80.97   -0.30    8.40   -0.31    8.30  -12.02  -81.11
   1.960  -12.32  -81.28   -0.28    7.62   -0.28    7.74  -12.36  -82.07
   2.025  -12.65  -81.98   -0.26    6.89   -0.27    6.84  -12.66  -82.99
   2.090  -12.95  -82.81   -0.24    6.19   -0.25    6.07  -12.96  -83.65
   2.155  -13.24  -83.66   -0.23    5.55   -0.24    5.35  -13.26  -84.16
   2.220  -13.54  -83.90   -0.21    4.94   -0.22    4.85  -13.54  -84.98
   2.285  -13.82  -84.23   -0.21    4.24   -0.21    4.29  -13.84  -85.84
   2.350  -14.08  -84.73   -0.19    3.60   -0.19    3.61  -14.12  -86.57
   2.415  -14.40  -85.56   -0.18    3.07   -0.20    2.90  -14.38  -86.74
   2.480  -14.66  -86.00   -0.18    2.45   -0.19    2.31  -14.66  -87.29
   2.545  -14.90  -85.91   -0.17    1.90   -0.17    1.89  -14.91  -88.15
   2.610  -15.15  -86.21   -0.16    1.40   -0.17    1.43  -15.17  -88.72
   2.675  -15.39  -86.55   -0.16    0.83   -0.17    0.85  -15.43  -89.32
   2.740  -15.62  -87.29   -0.15    0.37   -0.15    0.22  -15.66  -89.57
   2.805  -15.86  -87.57   -0.15   -0.09   -0.16   -0.23  -15.89  -90.15
   2.870  -16.03  -87.68   -0.14   -0.60   -0.15   -0.61  -16.14  -91.09
   2.935  -16.21  -88.18   -0.14   -1.06   -0.14   -1.03  -16.41  -91.49
   3.000  -16.51  -89.71   -0.12   -1.50   -0.14   -1.54  -16.55  -91.06
   3.065  -16.76  -90.36   -0.12   -1.97   -0.12   -2.10  -16.77  -91.52
   3.130  -17.04  -90.53   -0.10   -2.47   -0.12   -2.57  -16.93  -91.97
   3.195  -17.21  -90.38   -0.10   -2.88   -0.10   -2.90  -17.17  -92.75
   3.260  -17.43  -90.86   -0.10   -3.36   -0.10   -3.36  -17.37  -93.09
   3.325  -17.63  -91.31   -0.10   -3.75   -0.10   -3.78  -17.56  -93.10
   3.390  -17.85  -91.75   -0.10   -4.15   -0.11   -4.24  -17.69  -93.72
   3.455  -18.01  -92.15   -0.09   -4.51   -0.10   -4.64  -17.91  -94.37
   3.520  -18.22  -92.09   -0.09   -4.98   -0.09   -4.93  -18.11  -95.45
   3.585  -18.39  -92.92   -0.08   -5.31   -0.08   -5.35  -18.31  -95.72
   3.650  -18.62  -93.52   -0.08   -5.77   -0.08   -5.80  -18.50  -96.30
   3.715  -18.81  -93.92   -0.07   -6.12   -0.08   -6.25  -18.75  -96.73
   3.780  -19.06  -94.02   -0.07   -6.55   -0.08   -6.62  -18.97  -97.50
   3.845  -19.24  -94.23   -0.07   -6.92   -0.07   -6.96  -19.18  -97.99
   3.910  -19.44  -94.63   -0.07   -7.27   -0.07   -7.30  -19.39  -98.19
   3.975  -19.41  -94.48   -0.06   -7.69   -0.07   -7.75  -19.30  -97.67
   4.040  -19.85  -95.12   -0.07   -8.02   -0.07   -8.15  -19.78  -98.87
   4.105  -20.05  -95.20   -0.06   -8.41   -0.06   -8.49  -19.97  -99.66
   4.170  -20.20  -95.27   -0.06   -8.76   -0.07   -8.78  -20.23  -99.96
   4.235  -20.44  -95.84   -0.06   -9.18   -0.06   -9.20  -20.39 -100.18
   4.300  -20.61  -96.22   -0.06   -9.49   -0.06   -9.55  -20.57 -100.58
   4.365  -20.78  -96.39   -0.06   -9.88   -0.06  -10.00  -20.79 -101.30
   4.430  -20.93  -96.84   -0.06  -10.22   -0.07  -10.29  -21.03 -102.16
   4.495  -21.23  -97.41   -0.06  -10.48   -0.07  -10.55  -21.31 -102.22
   4.560  -21.45  -97.35   -0.05  -10.83   -0.05  -10.84  -21.43 -101.64
   4.625  -21.65  -97.32   -0.05  -11.20   -0.05  -11.29  -21.58 -102.45
   4.690  -21.80  -97.33   -0.04  -11.54   -0.04  -11.65  -21.73 -102.77
   4.755  -21.94  -97.06   -0.05  -11.93   -0.06  -12.00  -21.97 -103.61
   4.820  -22.13  -97.62   -0.04  -12.31   -0.04  -12.26  -22.11 -104.07
   4.885  -22.27  -98.26   -0.05  -12.60   -0.05  -12.63  -22.30 -104.02
   4.950  -22.51  -98.32   -0.04  -12.97   -0.05  -13.00  -22.43 -104.78
   5.015  -22.64  -98.48   -0.04  -13.31   -0.05  -13.39  -22.70 -105.37
   5.080  -22.86  -98.60   -0.04  -13.67   -0.05  -13.70  -22.81 -106.02
   5.145  -22.98  -98.99   -0.05  -13.99   -0.04  -14.01  -23.03 -106.36
   5.210  -23.18  -99.66   -0.04  -14.39   -0.04  -14.42  -23.14 -106.89
   5.275  -23.27 -100.41   -0.05  -14.70   -0.06  -14.79  -23.26 -107.47
   5.340  -23.30 -100.79   -0.06  -15.18   -0.07  -15.26  -23.37 -109.67
   5.405  -23.21 -103.97   -0.08  -15.57   -0.09  -15.60  -23.48 -112.55
   5.470  -23.71 -111.24   -0.16  -15.63   -0.15  -15.65  -24.26 -119.04
   5.535  -25.59 -111.93   -0.11  -15.36   -0.12  -15.42  -26.00 -114.50
   5.600  -26.07 -105.68   -0.06  -15.73   -0.07  -15.82  -26.05 -108.43
   5.665  -26.21 -103.81   -0.04  -16.17   -0.05  -16.24  -25.94 -106.13
   5.730  -26.57 -102.91   -0.04  -16.57   -0.04  -16.64  -25.86 -104.79
   5.795  -27.18 -100.54   -0.03  -16.92   -0.04  -16.94  -25.48 -102.96
   5.860  -26.89  -94.87   -0.03  -17.29   -0.04  -17.34  -25.10 -107.17
   5.925  -26.48  -96.59   -0.04  -17.67   -0.04  -17.72  -25.55 -110.54
   5.990  -26.55  -98.32   -0.04  -17.98   -0.04  -18.05  -26.10 -111.39
   6.055  -26.92  -99.98   -0.04  -18.30   -0.04  -18.30  -26.38 -111.38
   6.120  -27.21 -100.81   -0.04  -18.63   -0.05  -18.65  -26.69 -111.22
   6.185  -27.56 -102.04   -0.05  -18.95   -0.05  -18.99  -26.93 -110.78
   6.250  -27.98 -102.09   -0.05  -19.27   -0.05  -19.33  -27.14 -111.64
   6.315  -28.39 -102.85   -0.05  -19.59   -0.05  -19.63  -27.41 -111.24
   6.380  -28.95 -103.12   -0.06  -19.86   -0.06  -19.90  -27.62 -112.09
   6.445  -29.67 -103.36   -0.06  -20.10   -0.07  -20.14  -27.78 -113.30
   6.510  -30.24 -101.50   -0.06  -20.39   -0.07  -20.43  -28.18 -114.66
   6.575  -30.67  -98.70   -0.06  -20.61   -0.06  -20.65  -28.79 -115.92
   6.640  -30.89  -97.15   -0.05  -20.89   -0.05  -20.92  -29.34 -116.66
   6.705  -31.13  -96.32   -0.05  -21.18   -0.05  -21.24  -29.91 -116.05
   6.770  -31.41  -96.20   -0.04  -21.49   -0.05  -21.53  -30.50 -115.51
   6.835  -31.74  -97.32   -0.04  -21.77   -0.03  -21.82  -30.90 -114.57
   6.900  -32.08  -96.81   -0.03  -22.13   -0.04  -22.18  -31.52 -113.99
   6.965  -32.57  -97.57   -0.04  -22.46   -0.04  -22.50  -32.01 -113.39
   7.030  -33.15  -98.42   -0.04  -22.76   -0.04  -22.81  -32.44 -111.82
   7.095  -33.72  -97.92   -0.03  -23.10   -0.04  -23.15  -32.94 -110.12
   7.160  -34.40  -98.89   -0.03  -23.41   -0.04  -23.45  -33.34 -109.60
   7.225  -35.05 -100.04   -0.04  -23.72   -0.04  -23.76  -33.91 -108.21
   7.290  -35.95 -101.34   -0.04  -24.04   -0.04  -24.10  -34.44 -106.60
   7.355  -37.27 -104.57   -0.04  -24.37   -0.05  -24.42  -34.78 -105.20
   7.420  -38.70 -106.87   -0.05  -24.65   -0.06  -24.67  -35.11 -103.29
   7.485  -41.45 -106.25   -0.06  -24.97   -0.06  -25.00  -35.55 -104.14
   7.550  -44.88 -100.88   -0.07  -25.22   -0.07  -25.24  -36.19 -106.15
   7.615  -49.10  -86.91   -0.07  -25.46   -0.07  -25.46  -37.06 -106.13
   7.680  -51.16  -23.09   -0.08  -25.68   -0.09  -25.72  -37.96 -111.29
   7.745  -44.65   -6.66   -0.08  -25.78   -0.08  -25.87  -40.40 -119.62
   7.810  -42.75  -14.71   -0.05  -26.03   -0.05  -26.04  -45.70 -118.62
   7.875  -42.71  -12.04   -0.04  -26.33   -0.03  -26.35  -51.37  -75.99
   7.940  -43.07   -6.22   -0.03  -26.72   -0.04  -26.78  -49.31  -27.78
   8.005  -42.64   -0.37   -0.03  -27.00   -0.04  -27.04  -45.59   -8.76
   8.070  -42.27    3.83   -0.02  -27.33   -0.03  -27.42  -43.16   -4.37
   8.135  -42.49    9.34   -0.02  -27.64   -0.03  -27.69  -41.66    0.33
   8.200  -42.41   17.78   -0.02  -27.95   -0.02  -28.00  -40.44    6.62
   8.265  -42.42   26.95   -0.02  -28.31   -0.02  -28.37  -39.18    9.02
   8.330  -43.23  162.33   -0.02  -28.62   -0.02  -28.70  -33.90  -31.33
   8.395  -41.64  130.56   -0.02  -28.97   -0.02  -28.98  -33.36  -22.92
   8.460  -39.12  110.48   -0.03  -29.27   -0.03  -29.27  -32.80  -15.87
   8.525  -36.67   97.31   -0.03  -29.59   -0.03  -29.64  -32.00   -7.16
   8.590  -34.68   89.20   -0.03  -29.90   -0.04  -29.90  -31.11   -0.77
   8.655  -33.24   83.77   -0.04  -30.21   -0.05  -30.21  -30.14    3.99
   8.720  -31.78   80.45   -0.04  -30.46   -0.05  -30.57  -29.25    7.41
   8.785  -30.67   78.77   -0.05  -30.78   -0.05  -30.81  -28.39    9.16
   8.850  -29.59   76.37   -0.05  -31.04   -0.06  -31.12  -27.73   10.95
   8.915  -28.67   74.13   -0.05  -31.32   -0.06  -31.41  -27.16   13.10
   8.980  -27.96   73.36   -0.06  -31.62   -0.06  -31.64  -26.81   15.27
   9.045  -27.23   73.63   -0.06  -31.89   -0.06  -31.97  -26.31   17.95
   9.110  -26.45   73.71   -0.07  -32.17   -0.06  -32.22  -25.73   21.23
   9.175  -25.77   73.07   -0.07  -32.46   -0.07  -32.52  -25.03   23.77
   9.240  -25.09   72.37   -0.07  -32.71   -0.07  -32.78  -24.30   25.65
   9.305  -24.44   72.20   -0.07  -32.99   -0.08  -33.04  -23.65   26.70
   9.370  -23.86   71.90   -0.07  -33.29   -0.07  -33.30  -23.04   26.92
   9.435  -23.36   72.02   -0.07  -33.57   -0.06  -33.62  -22.53   26.88
   9.500  -22.88   71.65   -0.07  -33.86   -0.06  -33.85  -22.02   27.58
   9.565  -22.40   70.99   -0.06  -34.11   -0.06  -34.16  -21.61   27.97
   9.630  -21.88   71.69   -0.06  -34.43   -0.05  -34.50  -21.20   27.77
   9.695  -21.44   71.85   -0.04  -34.72   -0.04  -34.76  -20.82   27.92
   9.760  -20.96   71.46   -0.03  -35.10   -0.03  -35.12  -20.41   28.54
   9.825  -20.50   71.08   -0.01  -35.47   -0.02  -35.51  -20.05   28.92
   9.890  -20.08   70.67   -0.01  -35.98   -0.01  -35.94  -19.67   28.96
   9.955  -19.57   69.81    0.00  -36.37   -0.02  -36.42  -19.41   29.24
  10.020  -19.25   69.62   -0.02  -36.82   -0.02  -36.91  -19.05   28.75
  10.085  -19.01   68.17   -0.03  -37.23   -0.02  -37.21  -18.70   29.76
  10.150  -18.67   67.67   -0.03  -37.58   -0.03  -37.62  -18.40   30.10
  10.215  -18.46   67.79   -0.05  -38.06   -0.05  -38.06  -18.02   29.75
  10.280  -18.13   67.72   -0.06  -38.44   -0.06  -38.53  -17.69   29.56
  10.345  -17.79   67.46   -0.07  -38.84   -0.08  -38.91  -17.39   29.25
  10.410  -17.49   67.37   -0.08  -39.20   -0.08  -39.30  -17.08   28.87
  10.475  -17.14   66.08   -0.10  -39.67   -0.10  -39.60  -16.79   29.12
  10.540  -16.70   65.84   -0.11  -40.07   -0.12  -40.13  -16.59   28.32
  10.605  -16.43   64.64   -0.14  -40.49   -0.16  -40.57  -16.28   27.60
  10.670  -16.21   63.00   -0.16  -40.89   -0.16  -40.91  -15.95   27.79
  10.735  -15.92   62.14   -0.17  -41.25   -0.19  -41.31  -15.73   27.10
  10.800  -15.69   60.28   -0.19  -41.78   -0.19  -41.77  -15.37   27.11
  10.865  -15.37   59.08   -0.22  -42.27   -0.23  -42.27  -15.09   26.09
  10.930  -15.03   57.87   -0.25  -42.84   -0.26  -42.90  -14.76   25.02
  10.995  -14.75   55.20   -0.30  -43.49   -0.30  -43.48  -14.35   24.46
  11.060  -14.39   52.41   -0.37  -44.20   -0.36  -44.12  -13.84   23.32
  11.125  -13.90   49.35   -0.47  -44.92   -0.48  -44.84  -13.36   20.72
  11.190  -13.43   43.72   -0.65  -45.86   -0.66  -45.86  -12.67   17.02
  11.255  -12.86   35.29   -0.96  -46.47   -0.98  -46.44  -12.02   10.40
  11.320  -12.77   20.96   -1.48  -45.60   -1.48  -45.63  -11.49   -0.82
  11.385  -14.11    0.18   -1.82  -40.88   -1.79  -40.75  -12.18  -16.22
  11.450  -18.14  -15.11   -1.36  -36.39   -1.34  -36.55  -14.63  -28.41
  11.515  -23.94   -7.40   -0.77  -36.06   -0.79  -36.12  -17.81  -27.80
  11.580  -26.59   30.18   -0.44  -37.20   -0.45  -37.32  -19.81  -15.44
  11.645  -24.63   54.29   -0.28  -38.48   -0.28  -38.55  -20.41   -3.06
  11.710  -22.84   62.18   -0.18  -39.50   -0.18  -39.59  -20.20    5.78
  11.775  -21.51   64.17   -0.13  -40.45   -0.14  -40.49  -19.92   11.97
  11.840  -20.71   65.49   -0.10  -41.18   -0.11  -41.30  -19.50   15.00
  11.905  -20.06   64.95   -0.09  -41.89   -0.09  -41.97  -19.25   17.98
  11.970  -19.72   64.64   -0.07  -42.43   -0.07  -42.51  -18.94   19.68
  12.035  -19.43   64.07   -0.07  -42.98   -0.07  -42.98  -18.77   20.99
  12.100  -19.20   63.72   -0.06  -43.44   -0.06  -43.50  -18.62   21.58
  12.165  -18.98   62.90   -0.06  -43.94   -0.07  -43.98  -18.55   22.52
  12.230  -18.94   62.88   -0.06  -44.35   -0.07  -44.43  -18.44   22.66
  12.295  -18.81   61.69   -0.06  -44.75   -0.05  -44.73  -18.39   23.97
  12.360  -18.74   61.73   -0.05  -45.08   -0.06  -45.14  -18.39   23.97
  12.425  -18.71   60.75   -0.05  -45.51   -0.06  -45.47  -18.33   24.80
  12.490  -18.60   60.59   -0.05  -45.84   -0.06  -45.85  -18.34   24.67
  12.555  -18.66   59.51   -0.05  -46.21   -0.05  -46.18  -18.38   25.28
  12.620  -18.76   58.98   -0.05  -46.52   -0.05  -46.61  -18.33   25.50
  12.685  -18.74   58.28   -0.05  -46.83   -0.06  -46.87  -18.44   26.06
  12.750  -18.73   58.05   -0.04  -47.22   -0.04  -47.29  -18.53   25.86
  12.815  -18.90   57.01   -0.05  -47.52   -0.05  -47.61  -18.52   26.47
  12.880  -18.94   56.73   -0.04  -47.87   -0.04  -47.88  -18.64   26.69
  12.945  -19.10   55.77   -0.05  -48.11   -0.04  -48.18  -18.66   27.15
  13.010  -19.21   55.26   -0.06  -48.50   -0.06  -48.52  -18.77   27.36
  13.075  -19.25   55.48   -0.05  -48.72   -0.06  -48.81  -18.91   27.17
  13.140  -19.33   54.74   -0.06  -49.07   -0.07  -49.13  -19.07   27.23
  13.205  -19.51   53.82   -0.05  -49.39   -0.05  -49.57  -19.09   27.81
  13.270  -19.54   53.15   -0.06  -49.72   -0.06  -49.72  -19.38   28.15
  13.335  -19.71   52.45   -0.04  -50.00   -0.05  -50.03  -19.47   28.53
  13.400  -19.86   51.63   -0.06  -50.32   -0.08  -50.30  -19.68   29.00
  13.465  -20.01   51.39   -0.05  -50.60   -0.06  -50.55  -19.80   29.65
  13.530  -20.20   50.09   -0.05  -50.84   -0.06  -50.87  -19.90   30.27
  13.595  -20.34   49.40   -0.08  -51.22   -0.06  -51.12  -20.07   30.57
  13.660  -20.49   48.89   -0.07  -51.50   -0.07  -51.45  -20.22   30.95
  13.725  -20.68   48.12   -0.06  -51.75   -0.06  -51.78  -20.35   31.37
  13.790  -20.94   47.43   -0.05  -51.98   -0.08  -51.97  -20.43   32.07
  13.855  -21.07   46.88   -0.06  -52.30   -0.05  -52.32  -20.53   32.32
  13.920  -21.20   46.08   -0.04  -52.55   -0.05  -52.64  -20.68   32.29
  13.985  -21.21   45.23   -0.04  -52.90   -0.05  -52.94  -20.94   32.48
  14.050  -21.40   44.66   -0.05  -53.16   -0.03  -53.25  -21.14   32.63
  14.115  -21.53   42.79   -0.05  -53.47   -0.05  -53.63  -21.29   33.86
  14.180  -21.67   42.14   -0.05  -53.79   -0.05  -53.82  -21.44   34.27
  14.245  -21.72   40.35   -0.05  -54.07   -0.06  -54.07  -21.60   35.22
  14.310  -21.86   39.44   -0.06  -54.31   -0.06  -54.45  -21.71   35.37
  14.375  -22.08   37.68   -0.06  -54.63   -0.05  -54.63  -21.77   36.01
  14.440  -22.15   36.61   -0.05  -54.86   -0.05  -54.83  -21.82   35.92
  14.505  -22.25   35.20   -0.05  -55.18   -0.05  -55.22  -21.93   36.03
  14.570  -22.10   33.73   -0.04  -55.51   -0.05  -55.57  -22.12   35.52
  14.635  -22.18   31.30   -0.04  -55.89   -0.05  -55.85  -22.25   35.26
  14.700  -22.21   29.28   -0.04  -56.18   -0.05  -56.19  -22.51   34.56
  14.765  -22.28   26.12   -0.04  -56.40   -0.04  -56.43  -22.82   34.55
  14.830  -22.33   22.65   -0.03  -56.73   -0.02  -56.71  -23.43   35.74
  14.895  -22.70   20.01   -0.01  -57.08   -0.03  -57.09  -23.80   38.43
  14.960  -23.15   17.99   -0.02  -57.45   -0.02  -57.48  -23.84   42.65
  15.025  -23.53   17.97   -0.01  -57.83   -0.02  -57.92  -23.59   45.36
  15.090  -23.63   17.56   -0.03  -58.32   -0.02  -58.30  -23.32   47.22
  15.155  -23.63   18.23   -0.05  -58.67   -0.06  -58.65  -23.08   47.55
  15.220  -23.58   18.44   -0.07  -58.92   -0.07  -58.95  -22.96   47.42
  15.285  -23.48   18.85   -0.07  -59.20   -0.09  -59.35  -22.82   46.66
  15.350  -23.25   17.69   -0.09  -59.43   -0.09  -59.57  -22.69   47.55
  15.415  -23.07   16.83   -0.09  -59.77   -0.09  -59.84  -22.64   47.46
  15.480  -22.88   16.17   -0.09  -60.09   -0.08  -60.09  -22.54   47.28
  15.545  -22.66   15.59   -0.10  -60.41   -0.11  -60.43  -22.48   47.23
  15.610  -22.54   14.86   -0.10  -60.68   -0.10  -60.81  -22.32   47.52
  15.675  -22.29   14.03   -0.11  -61.05   -0.13  -61.13  -22.20   47.52
  15.740  -22.06   12.85   -0.12  -61.41   -0.11  -61.48  -22.04   48.40
  15.805  -21.79   12.41   -0.12  -61.80   -0.12  -61.64  -21.87   47.95
  15.870  -21.61   12.07   -0.13  -62.02   -0.14  -62.00  -21.63   47.53
  15.935  -21.47   11.03   -0.16  -62.33   -0.16  -62.33  -21.39   48.02
  16.000  -21.35   10.62   -0.16  -62.63   -0.17  -62.82  -21.15   47.53
  16.065  -21.08   10.40   -0.17  -62.89   -0.16  -62.85  -20.91   47.63
  16.130  -20.84   10.90   -0.18  -63.23   -0.18  -63.14  -20.59   47.20
  16.195  -20.61   11.12   -0.19  -63.43   -0.19  -63.36  -20.25   46.53
  16.260  -20.32   11.46   -0.20  -63.68   -0.22  -63.67  -19.91   45.69
  16.325  -20.01   10.73   -0.20  -63.89   -0.20  -64.01  -19.66   44.69
  16.390  -19.67   10.54   -0.21  -64.20   -0.20  -64.22  -19.45   43.43
  16.455  -19.42   10.68   -0.20  -64.53   -0.21  -64.44  -19.15   42.25
  16.520  -19.21   10.56   -0.21  -64.79   -0.21  -64.88  -18.94   41.42
  16.585  -18.93   10.27   -0.22  -65.12   -0.22  -65.30  -18.68   40.77
  16.650  -18.69   10.62   -0.22  -65.39   -0.24  -65.46  -18.38   40.03
  16.715  -18.36   10.81   -0.22  -65.80   -0.21  -65.65  -18.15   38.86
  16.780  -18.10   10.86   -0.24  -65.97   -0.23  -65.96  -17.85   38.22
  16.845  -17.87   11.15   -0.24  -66.48   -0.26  -66.34  -17.61   37.01
  16.910  -17.58   11.11   -0.25  -66.64   -0.26  -66.67  -17.32   36.44
  16.975  -17.25   11.32   -0.27  -67.02   -0.25  -67.18  -17.14   35.53
  17.040  -17.08   11.92   -0.26  -67.48   -0.28  -67.28  -16.83   34.41
  17.105  -16.75   11.89   -0.28  -67.65   -0.27  -67.66  -16.57   34.11
  17.170  -16.48   12.31   -0.29  -67.92   -0.29  -67.90  -16.26   33.68
  17.235  -16.18   12.49   -0.30  -68.40   -0.31  -68.56  -16.01   32.51
  17.300  -15.83   12.86   -0.30  -68.60   -0.30  -68.64  -15.73   31.51
  17.365  -15.50   13.05   -0.32  -68.87   -0.30  -68.96  -15.48   30.78
