!  American Technical Ceramics  Date:   12/2/2005
!  One Norden Lane
!  Huntington Station,  NY.   11746-2102
!  Tel:  (631) 622-4700               Fax:  (631) 622-4748
!  Part Number  600S430         Mounting Orientation: Horizontal
!  Description: Ultra Low ESR Microwave capacitors
!  Application: Coupling, Bypass, Tuning, DC Block
!               Filters, Matching
# GHZ S DB R 50
! Freq   |S11|   S11 Ph  |S21|   S21 Ph  |S12|   S12 Ph  |S22|   S22 Ph
   0.000    0.00    0.00 -999.00   90.00 -999.00   90.00    0.00    0.00
   0.400  -20.75  -84.73   -0.06    3.91   -0.05    3.91  -20.84  -85.17
   0.411  -21.01  -84.93   -0.06    3.72   -0.05    3.71  -21.12  -84.84
   0.423  -21.26  -85.09   -0.05    3.54   -0.05    3.53  -21.34  -84.53
   0.434  -21.50  -85.17   -0.05    3.37   -0.05    3.36  -21.50  -84.56
   0.445  -21.74  -85.29   -0.05    3.21   -0.05    3.20  -21.67  -85.02
   0.456  -21.97  -85.38   -0.05    3.05   -0.04    3.04  -21.90  -85.72
   0.468  -22.19  -85.54   -0.05    2.89   -0.04    2.88  -22.19  -86.16
   0.479  -22.41  -85.70   -0.05    2.74   -0.04    2.73  -22.51  -86.13
   0.490  -22.63  -85.83   -0.05    2.59   -0.04    2.58  -22.77  -85.71
   0.501  -22.85  -85.91   -0.04    2.45   -0.04    2.44  -22.95  -85.25
   0.513  -23.07  -86.00   -0.04    2.32   -0.04    2.30  -23.07  -85.23
   0.524  -23.27  -86.04   -0.04    2.19   -0.04    2.17  -23.21  -85.71
   0.535  -23.46  -86.15   -0.04    2.06   -0.03    2.05  -23.42  -86.42
   0.546  -23.66  -86.28   -0.04    1.93   -0.03    1.92  -23.70  -86.94
   0.558  -23.85  -86.42   -0.04    1.81   -0.03    1.80  -24.00  -86.88
   0.569  -24.06  -86.52   -0.04    1.69   -0.03    1.68  -24.24  -86.35
   0.580  -24.25  -86.57   -0.04    1.58   -0.03    1.56  -24.39  -85.85
   0.591  -24.44  -86.61   -0.04    1.46   -0.03    1.45  -24.47  -85.79
   0.603  -24.62  -86.71   -0.04    1.36   -0.03    1.34  -24.57  -86.33
   0.614  -24.80  -86.81   -0.03    1.25   -0.03    1.23  -24.75  -87.14
   0.625  -24.98  -86.96   -0.03    1.14   -0.03    1.13  -25.02  -87.71
   0.636  -25.16  -87.10   -0.03    1.04   -0.03    1.02  -25.31  -87.65
   0.648  -25.35  -87.19   -0.03    0.94   -0.03    0.92  -25.54  -87.00
   0.659  -25.53  -87.24   -0.03    0.84   -0.03    0.82  -25.66  -86.34
   0.670  -25.70  -87.31   -0.03    0.75   -0.03    0.72  -25.71  -86.22
   0.681  -25.87  -87.38   -0.03    0.65   -0.03    0.63  -25.79  -86.75
   0.693  -26.03  -87.47   -0.03    0.56   -0.03    0.54  -25.96  -87.63
   0.704  -26.20  -87.57   -0.03    0.46   -0.02    0.45  -26.23  -88.25
   0.715  -26.37  -87.67   -0.03    0.37   -0.02    0.36  -26.53  -88.17
   0.726  -26.53  -87.70   -0.03    0.28   -0.02    0.27  -26.77  -87.43
   0.738  -26.70  -87.72   -0.03    0.20   -0.02    0.18  -26.89  -86.67
   0.749  -26.86  -87.71   -0.03    0.11   -0.02    0.09  -26.92  -86.44
   0.760  -27.00  -87.76   -0.03    0.02   -0.02    0.01  -26.98  -87.10
   0.771  -27.15  -87.84   -0.03   -0.06   -0.02   -0.08  -27.14  -88.09
   0.783  -27.32  -87.93   -0.03   -0.14   -0.02   -0.16  -27.41  -88.77
   0.794  -27.48  -88.00   -0.03   -0.23   -0.02   -0.25  -27.72  -88.66
   0.805  -27.64  -88.03   -0.03   -0.31   -0.02   -0.33  -27.96  -87.80
   0.816  -27.79  -88.04   -0.03   -0.39   -0.02   -0.41  -28.05  -86.86
   0.828  -27.95  -88.09   -0.03   -0.47   -0.02   -0.49  -28.04  -86.66
   0.839  -28.10  -88.17   -0.03   -0.54   -0.02   -0.56  -28.07  -87.31
   0.850  -28.25  -88.27   -0.03   -0.62   -0.02   -0.63  -28.21  -88.38
   0.861  -28.41  -88.44   -0.03   -0.70   -0.02   -0.71  -28.49  -89.17
   0.873  -28.58  -88.52   -0.03   -0.78   -0.02   -0.79  -28.81  -88.99
   0.884  -28.73  -88.59   -0.03   -0.85   -0.02   -0.86  -29.04  -87.94
   0.895  -28.89  -88.59   -0.03   -0.92   -0.02   -0.93  -29.11  -86.88
   0.906  -29.02  -88.65   -0.03   -0.99   -0.02   -1.01  -29.09  -86.64
   0.918  -29.16  -88.73   -0.03   -1.06   -0.02   -1.08  -29.10  -87.41
   0.929  -29.29  -88.82   -0.03   -1.13   -0.02   -1.15  -29.25  -88.71
   0.940  -29.44  -88.93   -0.02   -1.20   -0.02   -1.22  -29.55  -89.55
   0.951  -29.59  -88.99   -0.03   -1.28   -0.02   -1.29  -29.91  -89.33
   0.963  -29.75  -88.97   -0.02   -1.34   -0.02   -1.36  -30.16  -88.16
   0.974  -29.88  -88.88   -0.03   -1.41   -0.02   -1.43  -30.21  -86.92
   0.985  -30.01  -88.90   -0.02   -1.48   -0.02   -1.50  -30.16  -86.65
   0.996  -30.14  -88.95   -0.02   -1.54   -0.02   -1.56  -30.14  -87.60
   1.008  -30.28  -89.07   -0.02   -1.61   -0.02   -1.63  -30.30  -89.07
   1.019  -30.43  -89.22   -0.02   -1.67   -0.02   -1.70  -30.62  -89.98
   1.030  -30.60  -89.31   -0.02   -1.75   -0.02   -1.77  -31.00  -89.66
   1.041  -30.76  -89.29   -0.02   -1.81   -0.02   -1.83  -31.25  -88.25
   1.053  -30.92  -89.27   -0.02   -1.87   -0.02   -1.89  -31.29  -86.82
   1.064  -31.06  -89.26   -0.02   -1.94   -0.02   -1.96  -31.19  -86.48
   1.075  -31.20  -89.32   -0.02   -2.00   -0.02   -2.02  -31.15  -87.47
   1.086  -31.35  -89.50   -0.02   -2.07   -0.02   -2.09  -31.30  -89.13
   1.098  -31.49  -89.61   -0.02   -2.13   -0.02   -2.15  -31.64  -90.20
   1.109  -31.64  -89.66   -0.02   -2.20   -0.02   -2.21  -32.06  -89.70
   1.120  -31.80  -89.69   -0.02   -2.25   -0.02   -2.28  -32.33  -88.04
   1.131  -31.94  -89.66   -0.02   -2.32   -0.02   -2.34  -32.34  -86.35
   1.143  -32.08  -89.64   -0.02   -2.38   -0.02   -2.40  -32.22  -86.03
   1.154  -32.21  -89.69   -0.02   -2.44   -0.02   -2.46  -32.16  -87.30
   1.165  -32.35  -89.79   -0.02   -2.50   -0.02   -2.52  -32.33  -89.16
   1.176  -32.49  -89.86   -0.02   -2.56   -0.02   -2.58  -32.73  -90.33
   1.188  -32.64  -89.88   -0.02   -2.62   -0.02   -2.64  -33.19  -89.79
   1.199  -32.80  -89.86   -0.02   -2.69   -0.02   -2.71  -33.48  -87.77
   1.210  -32.95  -89.80   -0.02   -2.75   -0.02   -2.76  -33.46  -85.85
   1.221  -33.09  -89.82   -0.02   -2.80   -0.02   -2.83  -33.29  -85.59
   1.233  -33.24  -89.84   -0.02   -2.86   -0.02   -2.88  -33.21  -87.05
   1.244  -33.38  -89.96   -0.02   -2.92   -0.02   -2.94  -33.39  -89.19
   1.255  -33.55  -89.97   -0.02   -2.98   -0.02   -3.00  -33.83  -90.42
   1.266  -33.70  -90.08   -0.02   -3.04   -0.02   -3.06  -34.33  -89.61
   1.278  -33.86  -90.15   -0.02   -3.10   -0.02   -3.12  -34.61  -87.23
   1.289  -34.02  -90.16   -0.02   -3.15   -0.02   -3.17  -34.53  -85.00
   1.300  -34.17  -90.22   -0.02   -3.21   -0.02   -3.24  -34.31  -84.94
   1.311  -34.33  -90.34   -0.02   -3.27   -0.02   -3.29  -34.20  -86.76
   1.323  -34.49  -90.33   -0.02   -3.32   -0.02   -3.35  -34.44  -89.18
   1.334  -34.65  -90.23   -0.02   -3.38   -0.02   -3.40  -34.94  -90.52
   1.345  -34.80  -90.23   -0.02   -3.44   -0.02   -3.46  -35.51  -89.47
   1.356  -34.95  -90.19   -0.02   -3.50   -0.02   -3.52  -35.80  -86.57
   1.368  -35.09  -90.14   -0.02   -3.55   -0.02   -3.58  -35.70  -84.09
   1.379  -35.24  -90.12   -0.02   -3.60   -0.02   -3.63  -35.44  -84.06
   1.390  -35.38  -90.13   -0.02   -3.66   -0.02   -3.68  -35.35  -86.26
   1.401  -35.55  -90.20   -0.02   -3.72   -0.02   -3.74  -35.61  -89.03
   1.413  -35.72  -90.20   -0.02   -3.78   -0.02   -3.80  -36.22  -90.29
   1.424  -35.88  -90.16   -0.02   -3.84   -0.02   -3.85  -36.85  -88.74
   1.435  -36.05  -90.12   -0.02   -3.88   -0.02   -3.91  -37.15  -85.17
   1.446  -36.21  -90.23   -0.02   -3.94   -0.02   -3.97  -36.95  -82.28
   1.458  -36.39  -90.37   -0.02   -4.00   -0.02   -4.03  -36.60  -82.31
   1.469  -36.58  -90.55   -0.02   -4.05   -0.02   -4.08  -36.49  -84.89
   1.480  -36.78  -90.71   -0.02   -4.11   -0.02   -4.13  -36.77  -87.81
   1.491  -36.99  -90.75   -0.02   -4.17   -0.02   -4.19  -37.42  -89.01
   1.503  -37.19  -90.68   -0.02   -4.22   -0.02   -4.24  -38.05  -87.18
   1.514  -37.37  -90.49   -0.02   -4.27   -0.02   -4.30  -38.28  -83.10
   1.525  -37.52  -90.49   -0.03   -4.32   -0.02   -4.35  -37.98  -80.38
   1.536  -37.68  -90.66   -0.02   -4.38   -0.02   -4.40  -37.56  -81.00
   1.548  -37.87  -90.79   -0.03   -4.43   -0.02   -4.46  -37.47  -84.41
   1.559  -38.08  -90.83   -0.02   -4.48   -0.02   -4.51  -37.84  -88.18
   1.570  -38.30  -90.63   -0.02   -4.54   -0.02   -4.56  -38.63  -89.89
   1.581  -38.50  -90.22   -0.03   -4.59   -0.02   -4.61  -39.48  -87.60
   1.593  -38.67  -89.64   -0.03   -4.64   -0.02   -4.68  -39.81  -82.72
   1.604  -38.80  -89.42   -0.03   -4.70   -0.02   -4.73  -39.49  -79.45
   1.615  -38.94  -89.16   -0.03   -4.75   -0.02   -4.78  -39.06  -80.21
   1.626  -39.07  -89.20   -0.03   -4.80   -0.02   -4.83  -38.97  -83.99
   1.638  -39.24  -89.34   -0.03   -4.85   -0.02   -4.88  -39.48  -87.93
   1.649  -39.42  -89.57   -0.03   -4.90   -0.02   -4.93  -40.45  -89.46
   1.660  -39.61  -89.77   -0.03   -4.96   -0.02   -4.98  -41.45  -86.12
   1.671  -39.84  -89.85   -0.03   -5.01   -0.02   -5.04  -41.72  -79.58
   1.683  -40.04  -90.25   -0.03   -5.06   -0.02   -5.09  -41.18  -75.53
   1.694  -40.25  -90.68   -0.03   -5.11   -0.02   -5.15  -40.59  -76.79
   1.705  -40.52  -91.19   -0.03   -5.17   -0.02   -5.19  -40.49  -81.51
   1.716  -40.80  -91.71   -0.03   -5.22   -0.02   -5.25  -41.10  -86.40
   1.728  -41.09  -92.10   -0.03   -5.28   -0.02   -5.30  -42.26  -87.75
   1.739  -41.39  -92.19   -0.03   -5.33   -0.02   -5.36  -43.40  -82.93
   1.750  -41.64  -92.18   -0.03   -5.38   -0.02   -5.41  -43.56  -74.74
   1.761  -41.92  -92.35   -0.03   -5.43   -0.02   -5.46  -42.89  -70.58
   1.773  -42.18  -92.50   -0.03   -5.48   -0.02   -5.51  -42.19  -72.87
   1.784  -42.45  -92.66   -0.03   -5.53   -0.02   -5.56  -42.20  -78.85
   1.795  -42.76  -92.84   -0.03   -5.58   -0.02   -5.61  -43.06  -84.58
   1.806  -43.08  -92.68   -0.03   -5.64   -0.02   -5.67  -44.65  -85.73
   1.818  -43.42  -92.54   -0.03   -5.70   -0.02   -5.72  -46.18  -78.16
   1.829  -43.73  -92.23   -0.03   -5.74   -0.02   -5.77  -46.16  -66.38
   1.840  -44.07  -91.92   -0.03   -5.79   -0.02   -5.82  -45.09  -62.33
   1.851  -44.32  -91.74   -0.03   -5.84   -0.02   -5.88  -44.33  -66.26
   1.863  -44.69  -92.12   -0.03   -5.89   -0.02   -5.93  -44.52  -73.49
   1.874  -45.14  -92.44   -0.03   -5.95   -0.02   -5.97  -45.78  -80.08
   1.885  -45.61  -92.57   -0.03   -6.00   -0.02   -6.03  -47.97  -79.57
   1.896  -46.14  -92.26   -0.03   -6.05   -0.02   -6.07  -49.72  -65.91
   1.908  -46.56  -92.09   -0.03   -6.10   -0.02   -6.13  -48.97  -50.23
   1.919  -47.01  -91.92   -0.03   -6.16   -0.02   -6.18  -47.25  -48.07
   1.930  -47.46  -92.25   -0.03   -6.21   -0.02   -6.23  -46.48  -54.46
   1.941  -48.02  -92.69   -0.03   -6.25   -0.02   -6.29  -47.01  -63.34
   1.953  -48.68  -93.13   -0.03   -6.31   -0.02   -6.34  -49.00  -69.00
   1.964  -49.28  -92.95   -0.03   -6.37   -0.02   -6.39  -52.12  -61.95
   1.975  -49.89  -92.47   -0.03   -6.42   -0.03   -6.44  -53.16  -34.40
   1.986  -50.55  -92.00   -0.03   -6.47   -0.03   -6.49  -50.62  -20.23
   1.998  -51.26  -91.76   -0.03   -6.51   -0.03   -6.54  -48.70  -23.29
   2.009  -51.98  -91.80   -0.03   -6.57   -0.03   -6.59  -48.32  -32.95
   2.020  -52.84  -91.65   -0.03   -6.62   -0.03   -6.65  -49.58  -41.15
   2.031  -53.86  -90.77   -0.03   -6.67   -0.03   -6.69  -52.70  -40.62
   2.043  -55.08  -88.93   -0.03   -6.73   -0.03   -6.75  -55.07  -13.41
   2.054  -56.17  -88.79   -0.03   -6.78   -0.03   -6.81  -52.24   11.15
   2.065  -57.68  -87.46   -0.03   -6.83   -0.03   -6.86  -49.48    9.72
   2.076  -59.78  -87.50   -0.03   -6.88   -0.03   -6.91  -48.26    0.84
   2.088  -62.64  -88.05   -0.03   -6.94   -0.03   -6.97  -48.90   -9.42
   2.099  -67.59  -83.15   -0.03   -6.99   -0.03   -7.02  -51.11  -12.97
   2.110  -74.74  -48.93   -0.03   -7.04   -0.03   -7.07  -53.74    3.98
   2.121  -71.74   34.93   -0.03   -7.10   -0.03   -7.12  -52.31   32.09
   2.133  -66.56   56.66   -0.04   -7.15   -0.03   -7.18  -49.07   37.51
   2.144  -63.71   62.80   -0.03   -7.20   -0.03   -7.23  -47.12   31.00
   2.155  -61.49   70.81   -0.03   -7.26   -0.03   -7.28  -46.71   22.09
   2.166  -59.56   78.09   -0.03   -7.31   -0.03   -7.34  -47.53   15.91
   2.178  -57.34   81.12   -0.04   -7.36   -0.03   -7.39  -49.24   20.08
   2.189  -55.55   81.36   -0.04   -7.42   -0.03   -7.45  -49.74   38.12
   2.200  -54.04   80.27   -0.04   -7.48   -0.03   -7.50  -47.59   51.35
   2.211  -52.90   79.69   -0.04   -7.53   -0.03   -7.56  -45.36   50.55
   2.223  -51.90   78.99   -0.04   -7.58   -0.03   -7.61  -44.18   44.32
   2.234  -51.14   79.52   -0.04   -7.64   -0.03   -7.66  -44.03   37.45
   2.245  -50.34   79.66   -0.04   -7.70   -0.03   -7.72  -44.78   34.35
   2.256  -49.48   80.49   -0.04   -7.76   -0.03   -7.78  -45.72   39.78
   2.268  -48.61   81.43   -0.04   -7.81   -0.03   -7.84  -45.44   50.68
   2.279  -47.75   81.37   -0.04   -7.87   -0.03   -7.90  -43.91   57.24
   2.290  -46.98   80.99   -0.04   -7.93   -0.03   -7.95  -42.39   55.45
   2.301  -46.28   80.96   -0.04   -7.99   -0.04   -8.02  -41.61   49.90
   2.313  -45.73   80.64   -0.04   -8.05   -0.04   -8.08  -41.61   44.52
   2.324  -45.10   80.90   -0.04   -8.11   -0.04   -8.13  -42.22   43.38
   2.335  -44.47   81.19   -0.04   -8.17   -0.04   -8.19  -42.68   47.98
   2.346  -43.88   81.04   -0.04   -8.23   -0.04   -8.26  -42.20   55.60
   2.358  -43.32   80.43   -0.04   -8.30   -0.04   -8.32  -40.90   58.99
   2.369  -42.81   80.20   -0.05   -8.36   -0.04   -8.39  -39.77   56.76
   2.380  -42.29   79.66   -0.05   -8.41   -0.04   -8.45  -39.14   52.28
   2.391  -41.78   79.37   -0.05   -8.48   -0.04   -8.51  -39.12   48.25
   2.403  -41.27   79.08   -0.05   -8.54   -0.05   -8.57  -39.47   47.85
   2.414  -40.78   78.63   -0.05   -8.61   -0.05   -8.63  -39.68   51.38
   2.425  -40.25   77.91   -0.05   -8.68   -0.05   -8.70  -39.17   56.65
   2.436  -39.77   77.28   -0.06   -8.75   -0.05   -8.78  -38.15   58.82
   2.448  -39.29   76.58   -0.06   -8.81   -0.05   -8.85  -37.20   57.16
   2.459  -38.80   76.22   -0.06   -8.89   -0.05   -8.92  -36.63   53.83
   2.470  -38.28   75.62   -0.06   -8.97   -0.06   -9.00  -36.48   50.85
   2.481  -37.74   74.93   -0.07   -9.04   -0.06   -9.08  -36.56   50.16
   2.493  -37.20   74.21   -0.07   -9.12   -0.06   -9.16  -36.46   52.28
   2.504  -36.64   73.41   -0.07   -9.20   -0.07   -9.24  -35.96   54.95
   2.515  -36.09   72.28   -0.08   -9.29   -0.07   -9.31  -35.11   55.76
   2.526  -35.54   71.07   -0.08   -9.37   -0.08   -9.41  -34.32   54.29
   2.538  -34.99   69.83   -0.09   -9.46   -0.08   -9.50  -33.75   51.52
   2.549  -34.42   68.65   -0.09   -9.56   -0.09   -9.60  -33.44   49.11
   2.560  -33.82   67.32   -0.10   -9.66   -0.10   -9.70  -33.21   48.42
   2.571  -33.17   65.68   -0.11   -9.78   -0.10   -9.81  -32.82   49.22
   2.583  -32.49   63.73   -0.12   -9.89   -0.12   -9.93  -32.08   50.20
   2.594  -31.78   61.41   -0.13  -10.02   -0.13  -10.06  -31.09   49.39
   2.605  -31.03   58.77   -0.15  -10.15   -0.15  -10.19  -30.13   46.58
   2.616  -30.25   55.57   -0.18  -10.29   -0.17  -10.33  -29.27   42.49
   2.628  -29.40   51.73   -0.21  -10.42   -0.20  -10.45  -28.54   37.93
   2.639  -28.53   46.95   -0.25  -10.53   -0.24  -10.57  -27.88   33.45
   2.650  -27.64   41.10   -0.30  -10.60   -0.29  -10.63  -27.16   28.70
   2.661  -26.79   33.83   -0.36  -10.57   -0.36  -10.60  -26.36   22.90
   2.673  -26.04   25.00   -0.43  -10.39   -0.42  -10.42  -25.58   15.20
   2.684  -25.49   14.62   -0.49  -10.01   -0.49  -10.03  -24.96    5.55
   2.695  -25.23    3.09   -0.53   -9.43   -0.52   -9.46  -24.67   -5.57
   2.706  -25.36   -8.69   -0.52   -8.80   -0.52   -8.83  -24.77  -17.24
   2.718  -25.82  -19.89   -0.48   -8.27   -0.47   -8.30  -25.29  -28.43
   2.729  -26.54  -29.79   -0.42   -7.92   -0.41   -7.95  -26.12  -38.04
   2.740  -27.43  -38.23   -0.35   -7.77   -0.34   -7.80  -27.18  -45.74
   2.751  -28.39  -45.21   -0.29   -7.75   -0.29   -7.78  -28.30  -51.05
   2.763  -29.37  -50.97   -0.24   -7.82   -0.24   -7.85  -29.29  -54.51
   2.774  -30.33  -55.74   -0.21   -7.92   -0.20   -7.95  -30.10  -57.22
   2.785  -31.28  -59.79   -0.18   -8.04   -0.17   -8.08  -30.79  -60.41
   2.796  -32.18  -63.10   -0.15   -8.18   -0.15   -8.21  -31.56  -64.27
   2.808  -33.05  -66.05   -0.14   -8.29   -0.13   -8.33  -32.52  -68.01
   2.819  -33.87  -68.54   -0.12   -8.42   -0.11   -8.46  -33.69  -70.36
   2.830  -34.66  -70.77   -0.11   -8.55   -0.10   -8.58  -34.87  -70.16
   2.841  -35.43  -72.73   -0.10   -8.65   -0.09   -8.69  -35.75  -67.60
   2.853  -36.15  -74.65   -0.09   -8.76   -0.09   -8.80  -36.15  -65.39
   2.864  -36.85  -76.32   -0.08   -8.86   -0.08   -8.90  -36.35  -65.71
   2.875  -37.55  -78.15   -0.08   -8.96   -0.07   -9.00  -36.54  -68.84
   2.886  -38.24  -79.88   -0.08   -9.05   -0.07   -9.10  -37.39  -73.53
   2.898  -38.92  -81.40   -0.07   -9.15   -0.06   -9.18  -38.85  -75.79
   2.909  -39.57  -83.04   -0.07   -9.23   -0.06   -9.27  -40.55  -71.78
   2.920  -40.19  -84.68   -0.06   -9.31   -0.06   -9.35  -41.27  -61.75
   2.931  -40.77  -86.36   -0.06   -9.39   -0.06   -9.43  -40.66  -55.81
   2.943  -41.42  -88.67   -0.06   -9.47   -0.05   -9.51  -40.08  -57.45
   2.954  -42.03  -90.71   -0.06   -9.54   -0.05   -9.58  -40.19  -63.93
   2.965  -42.62  -93.02   -0.06   -9.61   -0.05   -9.65  -41.35  -68.66
   2.976  -43.33  -94.99   -0.05   -9.68   -0.05   -9.72  -43.00  -70.03
   2.988  -43.97  -96.99   -0.05   -9.76   -0.05   -9.79  -44.74  -62.71
   2.999  -44.48  -99.53   -0.05   -9.82   -0.05   -9.86  -45.10  -49.90
   3.010  -45.07 -101.83   -0.05   -9.89   -0.05   -9.93  -44.08  -42.94
   3.021  -45.60 -105.00   -0.05   -9.95   -0.05   -9.99  -43.31  -45.67
   3.033  -46.02 -107.74   -0.05  -10.01   -0.05  -10.06  -43.48  -52.23
   3.044  -47.37  -63.82   -0.05  -10.07   -0.04  -10.11  -50.31  -56.38
   3.055  -48.07  -62.25   -0.05  -10.14   -0.04  -10.17  -53.72  -48.35
   3.066  -48.54  -61.75   -0.05  -10.19   -0.05  -10.23  -55.26  -19.59
   3.078  -49.28  -61.21   -0.05  -10.25   -0.04  -10.29  -52.87    1.80
   3.089  -50.34  -61.76   -0.05  -10.31   -0.04  -10.34  -50.85    0.88
   3.100  -51.44  -61.14   -0.05  -10.36   -0.04  -10.40  -50.35   -3.95
   3.111  -52.89  -58.21   -0.05  -10.42   -0.04  -10.46  -51.50   -9.57
   3.123  -54.16  -54.05   -0.05  -10.48   -0.04  -10.51  -53.91   -1.40
   3.134  -55.50  -50.34   -0.05  -10.53   -0.04  -10.57  -54.23   23.99
   3.145  -57.36  -43.10   -0.05  -10.58   -0.04  -10.63  -51.37   38.32
   3.156  -58.78  -33.03   -0.05  -10.64   -0.04  -10.68  -49.13   35.95
   3.168  -60.46  -16.12   -0.04  -10.69   -0.04  -10.74  -48.17   28.73
   3.179  -62.13    6.53   -0.05  -10.76   -0.04  -10.80  -48.37   22.38
   3.190  -60.91   36.29   -0.05  -10.81   -0.04  -10.85  -49.51   20.44
   3.201  -57.84   49.41   -0.05  -10.86   -0.04  -10.90  -50.44   29.73
   3.213  -55.68   54.80   -0.04  -10.92   -0.04  -10.96  -49.80   43.49
   3.224  -54.07   56.90   -0.05  -10.97   -0.04  -11.01  -47.93   48.08
   3.235  -52.92   58.41   -0.05  -11.03   -0.04  -11.07  -46.62   44.58
   3.246  -51.97   58.59   -0.04  -11.08   -0.04  -11.12  -46.12   39.07
   3.258  -51.34   59.59   -0.05  -11.14   -0.04  -11.18  -46.52   34.41
   3.269  -50.38   60.22   -0.05  -11.19   -0.04  -11.23  -47.61   36.61
   3.280  -50.00   61.30   -0.05  -11.23   -0.04  -11.29  -48.02   45.75
   3.291  -49.26   61.74   -0.05  -11.29   -0.04  -11.33  -47.10   55.97
   3.303  -48.86   61.74   -0.05  -11.35   -0.04  -11.39  -45.55   57.50
   3.314  -48.51   61.68   -0.05  -11.39   -0.04  -11.43  -44.61   53.87
   3.325  -48.24   61.81   -0.05  -11.44   -0.04  -11.49  -44.33   47.98
   3.336  -47.89   62.88   -0.05  -11.50   -0.04  -11.54  -44.87   44.52
