!  American Technical Ceramics  Date:   10/26/00
!  One Norden Lane
!  Huntington Station,  NY.   11746-2102
!  Tel:  (631) 622-4700               Fax:  (631) 622-4748
!  Part Number  600S1R2BW      Mounting Orientation: Horizontal
!  Description: Ultra Low ESR Microwave capacitors
!  Application: Coupling, Bypass, Tuning, DC Block
!               Filters, Matching
# GHZ S DB R 50
! Freq   |S11|   S11 Ph  |S21|   S21 Ph  |S12|   S12 Ph  |S22|   S22 Ph
   0.000   0.00    0.00	  -999.00  90.00  -999.00  90.00    0.00    0.00
   0.400   -0.37  -18.08  -10.83   71.83  -10.84   71.72   -0.36  -17.67
   0.482   -0.54  -21.77   -9.37   67.90   -9.40   67.82   -0.61  -20.74
   0.563   -0.69  -24.81   -8.18   64.70   -8.22   64.52   -0.83  -24.34
   0.645   -0.91  -27.68   -7.19   61.72   -7.22   61.43   -0.96  -27.65
   0.726   -1.21  -30.67   -6.41   58.84   -6.41   58.48   -1.16  -30.46
   0.808   -1.34  -33.93   -5.68   55.58   -5.70   55.55   -1.40  -33.46
   0.889   -1.68  -36.44   -5.10   53.17   -5.07   52.88   -1.58  -36.18
   0.971   -1.86  -39.70   -4.59   50.11   -4.59   50.50   -1.96  -38.34
   1.052   -2.15  -41.80   -4.13   47.78   -4.15   47.82   -2.20  -41.39
   1.134   -2.38  -44.04   -3.70   45.47   -3.73   45.66   -2.44  -43.68
   1.215   -2.76  -46.34   -3.43   43.36   -3.41   43.28   -2.71  -45.78
   1.297   -2.98  -48.83   -3.09   40.83   -3.10   40.90   -3.01  -48.26
   1.378   -3.25  -50.78   -2.81   39.01   -2.79   39.02   -3.23  -50.01
   1.460   -3.53  -52.82   -2.61   36.91   -2.59   37.17   -3.59  -51.79
   1.541   -3.80  -54.53   -2.37   34.89   -2.38   35.02   -3.86  -54.27
   1.623   -4.06  -56.23   -2.16   33.27   -2.16   33.41   -4.10  -55.76
   1.704   -4.39  -57.69   -2.01   31.75   -2.03   31.67   -4.39  -57.49
   1.786   -4.64  -59.69   -1.88   29.88   -1.86   29.98   -4.67  -59.08
   1.867   -4.90  -60.99   -1.70   28.45   -1.70   28.53   -4.91  -60.65
   1.949   -5.17  -62.40   -1.61   26.95   -1.61   27.20   -5.24  -62.09
   2.030   -5.47  -64.00   -1.49   25.49   -1.49   25.44   -5.47  -63.75
   2.112   -5.70  -65.22   -1.39   24.11   -1.39   24.28   -5.75  -65.07
   2.193   -5.99  -66.49   -1.31   22.89   -1.31   22.94   -6.01  -66.33
   2.275   -6.23  -67.83   -1.22   21.50   -1.21   21.59   -6.26  -67.72
   2.356   -6.46  -69.00   -1.13   20.29   -1.12   20.48   -6.53  -68.87
   2.438   -6.74  -69.91   -1.06   19.20   -1.07   19.26   -6.77  -70.09
   2.519   -6.99  -71.11   -1.00   18.06   -1.01   18.13   -7.02  -71.23
   2.601   -7.25  -72.15   -0.96   17.02   -0.96   17.00   -7.26  -71.96
   2.682   -7.48  -72.93   -0.91   15.87   -0.92   16.02   -7.52  -73.27
   2.764   -7.69  -74.04   -0.86   14.91   -0.86   14.89   -7.72  -74.12
   2.845   -7.93  -74.77   -0.82   13.94   -0.82   14.05   -7.96  -75.08
   2.927   -8.13  -75.73   -0.78   12.99   -0.77   13.03   -8.18  -76.03
   3.008   -8.40  -76.25   -0.72   11.96   -0.74   12.00   -8.39  -77.63
   3.090   -8.58  -77.40   -0.70   11.18   -0.69   11.16   -8.61  -78.29
   3.171   -8.79  -78.07   -0.67   10.26   -0.67   10.35   -8.81  -79.21
   3.253   -8.99  -79.15   -0.63    9.50   -0.64    9.43   -8.98  -79.81
   3.334   -9.16  -79.90   -0.61    8.81   -0.60    8.79   -9.18  -80.50
   3.416   -9.35  -80.76   -0.58    7.99   -0.57    8.04   -9.36  -81.50
   3.497   -9.55  -81.71   -0.54    7.19   -0.55    7.22   -9.49  -82.17
   3.579   -9.70  -82.49   -0.52    6.59   -0.51    6.46   -9.73  -82.83
   3.660   -9.90  -83.23   -0.51    5.74   -0.51    5.78   -9.88  -83.88
   3.742  -10.06  -84.23   -0.47    5.06   -0.47    4.97  -10.08  -84.39
   3.823  -10.25  -84.88   -0.46    4.46   -0.46    4.40  -10.29  -85.00
   3.905  -10.45  -85.55   -0.46    3.77   -0.45    3.74  -10.47  -85.77
   3.986  -10.57  -86.41   -0.43    3.04   -0.44    3.02  -10.55  -86.17
   4.068  -10.79  -86.86   -0.41    2.54   -0.40    2.42  -10.79  -86.73
   4.149  -10.98  -87.31   -0.41    1.79   -0.41    1.75  -10.96  -87.68
   4.231  -11.13  -88.11   -0.36    1.18   -0.37    1.07  -11.09  -88.13
   4.312  -11.27  -88.50   -0.36    0.69   -0.35    0.64  -11.28  -88.71
   4.394  -11.43  -88.92   -0.36    0.04   -0.35   -0.05  -11.45  -89.17
   4.475  -11.62  -89.73   -0.34   -0.64   -0.34   -0.66  -11.59  -89.98
   4.557  -11.74  -90.35   -0.31   -1.11   -0.32   -1.22  -11.77  -90.39
   4.638  -11.93  -90.78   -0.33   -1.78   -0.33   -1.88  -11.92  -91.52
   4.720  -12.06  -91.52   -0.29   -2.44   -0.29   -2.52  -12.05  -92.08
   4.801  -12.24  -91.96   -0.28   -2.82   -0.29   -2.88  -12.22  -92.36
   4.883  -12.37  -92.45   -0.28   -3.36   -0.28   -3.53  -12.44  -92.94
   4.964  -12.56  -92.73   -0.28   -4.08   -0.26   -4.13  -12.51  -93.83
   5.046  -12.70  -93.62   -0.25   -4.52   -0.28   -4.60  -12.71  -93.73
   5.127  -12.85  -93.62   -0.27   -5.11   -0.26   -5.20  -12.86  -94.86
   5.209  -13.03  -94.13   -0.24   -5.69   -0.23   -5.73  -12.98  -95.24
   5.290  -13.20  -94.71   -0.23   -6.07   -0.24   -6.11  -13.12  -95.18
   5.372  -13.29  -94.49   -0.23   -6.57   -0.23   -6.79  -13.35  -96.10
   5.453  -13.49  -95.01   -0.22   -7.29   -0.22   -7.28  -13.36  -96.68
   5.535  -13.55  -95.91   -0.21   -7.75   -0.23   -7.86  -13.56  -97.18
   5.616  -13.71  -96.10   -0.22   -8.25   -0.21   -8.41  -13.75  -98.23
   5.698  -13.91  -96.67   -0.20   -8.78   -0.20   -8.77  -13.84  -98.57
   5.779  -14.01  -97.15   -0.20   -9.11   -0.21   -9.26  -14.08  -98.96
   5.861  -14.22  -97.57   -0.21   -9.68   -0.21   -9.79  -14.20  -99.59
   5.942  -14.41  -97.98   -0.20  -10.17   -0.20  -10.23  -14.33 -100.05
   6.024  -14.51  -98.84   -0.18  -10.71   -0.21  -10.80  -14.56 -100.23
   6.105  -14.71  -98.51   -0.18  -11.09   -0.17  -11.25  -14.68 -101.22
   6.187  -14.86  -99.57   -0.17  -11.61   -0.18  -11.67  -14.84 -100.87
   6.268  -15.05  -99.23   -0.17  -12.02   -0.17  -12.15  -15.00 -101.88
   6.350  -15.25  -99.95   -0.17  -12.56   -0.17  -12.62  -15.13 -101.89
   6.431  -15.40 -100.81   -0.17  -13.02   -0.17  -13.08  -15.33 -101.97
   6.513  -15.52 -101.05   -0.15  -13.54   -0.16  -13.67  -15.52 -102.60
   6.594  -15.71 -101.39   -0.15  -13.93   -0.16  -14.10  -15.71 -102.80
   6.676  -15.91 -102.03   -0.15  -14.42   -0.15  -14.58  -15.84 -103.04
   6.757  -16.13 -102.11   -0.15  -14.81   -0.15  -15.02  -16.04 -103.61
   6.839  -16.41 -103.79   -0.16  -15.40   -0.15  -15.35  -16.09 -103.07
   6.920  -16.52 -104.43   -0.16  -15.93   -0.17  -16.05  -16.34 -103.47
   7.002  -16.88 -106.22   -0.16  -16.49   -0.18  -16.54  -16.37 -103.39
   7.083  -17.54 -105.77   -0.22  -16.69   -0.22  -16.86  -16.27 -105.47
   7.165  -17.80 -101.40   -0.20  -16.53   -0.20  -16.70  -16.72 -108.63
   7.246  -17.64 -101.46   -0.15  -17.01   -0.15  -17.14  -17.13 -108.44
   7.328  -17.70 -102.96   -0.13  -17.58   -0.14  -17.63  -17.47 -107.15
   7.409  -17.76 -104.23   -0.11  -18.10   -0.14  -18.16  -17.78 -107.33
   7.491  -17.98 -104.06   -0.10  -18.53   -0.12  -18.67  -18.00 -107.65
   7.572  -18.16 -104.88   -0.09  -18.98   -0.11  -19.11  -18.26 -107.87
   7.654  -18.55 -105.45   -0.10  -19.40   -0.10  -19.57  -18.37 -107.96
   7.735  -18.70 -106.31   -0.08  -19.85   -0.10  -19.97  -18.74 -107.53
   7.817  -19.02 -107.21   -0.09  -20.33   -0.08  -20.36  -18.93 -106.83
   7.898  -19.12 -107.29   -0.08  -20.79   -0.10  -20.91  -19.38 -107.11
   7.980  -19.45 -107.46   -0.07  -21.18   -0.09  -21.30  -19.55 -106.84
   8.061  -19.74 -107.36   -0.07  -21.55   -0.08  -21.75  -19.78 -106.80
   8.143  -19.98 -108.93   -0.07  -22.08   -0.08  -22.22  -19.96 -106.07
   8.224  -20.19 -110.25   -0.07  -22.50   -0.08  -22.64  -20.24 -105.83
   8.306  -20.53 -111.16   -0.07  -22.99   -0.08  -23.10  -20.47 -105.77
   8.387  -19.95 -119.04   -0.07  -23.55   -0.09  -23.71  -19.57 -100.10
   8.469  -20.44 -119.30   -0.07  -23.90   -0.09  -24.09  -19.94  -99.77
   8.550  -21.08 -120.31   -0.08  -24.30   -0.09  -24.35  -20.35  -98.87
   8.632  -21.63 -121.32   -0.08  -24.67   -0.08  -24.88  -20.74  -98.26
   8.713  -22.11 -122.12   -0.06  -25.08   -0.09  -25.14  -21.42  -96.97
   8.795  -22.73 -123.07   -0.06  -25.44   -0.07  -25.53  -21.92  -95.80
   8.876  -23.37 -124.31   -0.06  -25.81   -0.08  -25.95  -22.49  -93.60
   8.958  -24.06 -125.91   -0.06  -26.15   -0.08  -26.22  -22.98  -91.18
   9.039  -24.86 -126.59   -0.05  -26.49   -0.06  -26.61  -23.39  -89.33
   9.121  -25.58 -128.63   -0.04  -26.92   -0.05  -27.11  -24.04  -87.25
   9.202  -26.27 -130.14   -0.04  -27.32   -0.06  -27.49  -24.68  -84.88
   9.284  -27.10 -133.72   -0.04  -27.63   -0.04  -27.77  -25.46  -80.46
   9.365  -27.85 -137.87   -0.04  -28.12   -0.04  -28.23  -26.01  -75.83
   9.447  -28.76 -143.04   -0.04  -28.48   -0.05  -28.63  -26.52  -71.08
   9.528  -29.67 -149.60   -0.04  -28.85   -0.05  -29.06  -27.08  -66.27
   9.610  -30.62 -158.05   -0.03  -29.22   -0.04  -29.37  -27.48  -60.14
   9.691  -31.41 -168.82   -0.02  -29.56   -0.03  -29.73  -27.95  -53.73
   9.773  -31.95  178.34   -0.01  -29.97   -0.02  -30.13  -28.17  -46.57
   9.854  -32.08  162.88    0.01  -30.45    0.01  -30.55  -28.37  -38.85
   9.936  -31.87  148.10    0.03  -30.98    0.02  -31.12  -28.45  -32.19
  10.017  -31.62  134.46    0.03  -31.46    0.02  -31.62  -28.21  -23.96
  10.099  -31.28  123.20    0.02  -31.90    0.02  -32.09  -27.81  -16.49
  10.180  -30.50  114.84    0.03  -32.40    0.01  -32.55  -27.27  -10.05
  10.262  -29.72  109.84    0.02  -32.92    0.01  -33.05  -26.76   -5.15
  10.343  -28.65  105.30    0.00  -33.39    0.00  -33.57  -26.10   -0.90
  10.425  -27.59  100.85    0.00  -33.82   -0.03  -33.99  -25.62    2.04
  10.506  -26.86   95.38   -0.02  -34.20   -0.02  -34.44  -24.90    3.88
  10.588  -26.29   90.29   -0.03  -34.61   -0.04  -34.76  -24.54    5.98
  10.669  -25.94   86.11   -0.04  -34.99   -0.04  -35.14  -24.10    7.81
  10.751  -25.49   83.76   -0.04  -35.37   -0.05  -35.47  -23.90    9.21
  10.832  -25.37   81.09   -0.04  -35.73   -0.05  -35.92  -23.51    9.92
  10.914  -25.20   79.69   -0.05  -36.09   -0.07  -36.32  -23.26   11.35
  10.995  -25.20   78.37   -0.06  -36.44   -0.07  -36.58  -23.04   12.67
  11.077  -25.04   79.72   -0.05  -36.76   -0.06  -36.92  -22.72   13.33
  11.158  -24.65   80.41   -0.03  -37.16   -0.04  -37.21  -22.77   14.88
  11.240  -24.23   80.56   -0.02  -37.49   -0.04  -37.65  -22.57   15.55
  11.321  -23.93   80.22   -0.01  -37.91   -0.02  -38.08  -22.40   17.36
  11.403  -23.62   78.63    0.00  -38.36    0.00  -38.48  -22.20   18.45
  11.484  -23.40   78.59    0.01  -38.76    0.00  -38.98  -21.95   19.23
  11.566  -23.13   77.18    0.01  -39.23   -0.01  -39.34  -21.90   19.77
  11.647  -22.90   76.63    0.01  -39.65    0.00  -39.83  -21.72   20.06
  11.729  -22.78   75.45    0.02  -40.07    0.00  -40.23  -21.69   19.76
  11.810  -22.79   73.92    0.02  -40.54    0.02  -40.67  -21.53   20.69
  11.892  -22.65   72.84    0.01  -41.04    0.00  -41.14  -21.74   20.50
  11.973  -22.80   72.11    0.01  -41.39    0.00  -41.61  -21.67   20.74
  12.055  -22.84   71.28    0.00  -41.80    0.00  -41.96  -21.77   21.51
  12.136  -22.82   70.90    0.00  -42.24    0.00  -42.36  -21.85   21.71
  12.218  -23.02   70.10    0.00  -42.66   -0.01  -42.86  -21.83   22.03
  12.299  -23.01   69.35    0.00  -43.03    0.00  -43.17  -21.95   22.66
  12.381  -23.07   69.05    0.00  -43.50   -0.01  -43.58  -22.10   22.61
  12.462  -23.31   68.46    0.00  -43.88   -0.03  -44.05  -22.17   22.20
  12.544  -23.43   67.34    0.00  -44.24   -0.01  -44.29  -22.45   22.83
  12.625  -23.65   67.05   -0.01  -44.60   -0.03  -44.78  -22.54   22.19
  12.707  -23.88   66.61   -0.01  -44.99   -0.02  -45.16  -22.75   23.13
  12.788  -24.10   65.38   -0.01  -45.32   -0.02  -45.39  -23.15   23.75
  12.870  -24.31   66.36    0.00  -45.73   -0.01  -45.85  -23.32   23.10
  12.951  -24.71   65.11    0.00  -46.19   -0.01  -46.34  -23.63   23.39
  13.033  -24.92   65.44    0.00  -46.49   -0.02  -46.66  -23.83   23.87
  13.114  -25.25   65.59    0.00  -46.97   -0.01  -47.12  -24.31   24.34
  13.196  -25.43   65.54    0.00  -47.39    0.01  -47.66  -24.51   24.58
  13.277  -25.37   64.94   -0.01  -47.81   -0.03  -47.96  -25.15   25.35
  13.359  -25.63   61.97   -0.01  -48.24   -0.01  -48.30  -25.46   26.00
  13.440  -26.25   59.86    0.00  -48.72   -0.01  -48.86  -25.82   28.10
  13.522  -26.90   58.48   -0.01  -48.89   -0.03  -49.07  -26.27   28.41
  13.603  -27.35   58.29   -0.03  -49.50   -0.04  -49.43  -26.55   29.09
  13.685  -27.96   57.38    0.00  -49.78   -0.03  -49.99  -27.19   29.79
  13.766  -28.36   56.91   -0.02  -50.24   -0.04  -50.41  -27.47   31.53
  13.848  -28.98   56.96   -0.04  -50.61   -0.05  -50.76  -28.12   32.65
  13.929  -29.27   55.67   -0.02  -51.10   -0.03  -51.27  -28.34   34.33
  14.011  -29.86   53.45   -0.03  -51.36   -0.06  -51.51  -28.82   37.55
  14.092  -30.23   50.22   -0.04  -51.70   -0.05  -51.95  -29.03   37.74
  14.174  -30.87   49.07   -0.05  -52.17   -0.05  -52.20  -29.39   38.98
  14.255  -31.07   44.19   -0.05  -52.47   -0.06  -52.69  -29.76   39.57
  14.337  -31.49   40.99   -0.05  -52.83   -0.06  -52.98  -30.03   39.84
  14.418  -31.99   37.04   -0.05  -53.23   -0.05  -53.34  -30.66   38.14
  14.500  -32.10   32.27   -0.03  -53.65   -0.05  -53.72  -31.36   38.37
  14.581  -31.98   22.84   -0.01  -53.97   -0.04  -54.18  -32.83   41.94
  14.663  -32.39   13.45    0.01  -54.51    0.00  -54.65  -33.02   50.95
  14.744  -33.35    4.23    0.01  -55.13    0.00  -55.20  -32.76   57.97
  14.826  -33.89    0.28    0.00  -55.75   -0.01  -55.78  -32.00   58.93
  14.907  -34.49   -6.48   -0.03  -56.27   -0.04  -56.42  -31.39   59.23
  14.989  -35.86   -9.81   -0.05  -56.72   -0.07  -56.74  -31.03   54.26
  15.070  -37.21   -2.32   -0.09  -57.05   -0.10  -57.09  -31.56   54.19
  15.152  -35.71    9.94   -0.10  -57.33   -0.11  -57.44  -31.81   54.34
  15.233  -34.53   11.74   -0.10  -57.69   -0.10  -57.80  -31.35   57.88
  15.315  -32.90   12.58   -0.10  -58.09   -0.11  -58.07  -31.48   56.15
  15.396  -31.63   11.68   -0.10  -58.53   -0.10  -58.65  -30.95   57.31
  15.478  -30.60    8.58   -0.10  -58.99   -0.10  -59.06  -30.63   58.58
  15.559  -29.92    6.80   -0.11  -59.45   -0.11  -59.58  -30.01   58.35
  15.641  -29.35    5.78   -0.12  -59.93   -0.13  -60.13  -29.44   58.93
  15.722  -28.57    6.19   -0.13  -60.41   -0.13  -60.48  -28.80   57.71
  15.804  -28.01    8.57   -0.15  -60.87   -0.15  -60.95  -27.98   57.70
  15.885  -27.04   10.79   -0.15  -61.27   -0.17  -61.19  -27.12   54.55
  15.967  -26.25   11.87   -0.16  -61.60   -0.17  -61.69  -26.13   53.62
  16.048  -25.09   11.88   -0.18  -62.06   -0.19  -62.02  -25.52   50.93
  16.130  -24.16   11.73   -0.18  -62.50   -0.18  -62.60  -24.68   48.34
  16.211  -23.35   10.24   -0.17  -62.95   -0.18  -63.04  -24.01   45.39
  16.293  -22.66   10.12   -0.18  -63.40   -0.19  -63.42  -23.29   43.29
  16.374  -21.97    9.43   -0.19  -63.98   -0.19  -64.01  -22.70   40.68
  16.456  -21.34    9.82   -0.20  -64.54   -0.20  -64.61  -21.93   38.73
  16.537  -20.69    9.52   -0.21  -65.12   -0.22  -65.25  -21.26   36.89
  16.619  -19.96   10.00   -0.25  -65.71   -0.24  -65.91  -20.50   35.25
  16.700  -19.27   10.32   -0.25  -66.39   -0.26  -66.23  -19.81   32.91
  16.782  -18.45    9.94   -0.30  -66.92   -0.29  -67.02  -18.93   31.43
  16.863  -17.69   10.14   -0.34  -67.82   -0.32  -67.74  -18.20   29.01
  16.945  -16.78    9.62   -0.36  -68.57   -0.35  -68.58  -17.25   26.41
  17.026  -15.98    8.11   -0.40  -69.57   -0.44  -69.58  -16.27   24.21
  17.108  -14.93    6.18   -0.50  -70.51   -0.50  -70.61  -15.42   20.72
  17.189  -13.96    3.65   -0.62  -71.74   -0.64  -71.79  -14.34   16.62
  17.271  -12.79   -0.55   -0.86  -73.21   -0.87  -72.99  -13.26   10.50
  17.352  -11.47   -7.38   -1.25  -74.83   -1.24  -74.81  -12.03    2.01
  17.434  -10.38  -20.17   -2.03  -75.65   -2.00  -75.03  -10.87  -11.63
  17.515   -9.84  -41.36   -3.08  -70.27   -3.02  -70.16  -10.52  -32.27
  17.597  -11.66  -66.15   -2.80  -59.44   -2.76  -59.93  -12.45  -57.50
  17.678  -15.91  -79.82   -1.59  -56.82   -1.59  -57.44  -16.50  -73.70
  17.760  -21.48  -76.85   -0.92  -58.75   -0.95  -59.12  -22.15  -68.96
  17.841  -25.65  -44.17   -0.63  -61.04   -0.63  -61.02  -26.04  -36.66
  17.923  -24.81   -8.49   -0.47  -62.80   -0.51  -62.90  -24.83   -1.49
  18.004  -22.26    6.62   -0.39  -64.07   -0.40  -64.24  -22.35   10.84
  18.086  -20.39   13.68   -0.37  -65.18   -0.35  -65.47  -20.57   16.58
  18.167  -19.05   15.72   -0.33  -66.35   -0.34  -66.29  -19.18   18.00
  18.249  -17.89   18.09   -0.34  -67.10   -0.31  -67.28  -18.05   18.55
  18.330  -17.10   18.73   -0.33  -68.05   -0.32  -68.03  -17.17   18.80
  18.412  -16.31   18.83   -0.32  -68.77   -0.36  -68.69  -16.37   18.94
  18.493  -15.67   19.37   -0.33  -69.25   -0.35  -69.50  -15.83   18.68
  18.575  -15.13   19.74   -0.37  -69.95   -0.35  -70.10  -15.18   17.31
  18.656  -14.67   19.75   -0.37  -70.54   -0.37  -70.62  -14.65   17.10
  18.738  -14.20   19.50   -0.39  -71.08   -0.39  -71.19  -14.22   16.10
  18.819  -13.84   19.57   -0.40  -71.59   -0.40  -71.59  -13.77   15.51
  18.901  -13.43   19.36   -0.42  -72.01   -0.44  -72.16  -13.46   14.73
  18.982  -13.09   20.01   -0.44  -72.48   -0.42  -72.70  -13.11   13.47
  19.064  -12.84   19.51   -0.45  -73.11   -0.44  -73.09  -12.77   12.80
  19.145  -12.51   19.22   -0.43  -73.63   -0.46  -73.62  -12.46   12.37
  19.227  -12.22   18.88   -0.44  -74.09   -0.46  -74.16  -12.23   11.38
  19.308  -12.00   19.26   -0.47  -74.47   -0.46  -74.57  -11.93   10.70
  19.390  -11.77   18.81   -0.48  -75.07   -0.50  -75.23  -11.77    9.98
  19.471  -11.60   19.44   -0.51  -75.57   -0.47  -75.72  -11.45    8.71
  19.553  -11.49   18.53   -0.53  -76.26   -0.53  -76.08  -11.29    8.84
  19.634  -11.23   18.53   -0.53  -76.67   -0.54  -76.58  -11.07    7.93
  19.716  -10.96   18.72   -0.52  -76.91   -0.56  -77.13  -10.98    7.39
  19.797  -10.89   18.76   -0.57  -77.33   -0.56  -77.30  -10.72    6.65
  19.879  -10.72   18.98   -0.58  -77.68   -0.59  -78.09  -10.63    5.85
  19.960  -10.68   18.46   -0.60  -78.40   -0.55  -78.42  -10.34    5.38
  20.042  -10.54   18.21   -0.61  -78.87   -0.59  -78.68  -10.24    5.48
  20.123  -10.35   17.73   -0.60  -79.49   -0.63  -79.48  -10.20    4.62
  20.205  -10.26   18.52   -0.64  -79.68   -0.63  -79.80  -10.04    3.96
  20.286  -10.16   18.38   -0.66  -80.12   -0.66  -80.17   -9.95    3.64
  20.368  -10.09   18.28   -0.71  -80.54   -0.69  -80.70   -9.82    2.80
  20.449  -10.02   17.86   -0.70  -81.17   -0.65  -81.28   -9.63    2.37
  20.531   -9.90   16.95   -0.71  -81.53   -0.69  -81.33   -9.61    2.66
  20.612   -9.76   17.21   -0.69  -81.95   -0.72  -82.01   -9.58    1.53
  20.694   -9.78   17.00   -0.71  -82.24   -0.71  -82.34   -9.42    0.92
  20.775   -9.71   16.66   -0.74  -82.57   -0.76  -82.77   -9.42    0.51
  20.857   -9.76   16.30   -0.77  -83.10   -0.78  -83.34   -9.33   -0.51
  20.938   -9.76   15.96   -0.76  -83.54   -0.71  -83.59   -9.18   -0.21
  21.020   -9.70   14.89   -0.76  -83.92   -0.74  -83.82   -9.29   -0.29
  21.101   -9.60   15.80   -0.72  -84.12   -0.76  -84.28   -9.29   -1.31
  21.183   -9.73   14.84   -0.74  -84.50   -0.71  -84.56   -9.18   -1.20
  21.264   -9.64   14.94   -0.74  -84.82   -0.77  -84.99   -9.26   -2.20
  21.346   -9.72   14.37   -0.74  -85.55   -0.74  -85.78   -9.21   -2.41
  21.427   -9.74   13.77   -0.74  -85.95   -0.69  -86.25   -9.11   -2.44
  21.509   -9.63   13.16   -0.72  -86.63   -0.74  -86.47   -9.31   -2.31
  21.590   -9.75   13.01   -0.72  -86.97   -0.71  -87.25   -9.19   -3.04
  21.672   -9.72   12.48   -0.72  -87.33   -0.72  -87.48   -9.25   -2.66
