!  American Technical Ceramics  Date:   10/26/00
!  One Norden Lane
!  Huntington Station,  NY.   11746-2102
!  Tel:  (631) 622-4700               Fax:  (631) 622-4748
!  Part Number  600S120JW      Mounting Orientation: Horizontal
!  Description: Ultra Low ESR Microwave capacitors
!  Application: Coupling, Bypass, Tuning, DC Block
!               Filters, Matching
# GHZ S DB R 50
! Freq   |S11|   S11 Ph  |S21|   S21 Ph  |S12|   S12 Ph  |S22|   S22 Ph
   0.000   0.00    0.00	  -999.00  90.00  -999.00  90.00    0.00    0.00
   0.400  -10.30  -72.73   -0.48   16.72   -0.48   16.67  -10.27  -71.88
   0.444  -11.12  -74.59   -0.39   14.81   -0.40   14.62  -11.12  -73.98
   0.488  -11.92  -76.37   -0.33   13.28   -0.33   13.29  -11.91  -75.04
   0.532  -12.67  -77.34   -0.28   11.89   -0.29   11.70  -12.63  -76.75
   0.576  -13.36  -78.80   -0.25   10.72   -0.25   10.70  -13.35  -77.43
   0.620  -14.00  -79.53   -0.22    9.65   -0.22    9.50  -13.99  -78.85
   0.664  -14.61  -80.77   -0.19    8.74   -0.20    8.68  -14.61  -79.43
   0.708  -15.20  -81.27   -0.17    7.88   -0.17    7.76  -15.18  -80.50
   0.752  -15.75  -82.29   -0.16    7.11   -0.15    7.04  -15.74  -80.92
   0.796  -16.29  -82.63   -0.14    6.36   -0.14    6.31  -16.29  -81.86
   0.840  -16.79  -83.70   -0.14    5.73   -0.13    5.66  -16.80  -82.10
   0.884  -17.30  -83.88   -0.12    5.14   -0.12    5.08  -17.26  -83.02
   0.928  -17.75  -84.58   -0.11    4.56   -0.11    4.47  -17.74  -83.44
   0.972  -18.21  -85.03   -0.11    4.02   -0.10    4.01  -18.21  -83.87
   1.016  -18.66  -85.50   -0.10    3.54   -0.09    3.43  -18.62  -84.32
   1.060  -19.08  -85.90   -0.09    3.08   -0.09    3.06  -19.07  -84.86
   1.104  -19.51  -86.30   -0.09    2.63   -0.08    2.54  -19.48  -85.22
   1.148  -19.91  -86.62   -0.08    2.22   -0.08    2.16  -19.90  -85.58
   1.192  -20.32  -86.99   -0.08    1.78   -0.07    1.69  -20.28  -85.97
   1.236  -20.72  -87.34   -0.07    1.41   -0.07    1.35  -20.66  -86.21
   1.280  -21.09  -87.43   -0.07    1.00   -0.07    0.94  -21.06  -86.77
   1.324  -21.48  -87.80   -0.07    0.67   -0.07    0.61  -21.43  -86.81
   1.368  -21.85  -87.75   -0.06    0.31   -0.06    0.26  -21.80  -87.26
   1.412  -22.22  -88.13   -0.06   -0.01   -0.06   -0.09  -22.14  -87.40
   1.456  -22.57  -88.04   -0.06   -0.33   -0.05   -0.39  -22.54  -87.83
   1.500  -22.95  -88.39   -0.06   -0.66   -0.05   -0.74  -22.86  -87.78
   1.544  -23.28  -88.10   -0.06   -0.99   -0.05   -1.02  -23.23  -88.35
   1.588  -23.63  -88.55   -0.06   -1.29   -0.05   -1.37  -23.57  -88.41
   1.632  -23.97  -88.32   -0.06   -1.59   -0.05   -1.65  -23.94  -88.82
   1.676  -24.34  -88.47   -0.06   -1.86   -0.06   -1.94  -24.24  -88.76
   1.720  -24.62  -88.04   -0.06   -2.15   -0.05   -2.18  -24.53  -89.06
   1.764  -24.88  -88.41   -0.05   -2.41   -0.05   -2.47  -24.86  -89.64
   1.808  -25.23  -88.56   -0.05   -2.68   -0.05   -2.73  -25.20  -90.08
   1.852  -25.55  -88.71   -0.05   -2.95   -0.04   -3.01  -25.52  -90.43
   1.896  -25.90  -88.76   -0.05   -3.22   -0.04   -3.29  -25.85  -90.66
   1.940  -26.18  -88.65   -0.05   -3.48   -0.04   -3.53  -26.18  -91.12
   1.984  -26.52  -88.89   -0.05   -3.73   -0.04   -3.80  -26.49  -91.26
   2.028  -26.79  -88.70   -0.05   -4.01   -0.04   -4.04  -26.79  -91.82
   2.072  -27.14  -88.96   -0.05   -4.23   -0.04   -4.30  -27.08  -91.89
   2.116  -27.42  -88.55   -0.05   -4.50   -0.04   -4.53  -27.40  -92.29
   2.160  -27.73  -89.09   -0.05   -4.72   -0.04   -4.79  -27.67  -92.47
   2.204  -28.03  -88.53   -0.05   -4.96   -0.04   -5.02  -28.02  -93.08
   2.248  -28.35  -89.05   -0.04   -5.23   -0.04   -5.27  -28.29  -93.14
   2.292  -28.65  -88.41   -0.04   -5.45   -0.04   -5.49  -28.61  -93.39
   2.336  -28.93  -88.70   -0.05   -5.69   -0.04   -5.74  -28.90  -93.50
   2.380  -29.29  -88.14   -0.05   -5.92   -0.04   -5.97  -29.24  -93.47
   2.424  -29.57  -88.04   -0.04   -6.15   -0.05   -6.20  -29.48  -93.35
   2.468  -29.83  -87.55   -0.05   -6.36   -0.05   -6.44  -29.73  -93.26
   2.512  -30.07  -87.27   -0.05   -6.58   -0.05   -6.63  -29.95  -93.23
   2.556  -30.40  -86.77   -0.05   -6.81   -0.05   -6.83  -30.21  -93.37
   2.600  -30.58  -86.74   -0.05   -7.02   -0.04   -7.06  -30.46  -94.06
   2.644  -30.90  -87.06   -0.05   -7.24   -0.04   -7.27  -30.69  -94.01
   2.688  -31.10  -86.04   -0.05   -7.46   -0.04   -7.49  -30.99  -94.32
   2.732  -31.49  -85.84   -0.05   -7.68   -0.04   -7.74  -31.26  -93.80
   2.776  -31.68  -84.85   -0.05   -7.89   -0.05   -7.93  -31.49  -93.90
   2.820  -31.86  -85.42   -0.05   -8.11   -0.05   -8.13  -31.62  -93.63
   2.864  -32.03  -84.74   -0.05   -8.28   -0.05   -8.32  -31.80  -93.94
   2.908  -32.30  -85.07   -0.05   -8.50   -0.05   -8.55  -31.98  -94.00
   2.952  -32.59  -84.12   -0.05   -8.72   -0.05   -8.77  -32.18  -94.12
   2.996  -32.82  -84.27   -0.05   -8.90   -0.05   -8.95  -32.24  -94.07
   3.040  -32.62  -89.10   -0.06   -9.10   -0.05   -9.14  -31.79  -88.04
   3.084  -32.67  -89.65   -0.06   -9.28   -0.05   -9.31  -31.94  -88.97
   3.128  -33.03  -89.62   -0.05   -9.47   -0.05   -9.53  -32.09  -89.32
   3.172  -32.99  -89.75   -0.05   -9.65   -0.04   -9.69  -32.20  -90.96
   3.216  -33.26  -90.70   -0.05   -9.88   -0.04   -9.92  -32.56  -92.39
   3.260  -33.47  -90.49   -0.04  -10.10   -0.04  -10.11  -32.97  -93.05
   3.304  -33.86  -90.92   -0.05  -10.31   -0.04  -10.34  -33.31  -92.64
   3.348  -33.97  -90.23   -0.05  -10.50   -0.05  -10.54  -33.50  -92.22
   3.392  -34.15  -91.05   -0.05  -10.68   -0.04  -10.72  -33.59  -92.39
   3.436  -34.34  -90.56   -0.05  -10.88   -0.04  -10.92  -33.92  -93.29
   3.480  -34.70  -91.52   -0.05  -11.09   -0.04  -11.13  -34.09  -92.86
   3.524  -34.95  -90.43   -0.04  -11.27   -0.04  -11.30  -34.26  -94.17
   3.568  -35.15  -91.38   -0.04  -11.47   -0.04  -11.50  -34.47  -95.09
   3.612  -35.51  -90.14   -0.04  -11.68   -0.04  -11.73  -34.77  -96.24
   3.656  -35.71  -90.35   -0.04  -11.86   -0.04  -11.92  -35.08  -97.54
   3.700  -36.02  -89.50   -0.04  -12.09   -0.04  -12.11  -35.46  -98.10
   3.744  -36.30  -89.69   -0.04  -12.29   -0.04  -12.33  -35.73  -98.58
   3.788  -36.77  -88.68   -0.04  -12.49   -0.04  -12.52  -36.17  -99.40
   3.832  -36.96  -87.05   -0.04  -12.69   -0.04  -12.72  -36.59  -99.73
   3.876  -37.48  -86.52   -0.04  -12.89   -0.04  -12.94  -36.83 -100.17
   3.920  -37.65  -84.92   -0.04  -13.08   -0.04  -13.11  -37.30 -101.44
   3.964  -38.17  -83.99   -0.05  -13.27   -0.04  -13.34  -37.84 -101.65
   4.008  -38.26  -80.06   -0.04  -13.47   -0.04  -13.52  -38.22 -102.40
   4.052  -38.65  -80.08   -0.04  -13.66   -0.04  -13.71  -38.81 -102.53
   4.096  -38.83  -76.61   -0.04  -13.87   -0.04  -13.89  -39.27 -102.87
   4.140  -39.17  -75.43   -0.04  -14.07   -0.04  -14.09  -39.88 -103.02
   4.184  -39.31  -71.78   -0.04  -14.26   -0.04  -14.31  -40.42 -102.46
   4.228  -39.62  -72.02   -0.04  -14.47   -0.04  -14.49  -40.71 -102.85
   4.272  -39.89  -68.90   -0.05  -14.65   -0.04  -14.68  -41.09 -104.74
   4.316  -40.12  -68.74   -0.05  -14.84   -0.04  -14.88  -41.92 -105.70
   4.360  -40.76  -65.43   -0.05  -15.04   -0.04  -15.10  -42.69 -106.99
   4.404  -41.25  -62.35   -0.05  -15.24   -0.04  -15.26  -43.97 -108.87
   4.448  -41.86  -55.52   -0.04  -15.43   -0.04  -15.45  -45.05 -108.00
   4.492  -41.37  -50.33   -0.04  -15.62   -0.04  -15.66  -45.97 -107.21
   4.536  -41.45  -47.26   -0.05  -15.82   -0.04  -15.86  -46.52 -108.22
   4.580  -41.44  -44.41   -0.04  -16.02   -0.04  -16.07  -47.65 -113.08
   4.624  -42.09  -41.18   -0.04  -16.24   -0.04  -16.27  -48.88 -117.81
   4.668  -41.66  -34.80   -0.04  -16.47   -0.04  -16.49  -50.99 -125.21
   4.712  -41.71  -31.48   -0.04  -16.69   -0.04  -16.70  -52.81 -129.08
   4.756  -41.59  -25.46   -0.05  -16.89   -0.04  -16.91  -54.62 -159.61
   4.800  -41.71  -22.29   -0.05  -17.11   -0.04  -17.14  -56.87  167.42
   4.844  -41.31  -15.14   -0.05  -17.32   -0.05  -17.35  -55.81  136.31
   4.888  -41.05  -10.55   -0.05  -17.52   -0.04  -17.55  -52.77  113.41
   4.932  -40.57   -4.58   -0.05  -17.72   -0.04  -17.76  -50.13   99.74
   4.976  -40.29   -0.42   -0.06  -17.95   -0.05  -17.97  -48.05   96.69
   5.020  -39.68    4.87   -0.06  -18.17   -0.05  -18.20  -45.66   90.61
   5.064  -39.01    8.75   -0.06  -18.41   -0.05  -18.41  -43.92   85.82
   5.108  -38.31   14.21   -0.06  -18.62   -0.05  -18.66  -42.45   83.80
   5.152  -37.50   16.84   -0.06  -18.87   -0.06  -18.90  -40.89   82.01
   5.196  -36.78   19.96   -0.06  -19.11   -0.06  -19.14  -39.56   79.06
   5.240  -35.77   23.06   -0.07  -19.34   -0.06  -19.38  -38.38   77.53
   5.284  -34.97   25.24   -0.07  -19.61   -0.06  -19.65  -37.01   75.59
   5.328  -34.08   27.56   -0.07  -19.87   -0.07  -19.90  -35.91   73.65
   5.372  -33.16   28.68   -0.08  -20.16   -0.07  -20.20  -34.70   72.53
   5.416  -32.07   29.93   -0.09  -20.46   -0.08  -20.50  -33.45   70.57
   5.460  -31.08   30.97   -0.09  -20.80   -0.09  -20.83  -32.22   68.86
   5.504  -29.85   31.82   -0.11  -21.16   -0.10  -21.15  -30.96   66.60
   5.548  -28.70   31.15   -0.13  -21.55   -0.13  -21.60  -29.60   64.04
   5.592  -27.27   30.51   -0.16  -22.02   -0.15  -22.06  -28.14   60.27
   5.636  -25.75   28.30   -0.21  -22.55   -0.21  -22.59  -26.56   56.09
   5.680  -24.05   24.32   -0.29  -23.18   -0.29  -23.18  -24.76   50.03
   5.724  -22.12   17.55   -0.43  -23.77   -0.44  -23.78  -22.81   40.77
   5.768  -20.08    5.29   -0.70  -24.00   -0.69  -23.98  -20.82   26.61
   5.812  -18.49  -14.46   -1.02  -22.64   -1.00  -22.59  -19.22    4.95
   5.856  -18.48  -39.29   -1.06  -19.51   -1.04  -19.59  -19.20  -21.65
   5.900  -20.05  -60.10   -0.74  -17.80   -0.73  -17.87  -20.78  -44.35
   5.944  -22.29  -73.04   -0.46  -17.90   -0.47  -17.93  -22.97  -59.40
   5.988  -24.43  -80.01   -0.31  -18.47   -0.30  -18.52  -25.21  -68.89
   6.032  -26.46  -83.90   -0.22  -19.11   -0.22  -19.13  -27.22  -74.85
   6.076  -28.24  -85.29   -0.17  -19.65   -0.16  -19.68  -29.15  -79.49
   6.120  -29.97  -85.46   -0.14  -20.11   -0.13  -20.14  -30.98  -81.95
   6.164  -31.54  -84.22   -0.12  -20.53   -0.11  -20.57  -32.84  -83.65
   6.208  -33.13  -82.15   -0.10  -20.90   -0.09  -20.90  -34.61  -84.09
   6.252  -34.53  -77.94   -0.09  -21.24   -0.09  -21.24  -36.55  -83.73
   6.296  -35.94  -73.03   -0.08  -21.56   -0.08  -21.57  -38.53  -81.02
   6.340  -37.29  -66.51   -0.08  -21.83   -0.07  -21.86  -40.80  -78.50
   6.384  -38.60  -59.78   -0.08  -22.13   -0.07  -22.11  -43.28  -72.78
   6.428  -39.49  -48.87   -0.08  -22.37   -0.07  -22.41  -45.92  -61.57
   6.472  -40.17  -38.77   -0.07  -22.65   -0.06  -22.68  -48.90  -39.99
   6.516  -40.61  -23.98   -0.07  -22.91   -0.06  -22.92  -49.64   -6.21
   6.560  -40.47  -14.93   -0.07  -23.15   -0.06  -23.16  -48.04   20.97
   6.604  -40.03   -4.35   -0.06  -23.41   -0.06  -23.39  -45.54   35.21
   6.648  -39.33    2.80   -0.06  -23.62   -0.06  -23.61  -43.44   43.95
   6.692  -38.74   11.85   -0.06  -23.85   -0.06  -23.85  -41.50   49.20
   6.736  -38.05   17.74   -0.06  -24.08   -0.05  -24.10  -40.16   53.48
   6.780  -37.27   22.83   -0.06  -24.29   -0.06  -24.32  -38.96   53.80
   6.824  -36.42   24.63   -0.06  -24.49   -0.06  -24.52  -37.84   54.92
   6.868  -35.86   29.85   -0.07  -24.74   -0.07  -24.80  -36.63   56.25
   6.912  -34.95   32.13   -0.07  -24.97   -0.06  -24.99  -35.87   56.89
   6.956  -34.60   34.48   -0.06  -25.20   -0.06  -25.22  -35.07   57.09
   7.000  -33.78   35.92   -0.07  -25.39   -0.06  -25.44  -34.39   56.64
   7.044  -33.23   37.65   -0.06  -25.62   -0.06  -25.65  -33.72   57.20
   7.088  -32.57   40.00   -0.06  -25.80   -0.06  -25.84  -33.09   57.34
   7.132  -32.24   40.41   -0.07  -26.04   -0.06  -26.06  -32.64   57.54
   7.176  -31.66   41.39   -0.07  -26.28   -0.06  -26.30  -32.05   57.23
   7.220  -31.22   41.55   -0.07  -26.45   -0.06  -26.48  -31.53   57.19
   7.264  -30.73   44.11   -0.07  -26.68   -0.07  -26.70  -31.04   57.27
   7.308  -30.35   44.02   -0.07  -26.90   -0.07  -26.93  -30.65   57.55
   7.352  -30.00   45.02   -0.07  -27.14   -0.07  -27.15  -30.17   57.28
   7.396  -29.40   45.19   -0.07  -27.36   -0.06  -27.37  -29.75   56.46
   7.440  -29.07   46.19   -0.07  -27.56   -0.06  -27.57  -29.24   57.09
   7.484  -28.61   46.69   -0.07  -27.78   -0.06  -27.78  -28.83   56.66
   7.528  -28.31   46.87   -0.07  -28.00   -0.08  -28.01  -28.41   56.62
   7.572  -27.81   47.07   -0.08  -28.21   -0.07  -28.25  -27.97   55.97
   7.616  -27.51   47.28   -0.08  -28.43   -0.07  -28.44  -27.55   56.03
   7.660  -27.09   47.94   -0.08  -28.67   -0.08  -28.67  -27.14   55.39
   7.704  -26.77   47.56   -0.08  -28.90   -0.07  -28.91  -26.79   54.86
   7.748  -26.38   47.46   -0.09  -29.10   -0.09  -29.16  -26.37   54.32
   7.792  -26.03   47.09   -0.09  -29.36   -0.08  -29.39  -26.04   53.95
   7.836  -25.74   47.41   -0.09  -29.61   -0.10  -29.68  -25.56   53.56
   7.880  -25.32   47.27   -0.09  -29.81   -0.08  -29.84  -25.25   52.54
   7.924  -25.08   46.68   -0.10  -30.03   -0.09  -30.09  -24.90   52.35
   7.968  -24.71   46.72   -0.10  -30.31   -0.10  -30.31  -24.56   51.05
   8.012  -24.45   46.14   -0.10  -30.52   -0.10  -30.56  -24.18   50.44
   8.056  -24.18   46.08   -0.11  -30.78   -0.10  -30.76  -23.91   49.26
   8.100  -23.97   45.48   -0.12  -31.03   -0.11  -31.02  -23.64   48.69
   8.144  -23.67   45.54   -0.12  -31.29   -0.11  -31.31  -23.33   47.98
   8.188  -23.42   45.54   -0.12  -31.53   -0.11  -31.56  -23.06   47.30
   8.232  -23.12   45.62   -0.12  -31.83   -0.12  -31.88  -22.77   46.82
   8.276  -22.88   46.01   -0.13  -32.11   -0.11  -32.09  -22.49   45.99
   8.320  -22.54   46.31   -0.13  -32.49   -0.13  -32.54  -22.29   45.46
   8.364  -24.05   56.82   -0.14  -32.73   -0.13  -32.73  -23.22   31.27
   8.408  -23.31   56.38   -0.15  -33.03   -0.14  -33.06  -22.72   31.85
   8.452  -22.63   55.85   -0.16  -33.36   -0.15  -33.29  -22.19   31.96
   8.496  -21.94   54.62   -0.18  -33.66   -0.17  -33.68  -21.67   32.61
   8.540  -21.35   53.60   -0.20  -34.08   -0.19  -34.05  -21.12   32.69
   8.584  -20.74   51.89   -0.22  -34.41   -0.21  -34.46  -20.52   32.93
   8.628  -20.16   50.65   -0.24  -34.81   -0.24  -34.85  -19.89   32.69
   8.672  -19.60   49.44   -0.26  -35.23   -0.25  -35.19  -19.26   32.41
   8.716  -19.00   47.96   -0.29  -35.68   -0.28  -35.73  -18.70   31.79
   8.760  -18.47   46.29   -0.33  -36.20   -0.32  -36.17  -18.00   31.18
   8.804  -17.80   44.55   -0.38  -36.70   -0.37  -36.74  -17.37   29.93
   8.848  -17.20   42.41   -0.44  -37.29   -0.43  -37.24  -16.70   28.68
   8.892  -16.52   39.88   -0.51  -37.91   -0.51  -37.99  -16.06   27.14
   8.936  -15.87   36.99   -0.62  -38.63   -0.61  -38.58  -15.33   25.16
   8.980  -15.12   33.41   -0.75  -39.30   -0.76  -39.34  -14.59   22.98
   9.024  -14.36   29.18   -0.93  -40.07   -0.93  -40.06  -13.70   19.76
   9.068  -13.53   23.23   -1.20  -40.72   -1.19  -40.71  -12.83   15.44
   9.112  -12.71   15.63   -1.56  -40.95   -1.55  -40.93  -11.94    9.09
   9.156  -12.02    5.04   -2.04  -40.22   -2.02  -40.11  -11.13    0.68
   9.200  -11.62   -6.77   -2.53  -37.62   -2.51  -37.59  -10.67   -9.91
   9.244  -11.78  -21.64   -2.77  -32.85   -2.73  -32.81  -10.63  -21.68
   9.288  -12.54  -36.21   -2.56  -27.93   -2.53  -28.04  -11.21  -34.16
   9.332  -13.90  -50.01   -2.03  -25.11   -2.02  -25.18  -12.28  -44.26
   9.376  -15.72  -60.98   -1.52  -24.34   -1.51  -24.45  -13.75  -51.95
   9.420  -17.78  -69.83   -1.12  -24.70   -1.11  -24.81  -15.32  -56.58
   9.464  -20.00  -76.94   -0.84  -25.52   -0.84  -25.56  -16.95  -58.55
   9.508  -22.47  -82.43   -0.65  -26.41   -0.64  -26.47  -18.45  -58.37
   9.552  -25.14  -87.33   -0.51  -27.31   -0.50  -27.32  -19.91  -55.97
   9.596  -28.38  -92.24   -0.42  -28.10   -0.41  -28.13  -21.17  -52.10
   9.640  -32.37  -97.96   -0.34  -28.83   -0.33  -28.84  -22.25  -46.62
   9.684  -38.41 -109.09   -0.28  -29.47   -0.27  -29.51  -23.10  -40.34
   9.728  -49.24 -176.31   -0.23  -30.09   -0.23  -30.08  -23.66  -33.27
   9.772  -40.22  106.29   -0.19  -30.65   -0.19  -30.67  -24.00  -26.39
   9.816  -34.98   95.30   -0.16  -31.21   -0.15  -31.18  -24.16  -19.78
   9.860  -31.98   90.55   -0.13  -31.70   -0.13  -31.72  -24.12  -13.97
   9.904  -29.88   87.70   -0.11  -32.19   -0.10  -32.16  -23.91   -8.51
   9.948  -28.25   86.08   -0.09  -32.65   -0.09  -32.66  -23.79   -4.02
   9.992  -27.09   84.45   -0.09  -33.12   -0.08  -33.12  -23.45    0.14
  10.036  -26.08   82.87   -0.08  -33.55   -0.08  -33.54  -23.26    3.32
  10.080  -25.29   81.80   -0.07  -33.98   -0.07  -33.97  -22.91    7.07
  10.124  -24.56   81.21   -0.08  -34.31   -0.07  -34.33  -22.58    9.65
  10.168  -23.97   80.42   -0.07  -34.70   -0.07  -34.71  -22.22   12.37
  10.212  -23.46   79.68   -0.07  -35.05   -0.07  -35.06  -21.80   14.14
  10.256  -22.96   79.17   -0.07  -35.35   -0.07  -35.33  -21.43   15.63
  10.300  -22.51   78.73   -0.08  -35.64   -0.07  -35.65  -21.07   16.81
  10.344  -22.10   78.54   -0.08  -35.96   -0.08  -35.98  -20.77   17.40
  10.388  -21.70   78.03   -0.09  -36.24   -0.07  -36.26  -20.46   18.02
  10.432  -21.26   77.73   -0.09  -36.55   -0.09  -36.57  -20.28   18.15
  10.476  -20.92   76.76   -0.10  -36.82   -0.09  -36.79  -20.01   19.11
  10.520  -20.56   76.26   -0.10  -37.07   -0.10  -37.09  -19.83   18.85
  10.564  -20.30   74.63   -0.11  -37.33   -0.10  -37.31  -19.64   19.76
  10.608  -20.07   73.73   -0.12  -37.54   -0.11  -37.57  -19.45   19.68
  10.652  -19.87   72.58   -0.12  -37.78   -0.11  -37.81  -19.30   20.37
  10.696  -19.75   72.05   -0.12  -38.00   -0.11  -38.04  -19.12   20.27
  10.740  -19.66   71.31   -0.12  -38.17   -0.12  -38.19  -19.01   20.20
  10.784  -19.55   70.43   -0.13  -38.39   -0.12  -38.39  -18.87   20.70
  10.828  -19.46   70.37   -0.13  -38.63   -0.12  -38.64  -18.73   20.75
  10.872  -19.39   69.85   -0.13  -38.83   -0.12  -38.80  -18.63   21.13
  10.916  -19.34   69.70   -0.13  -39.03   -0.13  -39.08  -18.52   20.85
  10.960  -19.28   69.05   -0.13  -39.25   -0.13  -39.23  -18.41   21.25
  11.004  -19.26   69.43   -0.14  -39.40   -0.13  -39.39  -18.31   21.16
  11.048  -19.23   69.56   -0.13  -39.56   -0.12  -39.54  -18.24   21.37
  11.092  -19.15   70.08   -0.13  -39.78   -0.13  -39.79  -18.19   20.94
  11.136  -19.02   70.28   -0.11  -39.93   -0.11  -39.91  -18.17   21.31
  11.180  -18.91   70.41   -0.11  -40.13   -0.11  -40.12  -18.10   21.78
  11.224  -18.80   70.54   -0.10  -40.34   -0.10  -40.35  -18.04   22.03
  11.268  -18.68   70.35   -0.10  -40.57   -0.09  -40.56  -18.03   22.36
  11.312  -18.61   70.11   -0.10  -40.78   -0.09  -40.81  -17.91   22.73
  11.356  -18.46   69.93   -0.09  -41.02   -0.09  -41.01  -17.88   22.92
  11.400  -18.37   69.77   -0.09  -41.24   -0.08  -41.27  -17.80   23.35
  11.444  -18.33   69.35   -0.08  -41.48   -0.07  -41.47  -17.70   23.44
  11.488  -18.27   69.24   -0.08  -41.70   -0.07  -41.71  -17.61   23.29
  11.532  -18.18   68.85   -0.08  -41.88   -0.07  -41.93  -17.58   23.51
  11.576  -18.13   68.63   -0.07  -42.13   -0.07  -42.11  -17.54   23.67
  11.620  -18.09   68.28   -0.07  -42.34   -0.06  -42.37  -17.46   23.50
  11.664  -18.01   67.85   -0.06  -42.58   -0.06  -42.61  -17.45   23.35
  11.708  -18.01   67.28   -0.07  -42.82   -0.05  -42.87  -17.37   23.22
  11.752  -17.94   66.94   -0.07  -43.09   -0.05  -43.08  -17.43   23.03
  11.796  -17.96   66.03   -0.07  -43.36   -0.06  -43.29  -17.37   23.25
  11.840  -17.97   65.74   -0.07  -43.57   -0.07  -43.62  -17.39   22.43
  11.884  -17.93   65.27   -0.07  -43.80   -0.07  -43.78  -17.45   22.60
