!  American Technical Ceramics  Date:   4/26/2005
!  One Norden Lane
!  Huntington Station,  NY.   11746-2102
!  Tel:  (631) 622-4700               Fax:  (631) 622-4748
!  Part Number  600S2R7         Mounting Orientation: Horizontal
!  Description: Ultra Low ESR Microwave capacitors
!  Application: Coupling, Bypass, Tuning, DC Block
!               Filters, Matching
# GHZ S DB R 50
! Freq   |S11|   S11 Ph  |S21|   S21 Ph  |S12|   S12 Ph  |S22|   S22 Ph
   0.000   0.00    0.00	  -999.00  90.00  -999.00  90.00    0.00    0.00
   0.400   -1.51  -33.64   -5.37   55.57   -5.53   55.71   -1.72  -33.91
   0.465   -1.97  -37.81   -4.44   51.27   -4.59   51.43   -2.10  -38.21
   0.530   -2.47  -41.74   -3.76   47.83   -3.91   47.41   -2.57  -41.78
   0.595   -2.89  -45.58   -3.25   44.23   -3.39   44.71   -3.06  -44.19
   0.660   -3.31  -48.17   -2.76   40.81   -2.92   41.55   -3.51  -47.96
   0.725   -3.84  -51.05   -2.40   38.00   -2.51   38.23   -3.93  -51.43
   0.790   -4.21  -54.02   -2.09   35.39   -2.23   35.43   -4.41  -54.14
   0.855   -4.68  -56.62   -1.87   32.91   -2.01   33.33   -4.90  -55.83
   0.920   -5.18  -58.52   -1.62   30.88   -1.76   31.38   -5.24  -58.01
   0.985   -5.53  -60.86   -1.45   28.75   -1.55   29.65   -5.72  -59.89
   1.050   -5.93  -62.23   -1.30   26.84   -1.41   27.32   -6.13  -62.57
   1.115   -6.41  -64.06   -1.16   25.18   -1.27   25.44   -6.51  -64.13
   1.180   -6.79  -66.47   -1.04   23.53   -1.13   24.12   -6.91  -65.04
   1.245   -7.15  -67.58   -0.95   22.29   -1.04   23.04   -7.27  -66.44
   1.310   -7.54  -68.54   -0.86   20.58   -0.94   21.35   -7.67  -68.62
   1.375   -7.94  -70.21   -0.78   19.40   -0.85   19.99   -8.02  -69.68
   1.440   -8.27  -71.94   -0.71   18.20   -0.80   18.66   -8.38  -70.79
   1.505   -8.61  -72.88   -0.66   17.11   -0.71   17.75   -8.71  -71.43
   1.570   -9.00  -73.68   -0.60   15.84   -0.65   16.67   -9.04  -73.07
   1.635   -9.30  -74.96   -0.54   14.91   -0.60   15.65   -9.36  -74.26
   1.700   -9.63  -76.30   -0.53   13.96   -0.57   14.42   -9.74  -74.96
   1.765   -9.98  -76.95   -0.46   12.99   -0.52   13.56  -10.02  -75.73
   1.830  -10.32  -78.29   -0.44   12.15   -0.48   12.85  -10.30  -76.38
   1.895  -10.54  -79.06   -0.40   11.28   -0.43   12.08  -10.60  -77.34
   1.960  -10.87  -79.18   -0.38   10.40   -0.41   11.12  -10.91  -78.50
   2.025  -11.23  -81.02   -0.34    9.65   -0.37   10.18  -11.19  -78.84
   2.090  -11.46  -82.19   -0.32    8.97   -0.36    9.49  -11.47  -79.43
   2.155  -11.72  -82.06   -0.31    8.15   -0.32    8.95  -11.77  -80.34
   2.220  -12.08  -82.62   -0.29    7.44   -0.29    8.22  -12.01  -80.92
   2.285  -12.34  -84.36   -0.26    6.77   -0.26    7.37  -12.31  -81.50
   2.350  -12.55  -84.73   -0.25    6.15   -0.27    6.64  -12.57  -82.03
   2.415  -12.90  -85.06   -0.23    5.44   -0.23    6.01  -12.84  -82.56
   2.480  -13.16  -86.00   -0.21    4.83   -0.21    5.53  -13.09  -83.28
   2.545  -13.33  -86.55   -0.21    4.23   -0.20    4.88  -13.35  -83.90
   2.610  -13.60  -86.91   -0.21    3.59   -0.19    4.10  -13.60  -84.08
   2.675  -13.94  -88.22   -0.19    3.09   -0.19    3.52  -13.85  -84.33
   2.740  -14.07  -88.63   -0.19    2.53   -0.18    3.13  -14.10  -85.03
   2.805  -14.27  -88.66   -0.18    2.00   -0.15    2.64  -14.32  -85.31
   2.870  -14.60  -89.71   -0.16    1.50   -0.14    2.04  -14.53  -85.45
   2.935  -14.81  -91.23   -0.16    0.99   -0.14    1.44  -14.71  -85.96
   3.000  -15.00  -91.17   -0.15    0.46   -0.12    0.88  -14.93  -86.44
   3.065  -15.31  -90.74   -0.12    0.12   -0.10    0.66  -15.12  -87.21
   3.130  -15.53  -91.94   -0.12   -0.32   -0.08    0.19  -15.37  -87.77
   3.195  -15.68  -91.92   -0.12   -0.84   -0.09   -0.43  -15.56  -87.93
   3.260  -15.92  -91.81   -0.12   -1.25   -0.09   -0.92  -15.85  -88.23
   3.325  -16.17  -92.66   -0.11   -1.66   -0.09   -1.28  -15.99  -88.76
   3.390  -16.23  -93.26   -0.10   -2.03   -0.08   -1.61  -16.23  -89.15
   3.455  -16.48  -93.25   -0.10   -2.52   -0.06   -2.05  -16.45  -89.73
   3.520  -16.83  -94.45   -0.08   -2.92   -0.05   -2.61  -16.63  -89.86
   3.585  -16.99  -95.01   -0.08   -3.36   -0.05   -3.06  -16.86  -90.35
   3.650  -17.16  -94.67   -0.08   -3.76   -0.04   -3.49  -17.12  -90.88
   3.715  -17.47  -94.64   -0.08   -4.24   -0.03   -3.86  -17.28  -91.27
   3.780  -17.68  -96.02   -0.07   -4.59   -0.03   -4.29  -17.50  -91.15
   3.845  -17.81  -95.94   -0.08   -4.99   -0.04   -4.76  -17.71  -91.77
   3.910  -18.08  -95.88   -0.06   -5.39   -0.03   -5.21  -17.89  -92.20
   3.975  -18.31  -96.63   -0.06   -5.76   -0.03   -5.52  -18.15  -92.73
   4.040  -18.47  -97.33   -0.06   -6.15   -0.03   -5.89  -18.37  -93.15
   4.105  -18.71  -97.08   -0.07   -6.51   -0.02   -6.30  -18.57  -93.20
   4.170  -19.05  -97.91   -0.05   -6.87   -0.02   -6.73  -18.83  -93.48
   4.235  -19.17  -98.20   -0.06   -7.21   -0.01   -7.05  -19.12  -94.28
   4.300  -19.37  -97.88   -0.05   -7.63    0.00   -7.45  -19.31  -94.02
   4.365  -19.66  -98.80   -0.05   -7.96   -0.01   -7.81  -19.56  -93.97
   4.430  -19.97 -100.11   -0.05   -8.29   -0.01   -8.19  -19.77  -93.93
   4.495  -20.16  -99.29   -0.04   -8.60    0.00   -8.58  -19.98  -93.45
   4.560  -20.43  -98.62   -0.03   -9.00   -0.01   -8.93  -20.19  -94.19
   4.625  -20.63 -100.09   -0.02   -9.33   -0.01   -9.25  -20.43  -94.37
   4.690  -20.83 -100.52   -0.03   -9.74   -0.01   -9.69  -20.59  -94.06
   4.755  -21.10 -100.40   -0.02  -10.05   -0.01   -9.97  -20.85  -93.94
   4.820  -21.39 -100.77   -0.02  -10.42   -0.01  -10.46  -21.07  -94.43
   4.885  -21.60 -101.50   -0.02  -10.81   -0.01  -10.72  -21.27  -94.23
   4.950  -21.83 -101.20   -0.02  -11.08   -0.01  -11.09  -21.55  -94.12
   5.015  -22.21 -102.14   -0.01  -11.47   -0.01  -11.47  -21.68  -93.68
   5.080  -22.40 -102.46   -0.02  -11.79   -0.01  -11.86  -21.94  -94.07
   5.145  -22.62 -102.63   -0.01  -12.13   -0.01  -12.18  -22.16  -93.76
   5.210  -22.96 -102.66   -0.02  -12.49   -0.01  -12.48  -22.40  -93.96
   5.275  -23.32 -103.74   -0.01  -12.83   -0.01  -12.83  -22.58  -93.39
   5.340  -23.48 -104.10   -0.01  -13.13   -0.01  -13.17  -22.83  -93.24
   5.405  -23.91 -104.11   -0.01  -13.49   -0.01  -13.53  -23.01  -93.22
   5.470  -24.18 -104.77   -0.01  -13.79   -0.01  -13.85  -23.35  -93.27
   5.535  -24.52 -105.55   -0.01  -14.13   -0.01  -14.14  -23.49  -92.97
   5.600  -24.85 -105.63   -0.01  -14.46   -0.01  -14.49  -23.75  -92.41
   5.665  -25.29 -106.27    0.00  -14.79   -0.01  -14.84  -23.95  -92.32
   5.730  -25.57 -106.69   -0.01  -15.12   -0.01  -15.15  -24.26  -92.23
   5.795  -25.95 -107.03   -0.01  -15.48   -0.01  -15.48  -24.43  -91.92
   5.860  -26.45 -107.71    0.00  -15.78   -0.01  -15.80  -24.69  -91.74
   5.925  -26.86 -108.26    0.00  -16.15   -0.01  -16.13  -24.86  -91.17
   5.990  -27.27 -108.39    0.00  -16.50    0.00  -16.50  -25.17  -90.67
   6.055  -27.77 -108.03    0.00  -16.77    0.00  -16.83  -25.36  -91.21
   6.120  -28.14 -108.49    0.00  -17.10   -0.01  -17.10  -25.64  -90.38
   6.185  -28.65 -108.99   -0.01  -17.42   -0.01  -17.40  -25.79  -90.41
   6.250  -29.02 -108.75   -0.01  -17.69   -0.01  -17.73  -26.12  -90.66
   6.315  -29.37 -109.87   -0.01  -18.00   -0.02  -18.03  -26.40  -90.69
   6.380  -29.88 -111.56   -0.01  -18.32   -0.03  -18.36  -26.74  -90.63
   6.445  -30.49 -114.37   -0.01  -18.62   -0.04  -18.59  -27.02  -90.63
   6.510  -31.14 -115.78   -0.02  -18.90   -0.06  -18.82  -27.41  -90.01
   6.575  -31.87 -114.25   -0.01  -19.15   -0.06  -18.90  -27.68  -90.26
   6.640  -33.20 -115.37   -0.01  -19.46   -0.06  -19.07  -27.99  -88.92
   6.705  -33.71 -120.15   -0.01  -19.74   -0.04  -19.30  -28.50  -89.27
   6.770  -33.99 -118.34    0.00  -20.05   -0.01  -19.53  -28.65  -90.21
   6.835  -35.20 -119.48   -0.01  -20.36   -0.01  -19.78  -28.78  -88.40
   6.900  -36.97 -121.76   -0.01  -20.67   -0.01  -20.17  -29.49  -88.91
   6.965  -36.73 -130.52   -0.01  -20.94   -0.01  -20.44  -29.80  -91.70
   7.030  -38.36 -127.81   -0.01  -21.26   -0.01  -20.84  -29.94  -90.57
   7.095  -41.04 -134.36    0.00  -21.56   -0.01  -21.23  -30.89  -90.13
   7.160  -41.46 -151.12   -0.01  -21.86   -0.01  -21.56  -31.27  -93.33
   7.225  -42.45 -150.77   -0.01  -22.17   -0.01  -21.94  -31.61  -92.09
   7.290  -46.41 -158.54   -0.01  -22.48   -0.01  -22.27  -32.64  -92.65
   7.355  -44.91  163.48   -0.01  -22.80   -0.01  -22.58  -33.20  -96.43
   7.420  -43.04  161.65   -0.01  -23.07   -0.01  -22.89  -33.63  -95.05
   7.485  -43.40  135.17   -0.01  -23.38   -0.01  -23.25  -35.00  -96.94
   7.550  -40.16  117.26   -0.01  -23.70   -0.01  -23.63  -35.77 -104.61
   7.615  -38.28  113.17   -0.01  -24.00   -0.01  -23.86  -36.94 -106.33
   7.680  -37.99  100.41   -0.01  -24.28   -0.01  -24.30  -39.32 -113.75
   7.745  -35.90   92.32   -0.01  -24.61   -0.01  -24.63  -40.80 -125.32
   7.810  -34.67   91.45   -0.01  -24.90   -0.01  -24.88  -43.30 -137.44
   7.875  -34.46   86.43   -0.01  -25.18   -0.01  -25.21  -46.59 -170.30
   7.940  -33.37   80.12   -0.01  -25.52   -0.01  -25.56  -45.24  154.61
   8.005  -32.34   78.40   -0.01  -25.83   -0.01  -25.85  -43.44  127.82
   8.070  -32.28   76.98   -0.01  -26.14   -0.01  -26.18  -40.20  109.75
   8.135  -31.55   72.28   -0.01  -26.46   -0.01  -26.53  -37.83  103.39
   8.200  -31.04   71.13   -0.01  -26.79   -0.01  -26.89  -35.87   95.46
   8.265  -30.99   70.68   -0.01  -27.09   -0.01  -27.15  -34.06   91.41
   8.330  -34.07   47.04    0.00  -27.36   -0.01  -27.53  -33.09   52.18
   8.395  -32.84   48.65    0.00  -27.66   -0.01  -27.79  -32.26   52.36
   8.460  -32.44   50.52   -0.01  -27.94   -0.01  -28.01  -31.37   52.02
   8.525  -31.91   48.79   -0.01  -28.24   -0.01  -28.37  -30.50   52.00
   8.590  -31.11   48.22   -0.01  -28.53   -0.01  -28.68  -29.82   50.38
   8.655  -30.59   49.86   -0.01  -28.81   -0.01  -28.98  -29.26   48.24
   8.720  -30.25   51.54   -0.01  -29.13   -0.01  -29.23  -29.03   45.74
   8.785  -29.57   50.72   -0.01  -29.43   -0.01  -29.54  -28.85   46.34
   8.850  -28.85   51.04   -0.01  -29.74   -0.01  -29.82  -28.67   47.01
   8.915  -28.58   50.48   -0.02  -30.01   -0.01  -30.15  -28.25   48.28
   8.980  -28.29   50.41   -0.01  -30.29   -0.01  -30.44  -27.88   50.16
   9.045  -27.78   52.03   -0.01  -30.58   -0.01  -30.71  -27.35   50.57
   9.110  -27.30   53.71    0.00  -30.90   -0.01  -31.04  -26.66   50.65
   9.175  -26.87   52.45   -0.01  -31.21   -0.01  -31.36  -26.12   50.40
   9.240  -26.26   52.13   -0.01  -31.61   -0.01  -31.75  -25.89   48.50
   9.305  -25.83   53.21   -0.01  -32.04   -0.01  -32.19  -25.55   47.81
   9.370  -25.49   52.21   -0.01  -32.35   -0.01  -32.48  -25.35   48.89
   9.435  -25.05   51.02   -0.03  -32.62   -0.01  -32.71  -24.97   48.52
   9.500  -24.64   51.35   -0.03  -32.85   -0.02  -33.02  -24.48   49.09
   9.565  -24.25   51.60   -0.03  -33.16    0.00  -33.33  -24.15   48.68
   9.630  -23.86   50.26   -0.02  -33.51    0.00  -33.74  -23.72   47.59
   9.695  -23.46   49.44   -0.02  -33.85    0.00  -34.04  -23.27   47.28
   9.760  -23.22   49.78   -0.02  -34.24    0.00  -34.38  -22.90   47.26
   9.825  -22.80   49.32   -0.02  -34.63   -0.01  -34.81  -22.49   46.27
   9.890  -22.32   49.09   -0.02  -35.02    0.00  -35.19  -22.08   46.16
   9.955  -21.89   49.63   -0.03  -35.45   -0.01  -35.66  -21.79   44.92
  10.020  -21.53   47.86   -0.02  -35.93   -0.01  -35.99  -21.29   44.85
  10.085  -20.93   46.94   -0.03  -36.36   -0.02  -36.56  -20.89   44.44
  10.150  -20.49   46.47   -0.04  -36.97   -0.03  -37.15  -20.40   42.84
  10.215  -20.05   45.29   -0.06  -37.54   -0.04  -37.65  -19.91   42.25
  10.280  -19.47   43.66   -0.08  -38.14   -0.08  -38.30  -19.38   41.49
  10.345  -18.90   42.34   -0.11  -38.74   -0.10  -38.91  -18.79   40.22
  10.410  -18.34   40.54   -0.16  -39.47   -0.16  -39.58  -18.12   38.67
  10.475  -17.54   38.41   -0.21  -40.19   -0.21  -40.43  -17.50   36.45
  10.540  -16.86   35.72   -0.30  -41.11   -0.28  -41.25  -16.66   33.68
  10.605  -15.96   31.82   -0.41  -42.14   -0.40  -42.12  -15.77   30.82
  10.670  -14.92   26.89   -0.60  -43.08   -0.60  -43.08  -14.83   26.29
  10.735  -13.85   19.62   -0.89  -44.28   -0.89  -44.22  -13.67   19.39
  10.800  -12.62    9.18   -1.37  -44.71   -1.38  -44.78  -12.58    9.15
  10.865  -11.72   -6.40   -2.04  -43.15   -2.02  -43.15  -11.65   -4.96
  10.930  -11.65  -26.83   -2.52  -37.51   -2.44  -37.57  -11.41  -22.91
  10.995  -12.69  -47.28   -2.16  -31.26   -2.11  -31.52  -12.45  -42.28
  11.060  -14.77  -63.97   -1.43  -29.02   -1.41  -29.25  -14.36  -57.67
  11.125  -17.32  -75.18   -0.89  -29.49   -0.89  -29.81  -16.68  -67.39
  11.190  -19.91  -82.37   -0.56  -30.73   -0.56  -30.97  -19.07  -73.28
  11.255  -22.53  -87.01   -0.36  -32.00   -0.37  -32.15  -21.33  -75.24
  11.320  -25.14  -89.02   -0.24  -33.07   -0.24  -33.18  -23.60  -75.02
  11.385  -27.87  -88.99   -0.16  -34.00   -0.16  -34.13  -25.82  -72.72
  11.450  -30.96  -86.91   -0.10  -34.84   -0.11  -34.96  -28.00  -67.07
  11.515  -34.41  -80.79   -0.07  -35.60   -0.06  -35.70  -29.79  -57.60
  11.580  -38.79  -65.96   -0.03  -36.26   -0.03  -36.37  -31.45  -47.83
  11.645  -41.93  -29.41   -0.02  -36.91   -0.02  -37.02  -32.44  -33.93
  11.710  -40.71   10.60    0.00  -37.49    0.00  -37.62  -32.92  -19.94
  11.775  -37.53   30.78   -0.01  -38.04   -0.01  -38.20  -32.75   -7.88
  11.840  -34.87   38.77   -0.01  -38.53   -0.01  -38.65  -32.21    4.10
  11.905  -33.34   41.73   -0.01  -38.94   -0.01  -39.05  -31.38   11.50
  11.970  -31.83   43.56   -0.01  -39.40   -0.01  -39.51  -30.65   17.37
  12.035  -30.78   44.70   -0.01  -39.81   -0.01  -39.90  -29.85   21.42
  12.100  -29.87   45.54   -0.01  -40.23   -0.01  -40.29  -29.20   25.11
  12.165  -29.23   45.17   -0.01  -40.63   -0.01  -40.71  -28.61   27.11
  12.230  -28.35   45.10   -0.01  -40.99   -0.01  -41.21  -28.10   28.91
  12.295  -27.96   45.36   -0.01  -41.39   -0.01  -41.48  -27.64   29.96
  12.360  -27.46   44.50   -0.01  -41.72   -0.01  -41.82  -27.19   31.38
  12.425  -27.07   45.19   -0.01  -42.06   -0.01  -42.19  -26.76   32.31
  12.490  -26.63   44.41   -0.01  -42.45   -0.01  -42.49  -26.52   33.96
  12.555  -26.24   44.82   -0.01  -42.78   -0.01  -42.90  -26.17   34.01
  12.620  -25.84   44.63   -0.01  -43.12   -0.01  -43.20  -25.88   35.25
  12.685  -25.61   44.37   -0.01  -43.47   -0.01  -43.56  -25.55   36.24
  12.750  -25.21   43.55   -0.01  -43.82   -0.01  -43.74  -25.30   37.62
  12.815  -24.90   44.22   -0.01  -44.11   -0.01  -44.19  -24.95   37.78
  12.880  -24.58   43.01   -0.01  -44.54   -0.01  -44.55  -24.72   38.74
  12.945  -24.29   43.26   -0.01  -44.80   -0.01  -44.90  -24.35   38.84
  13.010  -24.04   42.58   -0.01  -45.08   -0.01  -45.16  -24.04   39.61
  13.075  -23.73   41.90   -0.01  -45.50   -0.01  -45.51  -23.81   39.87
  13.140  -23.47   41.48   -0.01  -45.77   -0.01  -45.75  -23.57   39.97
  13.205  -23.22   41.90   -0.01  -46.05   -0.01  -46.09  -23.28   39.70
  13.270  -22.99   39.99   -0.01  -46.41   -0.01  -46.46  -23.08   40.54
  13.335  -22.72   40.23   -0.01  -46.75   -0.01  -46.81  -22.80   39.88
  13.400  -22.52   39.07   -0.01  -46.98   -0.01  -47.04  -22.68   40.25
  13.465  -22.22   38.52   -0.01  -47.48   -0.01  -47.53  -22.56   40.05
  13.530  -22.08   38.04   -0.01  -47.71   -0.01  -47.82  -22.27   40.24
  13.595  -21.91   37.55   -0.01  -48.08   -0.01  -48.29  -22.04   40.61
  13.660  -21.69   36.50   -0.01  -48.35   -0.01  -48.33  -21.93   41.05
  13.725  -21.45   36.36   -0.01  -48.68   -0.01  -48.70  -21.73   40.85
  13.790  -21.29   35.75   -0.01  -48.95   -0.01  -48.99  -21.55   40.79
  13.855  -21.05   35.10   -0.01  -49.36   -0.01  -49.42  -21.35   40.65
  13.920  -20.92   34.38   -0.01  -49.63   -0.01  -49.66  -21.11   41.22
  13.985  -20.68   33.82    0.00  -49.95   -0.01  -49.96  -20.98   41.08
  14.050  -20.44   33.44   -0.01  -50.26   -0.01  -50.39  -20.88   40.31
  14.115  -20.33   32.52   -0.01  -50.61   -0.01  -50.74  -20.62   40.84
  14.180  -20.12   31.86   -0.01  -50.95   -0.01  -50.98  -20.45   40.86
  14.245  -19.94   30.68   -0.01  -51.20   -0.01  -51.30  -20.24   41.26
  14.310  -19.74   29.99   -0.02  -51.53   -0.01  -51.60  -20.14   40.72
  14.375  -19.69   29.47   -0.02  -51.82   -0.01  -51.83  -19.93   40.71
  14.440  -19.63   29.26   -0.01  -52.09   -0.01  -52.17  -19.76   40.62
  14.505  -19.48   28.81   -0.01  -52.45   -0.01  -52.56  -19.54   40.71
  14.570  -19.19   28.40   -0.01  -52.81   -0.01  -52.75  -19.48   40.69
  14.635  -19.11   28.24   -0.02  -53.16   -0.01  -53.10  -19.26   40.46
  14.700  -18.93   27.54   -0.03  -53.53   -0.04  -53.48  -19.15   40.12
  14.765  -18.84   27.04   -0.04  -53.79   -0.04  -53.86  -18.89   40.08
  14.830  -18.66   26.51   -0.05  -54.11   -0.04  -54.03  -18.81   40.38
  14.895  -18.50   26.19   -0.05  -54.42   -0.05  -54.46  -18.70   39.73
  14.960  -18.41   25.55   -0.06  -54.69   -0.06  -54.68  -18.53   39.91
  15.025  -18.33   25.53   -0.06  -54.94   -0.06  -54.98  -18.33   39.83
  15.090  -18.23   24.36   -0.06  -55.24   -0.06  -55.26  -18.17   39.66
  15.155  -18.12   24.62   -0.06  -55.56   -0.05  -55.60  -18.01   39.44
  15.220  -17.96   24.67   -0.06  -55.95   -0.06  -55.95  -17.93   39.48
  15.285  -17.83   24.94   -0.06  -56.29   -0.07  -56.33  -17.78   38.64
  15.350  -17.70   24.11   -0.09  -56.64   -0.08  -56.73  -17.62   39.24
  15.415  -17.59   24.07   -0.09  -56.98   -0.09  -57.04  -17.52   39.35
  15.480  -17.45   24.08   -0.10  -57.28   -0.09  -57.38  -17.36   39.09
  15.545  -17.28   24.07   -0.12  -57.63   -0.10  -57.65  -17.23   39.13
  15.610  -17.24   24.12   -0.13  -57.94   -0.12  -58.02  -17.04   39.28
  15.675  -17.04   24.15   -0.14  -58.26   -0.14  -58.34  -16.88   38.97
  15.740  -16.85   23.75   -0.15  -58.60   -0.14  -58.67  -16.74   39.51
  15.805  -16.66   24.18   -0.16  -58.93   -0.15  -58.95  -16.61   39.10
  15.870  -16.52   24.17   -0.17  -59.23   -0.17  -59.25  -16.39   38.86
  15.935  -16.35   23.57   -0.19  -59.52   -0.18  -59.62  -16.24   39.46
  16.000  -16.21   23.49   -0.19  -59.77   -0.20  -59.93  -16.03   39.08
  16.065  -15.95   23.25   -0.21  -60.07   -0.19  -60.15  -15.91   38.87
  16.130  -15.82   23.32   -0.22  -60.42   -0.21  -60.41  -15.71   38.64
  16.195  -15.68   22.84   -0.23  -60.62   -0.22  -60.63  -15.54   38.57
  16.260  -15.52   22.57   -0.23  -60.91   -0.24  -61.11  -15.32   38.35
  16.325  -15.33   22.14   -0.25  -61.19   -0.23  -61.26  -15.18   38.24
  16.390  -15.16   22.05   -0.25  -61.53   -0.24  -61.51  -15.05   37.45
  16.455  -15.02   21.70   -0.25  -61.70   -0.24  -61.88  -14.86   37.24
  16.520  -14.92   21.35   -0.27  -62.05   -0.27  -62.22  -14.71   37.00
  16.585  -14.74   20.75   -0.28  -62.41   -0.26  -62.64  -14.58   36.59
  16.650  -14.58   20.50   -0.29  -62.69   -0.28  -62.89  -14.40   36.48
  16.715  -14.44   20.58   -0.29  -63.02   -0.29  -63.02  -14.26   36.09
  16.780  -14.29   20.05   -0.32  -63.27   -0.31  -63.37  -14.13   35.88
  16.845  -14.18   19.65   -0.31  -63.53   -0.32  -63.75  -13.86   35.77
  16.910  -14.00   19.29   -0.33  -63.87   -0.32  -64.07  -13.76   35.31
  16.975  -13.84   19.37   -0.34  -64.24   -0.31  -64.16  -13.61   34.39
  17.040  -13.69   18.76   -0.31  -64.37   -0.31  -64.56  -13.36   34.55
  17.105  -13.52   18.55   -0.34  -64.77   -0.32  -64.90  -13.30   33.62
  17.170  -13.40   18.13   -0.36  -65.10   -0.36  -65.28  -13.16   33.07
  17.235  -13.22   17.39   -0.33  -65.44   -0.34  -65.70  -12.93   33.08
  17.300  -13.04   17.26   -0.35  -65.80   -0.34  -65.91  -12.83   32.18
  17.365  -12.89   17.01   -0.36  -66.24   -0.33  -66.23  -12.64   31.21
