!  American Technical Ceramics  Date:   4/26/2005
!  One Norden Lane
!  Huntington Station,  NY.   11746-2102
!  Tel:  (631) 622-4700               Fax:  (631) 622-4748
!  Part Number  600S3R9         Mounting Orientation: Horizontal
!  Description: Ultra Low ESR Microwave capacitors
!  Application: Coupling, Bypass, Tuning, DC Block
!               Filters, Matching
# GHZ S DB R 50
! Freq   |S11|   S11 Ph  |S21|   S21 Ph  |S12|   S12 Ph  |S22|   S22 Ph
   0.000   0.00    0.00	  -999.00  90.00  -999.00  90.00    0.00    0.00
   0.400   -2.77  -44.32   -3.31   44.95   -3.53   45.45   -3.08  -44.11
   0.465   -3.50  -48.58   -2.61   40.27   -2.82   40.80   -3.69  -48.72
   0.530   -4.24  -52.91   -2.13   36.74   -2.34   36.79   -4.37  -52.24
   0.595   -4.81  -56.70   -1.81   33.35   -1.99   34.13   -5.05  -54.62
   0.660   -5.40  -58.81   -1.50   30.12   -1.69   31.19   -5.65  -58.15
   0.725   -6.13  -61.52   -1.26   27.56   -1.42   28.22   -6.22  -61.24
   0.790   -6.60  -64.51   -1.08   25.25   -1.26   25.71   -6.84  -63.66
   0.855   -7.15  -66.53   -0.97   23.12   -1.14   23.92   -7.43  -65.02
   0.920   -7.82  -68.01   -0.81   21.32   -0.97   22.19   -7.87  -66.93
   0.985   -8.25  -70.40   -0.72   19.59   -0.84   20.79   -8.43  -68.43
   1.050   -8.67  -71.43   -0.64   18.04   -0.76   18.94   -8.91  -70.67
   1.115   -9.25  -72.55   -0.57   16.62   -0.68   17.34   -9.36  -71.97
   1.180   -9.76  -74.98   -0.50   15.29   -0.59   16.19   -9.83  -72.65
   1.245  -10.11  -76.13   -0.45   14.28   -0.54   15.29  -10.24  -73.84
   1.310  -10.53  -76.31   -0.41   12.92   -0.49   13.95  -10.70  -75.65
   1.375  -11.06  -77.86   -0.36   11.93   -0.43   12.84  -11.08  -76.40
   1.440  -11.42  -79.70   -0.33   10.99   -0.41   11.79  -11.48  -77.17
   1.505  -11.74  -80.36   -0.31   10.12   -0.36   10.99  -11.86  -77.76
   1.570  -12.25  -80.53   -0.28    9.12   -0.32   10.09  -12.24  -79.16
   1.635  -12.59  -82.21   -0.24    8.34   -0.29    9.27  -12.61  -80.17
   1.700  -12.89  -83.23   -0.24    7.58   -0.27    8.32  -13.01  -80.49
   1.765  -13.30  -83.36   -0.20    6.79   -0.24    7.58  -13.32  -81.10
   1.830  -13.74  -84.90   -0.19    6.11   -0.22    6.97  -13.65  -81.59
   1.895  -13.94  -85.84   -0.17    5.44   -0.19    6.35  -13.99  -82.47
   1.960  -14.27  -85.20   -0.16    4.71   -0.19    5.58  -14.35  -83.32
   2.025  -14.77  -87.04   -0.14    4.09   -0.16    4.78  -14.65  -83.47
   2.090  -15.00  -88.48   -0.14    3.55   -0.15    4.25  -14.95  -83.87
   2.155  -15.23  -87.92   -0.13    2.87   -0.13    3.74  -15.30  -84.74
   2.220  -15.69  -88.08   -0.12    2.31   -0.11    3.16  -15.56  -85.07
   2.285  -16.00  -90.31   -0.11    1.75   -0.10    2.48  -15.90  -85.37
   2.350  -16.14  -90.48   -0.10    1.24   -0.10    1.85  -16.19  -85.84
   2.415  -16.58  -90.27   -0.10    0.66   -0.08    1.31  -16.47  -86.30
   2.480  -16.94  -91.53   -0.08    0.16   -0.07    0.88  -16.77  -86.81
   2.545  -17.04  -92.23   -0.08   -0.34   -0.06    0.33  -17.05  -87.35
   2.610  -17.35  -92.00   -0.09   -0.88   -0.05   -0.29  -17.31  -87.38
   2.675  -17.83  -93.42   -0.07   -1.32   -0.05   -0.79  -17.61  -87.46
   2.740  -17.93  -94.23   -0.07   -1.78   -0.05   -1.17  -17.88  -88.24
   2.805  -18.15  -93.49   -0.07   -2.25   -0.04   -1.62  -18.12  -88.40
   2.870  -18.57  -94.06   -0.06   -2.74   -0.03   -2.12  -18.38  -88.47
   2.935  -18.74  -96.19   -0.06   -3.14   -0.02   -2.63  -18.59  -89.03
   3.000  -18.88  -95.85   -0.06   -3.57   -0.02   -3.11  -18.84  -89.22
   3.065  -19.36  -94.37   -0.04   -3.92   -0.01   -3.38  -19.22  -90.22
   3.130  -19.66  -96.35   -0.05   -4.28   -0.01   -3.79  -19.50  -90.60
   3.195  -19.75  -96.28   -0.05   -4.72    0.00   -4.29  -19.70  -90.42
   3.260  -20.09  -95.50   -0.05   -5.08   -0.01   -4.73  -20.05  -90.59
   3.325  -20.47  -96.58   -0.04   -5.46   -0.01   -5.07  -20.23  -91.13
   3.390  -20.50  -97.58   -0.04   -5.79   -0.01   -5.39  -20.51  -91.29
   3.455  -20.79  -96.85   -0.03   -6.21   -0.01   -5.75  -20.80  -91.75
   3.520  -21.31  -98.02   -0.02   -6.58   -0.01   -6.24  -21.03  -91.84
   3.585  -21.46  -99.03   -0.03   -6.95   -0.01   -6.66  -21.30  -92.07
   3.650  -21.64  -98.05   -0.02   -7.33   -0.01   -7.07  -21.65  -92.48
   3.715  -22.07  -97.83   -0.02   -7.73   -0.01   -7.40  -21.85  -92.84
   3.780  -22.38 -100.03   -0.02   -8.05   -0.01   -7.80  -22.13  -92.48
   3.845  -22.48  -99.64   -0.02   -8.43   -0.01   -8.20  -22.41  -93.09
   3.910  -22.90  -98.97   -0.02   -8.81   -0.01   -8.62  -22.66  -93.39
   3.975  -23.29 -100.46   -0.02   -9.16   -0.01   -8.94  -23.00  -93.85
   4.040  -23.48 -101.41   -0.02   -9.50   -0.01   -9.29  -23.34  -94.33
   4.105  -23.81 -100.17   -0.02   -9.81   -0.01   -9.62  -23.64  -94.16
   4.170  -24.37 -101.18   -0.02  -10.15   -0.01  -10.01  -24.03  -93.94
   4.235  -24.51 -102.20   -0.02  -10.47   -0.01  -10.35  -24.43  -94.54
   4.300  -24.86 -100.93   -0.01  -10.84   -0.01  -10.67  -24.73  -93.37
   4.365  -25.44 -101.22   -0.01  -11.16   -0.01  -11.04  -25.06  -92.66
   4.430  -25.78 -102.74   -0.01  -11.48   -0.01  -11.42  -25.30  -92.40
   4.495  -25.98 -101.22   -0.01  -11.79   -0.01  -11.77  -25.57  -91.50
   4.560  -26.41  -99.91    0.00  -12.14   -0.01  -12.09  -25.89  -92.01
   4.625  -26.78 -102.49   -0.01  -12.47   -0.01  -12.44  -26.26  -92.29
   4.690  -27.01 -102.70    0.00  -12.83   -0.01  -12.80  -26.53  -91.08
   4.755  -27.51 -102.01    0.00  -13.14   -0.01  -13.10  -26.99  -90.45
   4.820  -28.08 -102.61    0.00  -13.46   -0.01  -13.51  -27.29  -90.38
   4.885  -28.42 -103.96   -0.01  -13.81   -0.01  -13.79  -27.65  -89.38
   4.950  -28.86 -102.61   -0.01  -14.12   -0.01  -14.12  -28.09  -88.50
   5.015  -29.60 -103.45   -0.01  -14.45   -0.01  -14.48  -28.33  -87.48
   5.080  -30.02 -104.17   -0.01  -14.77   -0.01  -14.85  -28.69  -86.86
   5.145  -30.43 -103.88   -0.01  -15.10   -0.01  -15.15  -29.10  -85.88
   5.210  -31.13 -103.41    0.00  -15.42   -0.01  -15.45  -29.47  -85.26
   5.275  -31.93 -104.97   -0.01  -15.74   -0.01  -15.79  -29.81  -83.39
   5.340  -32.34 -105.43   -0.01  -16.02   -0.01  -16.10  -30.25  -82.26
   5.405  -33.34 -104.53   -0.01  -16.36   -0.01  -16.44  -30.55  -80.96
   5.470  -34.24 -105.61   -0.01  -16.67   -0.01  -16.74  -31.07  -79.67
   5.535  -35.05 -107.19   -0.01  -16.99   -0.01  -17.04  -31.37  -77.79
   5.600  -36.08 -105.71   -0.01  -17.31   -0.01  -17.41  -31.77  -75.86
   5.665  -37.65 -106.51   -0.01  -17.64   -0.01  -17.72  -32.13  -73.77
   5.730  -38.90 -107.25   -0.01  -17.97   -0.01  -18.03  -32.62  -72.07
   5.795  -40.44 -105.93   -0.01  -18.30   -0.01  -18.33  -32.94  -69.79
   5.860  -43.21 -107.15   -0.01  -18.59   -0.01  -18.67  -33.39  -67.32
   5.925  -45.74 -105.46   -0.01  -18.95   -0.01  -18.98  -33.67  -64.48
   5.990  -50.01  -96.70   -0.01  -19.27   -0.01  -19.32  -34.07  -61.10
   6.055  -57.85  -71.66   -0.01  -19.56   -0.01  -19.63  -34.39  -59.89
   6.120  -57.76   16.58   -0.01  -19.86   -0.01  -19.92  -34.79  -56.66
   6.185  -51.25   42.72   -0.01  -20.16    0.00  -20.22  -35.23  -54.73
   6.250  -47.35   50.07    0.00  -20.46   -0.01  -20.53  -35.75  -51.29
   6.315  -45.24   53.35   -0.01  -20.75   -0.02  -20.84  -36.43  -47.47
   6.380  -42.36   61.30    0.00  -21.05   -0.02  -21.12  -36.79  -42.75
   6.445  -40.92   69.95   -0.01  -21.39   -0.04  -21.39  -37.26  -36.78
   6.510  -39.67   69.03    0.00  -21.66   -0.07  -21.54  -37.72  -30.16
   6.575  -38.22   65.08    0.00  -21.94   -0.06  -21.60  -38.19  -27.62
   6.640  -35.80   66.64    0.00  -22.25   -0.04  -21.72  -37.62  -21.13
   6.705  -34.89   72.56    0.00  -22.57   -0.03  -21.99  -38.23   -9.57
   6.770  -34.74   69.86   -0.01  -22.89   -0.01  -22.24  -39.07   -9.37
   6.835  -33.80   68.19   -0.01  -23.19   -0.01  -22.59  -38.26   -4.24
   6.900  -32.10   66.82    0.00  -23.50   -0.01  -22.93  -38.18    8.51
   6.965  -31.96   72.88   -0.01  -23.78   -0.01  -23.28  -39.12   16.00
   7.030  -31.51   68.03   -0.01  -24.10   -0.01  -23.70  -38.36   18.02
   7.095  -30.25   66.26   -0.01  -24.42   -0.01  -24.13  -37.17   30.10
   7.160  -29.64   69.81   -0.01  -24.75   -0.01  -24.48  -37.40   38.57
   7.225  -29.54   68.59   -0.01  -25.07   -0.01  -24.88  -36.59   39.50
   7.290  -28.84   64.91   -0.01  -25.39   -0.01  -25.21  -35.46   46.34
   7.355  -28.13   67.66   -0.01  -25.74   -0.01  -25.53  -35.01   54.04
   7.420  -28.08   68.89   -0.01  -26.01   -0.01  -25.91  -34.58   55.78
   7.485  -27.38   67.21   -0.01  -26.36   -0.01  -26.24  -33.35   59.12
   7.550  -26.53   67.82   -0.01  -26.70   -0.01  -26.66  -32.81   66.13
   7.615  -26.03   68.49   -0.01  -27.02   -0.01  -26.96  -31.99   68.31
   7.680  -25.66   65.74   -0.01  -27.36   -0.01  -27.41  -30.62   71.05
   7.745  -24.92   64.40   -0.01  -27.74   -0.01  -27.82  -29.88   73.95
   7.810  -24.44   64.34   -0.01  -28.04   -0.01  -28.11  -28.98   74.85
   7.875  -24.23   63.16   -0.01  -28.43   -0.01  -28.44  -27.98   74.40
   7.940  -23.72   60.04   -0.01  -28.80   -0.01  -28.89  -27.08   76.29
   8.005  -23.21   59.23   -0.01  -29.18   -0.01  -29.26  -26.35   75.76
   8.070  -23.07   58.58   -0.01  -29.58   -0.01  -29.67  -25.44   74.81
   8.135  -22.62   55.96   -0.01  -29.92   -0.01  -30.07  -24.73   75.04
   8.200  -22.27   54.94   -0.02  -30.38   -0.01  -30.55  -23.98   73.81
   8.265  -22.14   53.84   -0.03  -30.81   -0.01  -30.85  -23.17   73.40
   8.330  -22.90   43.41   -0.05  -31.09    0.00  -31.34  -22.64   60.45
   8.395  -22.22   43.06   -0.06  -31.52   -0.01  -31.73  -22.15   59.80
   8.460  -21.86   42.88   -0.08  -32.04   -0.03  -32.16  -21.53   58.83
   8.525  -21.37   40.60   -0.09  -32.49   -0.05  -32.68  -20.91   58.35
   8.590  -20.72   38.99   -0.12  -33.02   -0.08  -33.27  -20.32   56.91
   8.655  -20.14   37.95   -0.13  -33.61   -0.11  -33.80  -19.68   55.24
   8.720  -19.45   36.63   -0.17  -34.24   -0.13  -34.41  -19.15   53.27
   8.785  -18.67   33.42   -0.21  -35.01   -0.17  -35.15  -18.43   52.21
   8.850  -17.71   30.23   -0.29  -35.90   -0.26  -36.00  -17.59   50.82
   8.915  -16.71   25.37   -0.40  -36.87   -0.38  -37.10  -16.54   48.17
   8.980  -15.52   18.64   -0.60  -38.04   -0.58  -38.30  -15.33   43.56
   9.045  -14.20    8.74   -0.96  -39.18   -0.92  -39.26  -13.83   35.64
   9.110  -12.91   -7.44   -1.60  -39.06   -1.56  -39.02  -12.43   22.45
   9.175  -12.43  -32.21   -2.28  -34.23   -2.20  -34.26  -11.79    2.45
   9.240  -13.73  -59.26   -1.97  -27.10   -1.93  -27.50  -12.90  -20.26
   9.305  -16.72  -81.02   -1.19  -25.13   -1.18  -25.61  -15.32  -36.26
   9.370  -20.22  -96.00   -0.69  -26.05   -0.68  -26.38  -18.16  -44.09
   9.435  -24.11 -105.41   -0.43  -27.38   -0.41  -27.66  -20.70  -45.47
   9.500  -28.34 -114.51   -0.28  -28.54   -0.27  -28.78  -23.11  -41.13
   9.565  -33.10 -123.97   -0.19  -29.55   -0.17  -29.79  -25.17  -35.09
   9.630  -40.71 -138.91   -0.13  -30.35   -0.11  -30.70  -26.42  -26.30
   9.695  -46.23  124.33   -0.09  -31.11   -0.08  -31.43  -27.22  -15.42
   9.760  -39.38   89.62   -0.07  -31.77   -0.05  -32.03  -27.66   -5.60
   9.825  -35.41   75.37   -0.05  -32.38   -0.03  -32.62  -27.48    2.07
   9.890  -32.61   71.75   -0.03  -32.89   -0.01  -33.12  -27.24    9.98
   9.955  -30.80   70.50   -0.01  -33.40   -0.01  -33.65  -27.07   13.90
  10.020  -29.73   66.68    0.00  -33.88   -0.01  -34.06  -26.53   18.30
  10.085  -28.44   63.96   -0.01  -34.31   -0.01  -34.57  -26.21   22.17
  10.150  -27.68   63.60   -0.01  -34.86   -0.01  -35.07  -25.81   23.64
  10.215  -27.16   62.04   -0.01  -35.28   -0.01  -35.50  -25.45   25.64
  10.280  -26.49   60.41   -0.01  -35.71   -0.01  -35.98  -25.10   27.84
  10.345  -25.96   59.83   -0.01  -36.11   -0.01  -36.36  -24.88   28.91
  10.410  -25.64   59.48   -0.01  -36.51   -0.01  -36.75  -24.47   29.83
  10.475  -25.12   58.34   -0.01  -36.88   -0.01  -37.15  -24.30   31.04
  10.540  -24.82   58.12   -0.01  -37.25   -0.01  -37.50  -24.00   31.21
  10.605  -24.49   58.08   -0.01  -37.64   -0.01  -37.82  -23.73   32.40
  10.670  -24.11   57.48   -0.01  -37.93   -0.01  -38.07  -23.54   33.16
  10.735  -23.71   57.08   -0.01  -38.31   -0.01  -38.48  -23.24   33.53
  10.800  -23.23   56.95   -0.01  -38.63   -0.01  -38.86  -23.01   33.37
  10.865  -22.93   55.06   -0.01  -38.96   -0.01  -39.15  -22.77   34.03
  10.930  -22.70   53.02    0.00  -39.27   -0.01  -39.39  -22.55   33.94
  10.995  -22.49   52.31    0.00  -39.56   -0.01  -39.80  -22.40   33.77
  11.060  -22.38   51.21    0.00  -39.86    0.00  -40.13  -22.34   33.77
  11.125  -22.29   50.46   -0.01  -40.20   -0.01  -40.38  -22.13   33.88
  11.190  -22.10   50.26   -0.01  -40.46   -0.01  -40.73  -22.04   34.47
  11.255  -22.05   49.45   -0.01  -40.82   -0.01  -41.04  -21.84   35.24
  11.320  -21.86   48.99   -0.01  -41.15   -0.01  -41.34  -21.71   35.68
  11.385  -21.70   49.27   -0.01  -41.51   -0.01  -41.71  -21.47   35.63
  11.450  -21.49   48.98   -0.01  -41.85   -0.01  -42.04  -21.30   36.27
  11.515  -21.37   48.29   -0.01  -42.22   -0.01  -42.35  -21.02   36.43
  11.580  -21.18   48.54   -0.01  -42.52   -0.01  -42.73  -20.87   36.13
  11.645  -20.95   47.76   -0.01  -42.98   -0.01  -43.17  -20.71   36.26
  11.710  -20.74   47.44   -0.01  -43.38   -0.01  -43.57  -20.59   36.31
  11.775  -20.61   47.08   -0.01  -43.74   -0.01  -44.02  -20.33   36.19
  11.840  -20.28   46.20   -0.01  -44.10   -0.01  -44.24  -20.20   36.96
  11.905  -20.22   45.76   -0.01  -44.43   -0.01  -44.57  -19.96   36.83
  11.970  -19.94   45.09   -0.01  -44.76    0.00  -44.99  -19.84   36.70
  12.035  -19.78   44.41   -0.01  -45.10   -0.01  -45.30  -19.63   36.62
  12.100  -19.58   43.71   -0.01  -45.52   -0.01  -45.65  -19.45   36.89
  12.165  -19.50   42.77    0.00  -45.83   -0.01  -46.01  -19.21   36.88
  12.230  -19.17   41.93   -0.01  -46.24   -0.03  -46.49  -19.14   36.59
  12.295  -19.11   41.72   -0.02  -46.59   -0.02  -46.83  -18.93   36.28
  12.360  -18.93   40.51   -0.02  -47.00   -0.03  -47.11  -18.77   36.52
  12.425  -18.79   40.47   -0.02  -47.23   -0.03  -47.50  -18.52   36.13
  12.490  -18.56   39.15   -0.04  -47.73   -0.05  -47.78  -18.47   36.80
  12.555  -18.37   39.05   -0.03  -48.08   -0.04  -48.26  -18.24   36.10
  12.620  -18.15   38.35   -0.04  -48.48   -0.06  -48.58  -18.11   36.27
  12.685  -18.04   37.53   -0.04  -48.87   -0.04  -49.06  -17.85   36.45
  12.750  -17.77   36.44   -0.06  -49.28   -0.05  -49.21  -17.68   37.16
  12.815  -17.56   36.73   -0.05  -49.61   -0.07  -49.81  -17.44   36.34
  12.880  -17.32   35.01   -0.08  -50.21   -0.09  -50.23  -17.30   36.93
  12.945  -17.09   34.89   -0.07  -50.55   -0.07  -50.75  -16.96   36.17
  13.010  -16.89   33.88   -0.08  -50.90   -0.10  -51.08  -16.72   36.41
  13.075  -16.58   32.60   -0.09  -51.54   -0.09  -51.57  -16.48   36.21
  13.140  -16.33   31.73   -0.11  -51.90   -0.11  -51.91  -16.25   35.98
  13.205  -16.08   31.63   -0.10  -52.36   -0.13  -52.52  -15.96   35.05
  13.270  -15.84   29.39   -0.14  -52.88   -0.13  -53.00  -15.71   35.48
  13.335  -15.54   28.91   -0.14  -53.45   -0.15  -53.56  -15.40   34.44
  13.400  -15.27   27.53   -0.16  -53.84   -0.16  -53.96  -15.16   34.41
  13.465  -14.90   26.18   -0.19  -54.69   -0.20  -54.78  -14.97   33.42
  13.530  -14.66   25.25   -0.21  -55.09   -0.21  -55.28  -14.56   33.04
  13.595  -14.39   23.82   -0.22  -55.82   -0.27  -56.16  -14.20   32.53
  13.660  -14.00   22.09   -0.27  -56.38   -0.29  -56.44  -13.93   32.14
  13.725  -13.61   20.93   -0.32  -57.14   -0.32  -57.17  -13.59   31.05
  13.790  -13.28   19.45   -0.36  -57.74   -0.38  -57.88  -13.20   30.09
  13.855  -12.85   17.33   -0.43  -58.72   -0.45  -58.88  -12.81   28.74
  13.920  -12.47   15.36   -0.50  -59.47   -0.51  -59.52  -12.31   27.91
  13.985  -12.01   13.13   -0.61  -60.39   -0.61  -60.48  -11.91   26.29
  14.050  -11.44   10.92   -0.68  -61.47   -0.71  -61.53  -11.48   23.82
  14.115  -11.03    7.95   -0.83  -62.46   -0.86  -62.71  -10.88   22.03
  14.180  -10.41    4.58   -0.99  -63.72   -1.01  -63.76  -10.34   19.46
  14.245   -9.85    0.45   -1.24  -64.91   -1.24  -65.00   -9.73   16.66
  14.310   -9.16   -4.03   -1.54  -66.21   -1.55  -66.07   -9.17   12.38
  14.375   -8.58   -9.58   -1.97  -67.22   -1.98  -67.21   -8.51    7.49
  14.440   -7.98  -16.55   -2.52  -67.96   -2.54  -67.89   -7.89    1.33
  14.505   -7.49  -25.16   -3.26  -67.36   -3.29  -67.42   -7.29   -6.06
  14.570   -7.05  -35.02   -4.16  -64.53   -4.10  -64.27   -6.95  -15.00
  14.635   -6.96  -46.25   -4.86  -58.05   -4.82  -57.76   -6.76  -25.93
  14.700   -7.21  -58.37   -4.97  -48.90   -4.90  -48.95   -7.04  -37.28
  14.765   -7.97  -70.69   -4.29  -41.47   -4.30  -41.62   -7.65  -48.22
  14.830   -8.99  -81.80   -3.34  -37.74   -3.34  -38.22   -8.69  -58.12
  14.895  -10.29  -90.68   -2.51  -37.07   -2.50  -37.39   -9.96  -66.78
  14.960  -11.79  -98.16   -1.85  -37.95   -1.85  -38.12  -11.34  -72.95
  15.025  -13.35 -104.03   -1.39  -39.38   -1.39  -39.46  -12.79  -78.03
  15.090  -14.90 -108.71   -1.06  -40.92   -1.08  -41.09  -14.32  -81.19
  15.155  -16.53 -112.36   -0.82  -42.47   -0.84  -42.67  -15.88  -83.29
  15.220  -18.11 -115.68   -0.65  -43.89   -0.67  -44.06  -17.40  -84.90
  15.285  -19.86 -117.45   -0.54  -45.24   -0.53  -45.40  -18.87  -85.52
  15.350  -21.71 -119.74   -0.44  -46.44   -0.45  -46.55  -20.49  -84.04
  15.415  -23.65 -121.08   -0.37  -47.48   -0.39  -47.58  -22.18  -82.33
  15.480  -25.83 -121.10   -0.32  -48.46   -0.33  -48.57  -23.87  -78.93
  15.545  -28.50 -120.83   -0.29  -49.38   -0.29  -49.54  -25.74  -73.43
  15.610  -31.76 -120.57   -0.26  -50.17   -0.26  -50.24  -27.44  -65.75
  15.675  -36.40 -112.69   -0.24  -50.92   -0.24  -51.07  -28.99  -53.88
  15.740  -44.11  -84.48   -0.22  -51.62   -0.23  -51.81  -30.23  -37.92
  15.805  -43.20    4.70   -0.21  -52.30   -0.22  -52.44  -30.68  -21.68
  15.870  -36.42   26.57   -0.20  -52.86   -0.21  -53.03  -29.93   -5.95
  15.935  -32.79   30.93   -0.20  -53.48   -0.20  -53.66  -28.98    6.66
  16.000  -30.38   32.21   -0.19  -53.99   -0.20  -54.13  -27.88   14.23
  16.065  -28.40   32.24   -0.19  -54.49   -0.19  -54.65  -26.90   19.78
  16.130  -27.07   33.20   -0.19  -54.96   -0.19  -55.10  -25.86   24.31
  16.195  -25.96   32.22   -0.18  -55.41   -0.18  -55.49  -25.02   27.45
  16.260  -25.01   32.28   -0.18  -55.85   -0.19  -56.14  -24.14   29.67
  16.325  -24.20   31.67   -0.18  -56.32   -0.19  -56.46  -23.46   32.00
  16.390  -23.49   31.30   -0.18  -56.74   -0.19  -56.89  -22.85   32.35
  16.455  -22.84   31.02   -0.18  -57.05   -0.19  -57.27  -22.15   33.25
  16.520  -22.38   30.83   -0.19  -57.52   -0.19  -57.71  -21.64   33.72
  16.585  -21.83   29.88   -0.19  -57.93   -0.18  -58.14  -21.22   33.94
  16.650  -21.29   29.74   -0.19  -58.31   -0.19  -58.48  -20.76   34.36
  16.715  -20.92   29.68   -0.20  -58.69   -0.21  -58.82  -20.42   34.80
  16.780  -20.49   28.95   -0.21  -59.03   -0.21  -59.16  -20.07   35.28
  16.845  -20.19   28.62   -0.20  -59.33   -0.22  -59.58  -19.55   35.70
  16.910  -19.80   28.25   -0.22  -59.67   -0.22  -59.95  -19.28   35.79
  16.975  -19.42   28.17   -0.22  -60.04   -0.20  -60.05  -18.91   35.15
  17.040  -19.10   27.34   -0.19  -60.20   -0.20  -60.44  -18.47   35.55
  17.105  -18.80   27.15   -0.21  -60.61   -0.19  -60.83  -18.32   34.74
  17.170  -18.54   26.50   -0.21  -60.97   -0.22  -61.21  -18.04   34.06
  17.235  -18.26   25.69   -0.19  -61.29   -0.21  -61.61  -17.70   34.52
  17.300  -17.99   25.24   -0.19  -61.65   -0.20  -61.87  -17.54   33.87
  17.365  -17.72   25.04   -0.20  -62.06   -0.20  -62.22  -17.27   32.70
