!  American Technical Ceramics  Date:   4/26/2005
!  One Norden Lane
!  Huntington Station,  NY.   11746-2102
!  Tel:  (631) 622-4700               Fax:  (631) 622-4748
!  Part Number  600S1R8         Mounting Orientation: Horizontal
!  Description: Ultra Low ESR Microwave capacitors
!  Application: Coupling, Bypass, Tuning, DC Block
!               Filters, Matching
# GHZ S DB R 50
! Freq   |S11|   S11 Ph  |S21|   S21 Ph  |S12|   S12 Ph  |S22|   S22 Ph
   0.000   0.00    0.00	  -999.00  90.00  -999.00  90.00    0.00    0.00
   0.400   -0.79  -24.83   -7.93   64.78   -7.94   64.74   -0.76  -24.83
   0.482   -1.09  -29.18   -6.61   59.89   -6.66   59.73   -1.20  -29.36
   0.563   -1.41  -32.90   -5.58   55.90   -5.65   55.58   -1.55  -33.89
   0.645   -1.80  -36.37   -4.76   52.35   -4.80   51.85   -1.82  -37.86
   0.726   -2.25  -40.08   -4.14   48.82   -4.14   48.37   -2.19  -41.14
   0.808   -2.54  -43.37   -3.55   45.43   -3.57   45.20   -2.58  -44.59
   0.889   -3.01  -46.45   -3.13   42.69   -3.10   42.31   -2.92  -47.33
   0.971   -3.30  -49.32   -2.73   39.60   -2.76   39.68   -3.44  -50.24
   1.052   -3.75  -51.70   -2.41   37.19   -2.44   36.95   -3.79  -52.99
   1.134   -4.14  -53.90   -2.13   34.96   -2.16   34.72   -4.16  -55.32
   1.215   -4.58  -56.61   -1.95   32.60   -1.95   32.34   -4.58  -57.38
   1.297   -4.91  -58.61   -1.71   30.46   -1.72   30.26   -4.95  -59.73
   1.378   -5.29  -60.60   -1.55   28.68   -1.55   28.53   -5.31  -61.28
   1.460   -5.65  -62.39   -1.40   26.75   -1.43   26.65   -5.74  -63.29
   1.541   -6.04  -64.12   -1.25   25.17   -1.27   24.84   -6.05  -65.12
   1.623   -6.39  -65.59   -1.14   23.77   -1.16   23.48   -6.40  -66.38
   1.704   -6.84  -67.60   -1.06   22.19   -1.06   21.81   -6.83  -67.81
   1.786   -7.06  -68.89   -0.95   20.66   -0.96   20.49   -7.13  -69.35
   1.867   -7.43  -70.23   -0.88   19.51   -0.89   19.26   -7.45  -70.36
   1.949   -7.77  -71.58   -0.80   18.10   -0.85   17.84   -7.79  -71.80
   2.030   -8.08  -73.07   -0.74   16.93   -0.74   16.67   -8.11  -72.72
   2.112   -8.41  -74.09   -0.68   15.83   -0.71   15.54   -8.42  -73.88
   2.193   -8.70  -75.46   -0.64   14.65   -0.64   14.37   -8.75  -74.81
   2.275   -9.01  -76.49   -0.58   13.62   -0.59   13.40   -9.06  -75.83
   2.356   -9.33  -77.52   -0.54   12.67   -0.56   12.45   -9.34  -76.78
   2.438   -9.64  -78.76   -0.52   11.71   -0.52   11.37   -9.67  -77.51
   2.519   -9.91  -79.71   -0.48   10.74   -0.49   10.40   -9.95  -78.38
   2.601  -10.18  -80.54   -0.45    9.77   -0.46    9.57  -10.22  -79.28
   2.682  -10.48  -81.63   -0.41    8.95   -0.44    8.62  -10.48  -79.87
   2.764  -10.74  -82.28   -0.39    8.11   -0.41    7.89  -10.78  -80.64
   2.845  -11.00  -83.28   -0.37    7.30   -0.39    7.04  -11.05  -81.26
   2.927  -11.28  -84.06   -0.35    6.53   -0.37    6.31  -11.29  -81.82
   3.008  -11.52  -85.16   -0.34    5.82   -0.34    5.53  -11.56  -82.30
   3.090  -11.79  -85.67   -0.30    5.12   -0.32    4.96  -11.72  -83.21
   3.171  -12.05  -86.45   -0.28    4.42   -0.31    4.16  -11.95  -83.70
   3.253  -12.25  -86.71   -0.28    3.78   -0.29    3.60  -12.22  -84.41
   3.334  -12.50  -87.55   -0.26    3.13   -0.28    2.97  -12.41  -85.05
   3.416  -12.72  -88.23   -0.24    2.52   -0.26    2.32  -12.63  -85.56
   3.497  -12.93  -88.77   -0.23    1.91   -0.23    1.69  -12.92  -86.26
   3.579  -13.21  -89.18   -0.21    1.20   -0.23    1.11  -13.10  -87.08
   3.660  -13.38  -89.85   -0.20    0.68   -0.21    0.45  -13.35  -87.40
   3.742  -13.62  -90.16   -0.20    0.08   -0.21   -0.04  -13.56  -88.11
   3.823  -13.84  -90.87   -0.18   -0.58   -0.20   -0.66  -13.76  -88.80
   3.905  -14.03  -91.55   -0.17   -1.10   -0.18   -1.24  -13.98  -89.25
   3.986  -14.23  -92.00   -0.17   -1.60   -0.18   -1.70  -14.23  -89.94
   4.068  -14.49  -92.54   -0.16   -2.24   -0.17   -2.30  -14.44  -90.66
   4.149  -14.69  -93.12   -0.15   -2.67   -0.16   -2.77  -14.68  -90.86
   4.231  -14.93  -93.29   -0.16   -3.17   -0.17   -3.22  -14.93  -91.56
   4.312  -15.15  -93.97   -0.14   -3.79   -0.15   -3.82  -15.13  -91.73
   4.394  -15.35  -94.27   -0.12   -4.26   -0.13   -4.29  -15.32  -91.99
   4.475  -15.51  -94.59   -0.12   -4.76   -0.14   -4.79  -15.57  -92.37
   4.557  -15.74  -95.41   -0.12   -5.30   -0.13   -5.28  -15.75  -92.95
   4.638  -15.93  -96.16   -0.10   -5.65   -0.11   -5.72  -15.97  -92.97
   4.720  -16.20  -96.25   -0.11   -6.21   -0.12   -6.18  -16.22  -93.31
   4.801  -16.40  -96.88   -0.10   -6.74   -0.10   -6.78  -16.42  -93.86
   4.883  -16.64  -97.35   -0.09   -7.18   -0.09   -7.14  -16.58  -93.78
   4.964  -16.79  -97.76   -0.08   -7.58   -0.10   -7.68  -16.88  -94.13
   5.046  -17.06  -98.11   -0.08   -8.13   -0.08   -8.08  -17.00  -94.52
   5.127  -17.20  -98.81   -0.07   -8.53   -0.09   -8.53  -17.24  -94.55
   5.209  -17.47  -99.10   -0.08   -9.04   -0.09   -9.06  -17.47  -95.09
   5.290  -17.71  -99.53   -0.07   -9.49   -0.07   -9.49  -17.66  -95.45
   5.372  -17.90 -100.63   -0.06   -9.90   -0.07   -9.87  -17.88  -95.14
   5.453  -18.14 -100.40   -0.06  -10.32   -0.06  -10.38  -18.13  -96.06
   5.535  -18.41 -101.38   -0.06  -10.83   -0.06  -10.75  -18.30  -95.89
   5.616  -18.59 -101.95   -0.05  -11.24   -0.06  -11.25  -18.59  -95.95
   5.698  -18.87 -102.04   -0.06  -11.71   -0.05  -11.69  -18.80  -96.55
   5.779  -19.11 -102.90   -0.04  -12.12   -0.05  -12.06  -19.04  -96.25
   5.861  -19.37 -103.09   -0.04  -12.51   -0.05  -12.52  -19.30  -96.68
   5.942  -19.65 -103.32   -0.05  -12.96   -0.05  -12.98  -19.57  -96.85
   6.024  -19.99 -104.32   -0.04  -13.45   -0.05  -13.31  -19.77  -96.36
   6.105  -20.14 -104.26   -0.04  -13.84   -0.04  -13.85  -20.12  -96.73
   6.187  -20.50 -104.98   -0.04  -14.28   -0.04  -14.20  -20.34  -96.52
   6.268  -20.67 -104.95   -0.04  -14.62   -0.04  -14.60  -20.67  -96.70
   6.350  -21.00 -105.26   -0.04  -15.03   -0.04  -15.02  -20.91  -96.58
   6.431  -21.30 -105.91   -0.04  -15.44   -0.04  -15.36  -21.12  -96.34
   6.513  -21.52 -106.51   -0.04  -15.85   -0.04  -15.82  -21.45  -96.29
   6.594  -21.81 -106.84   -0.03  -16.23   -0.03  -16.23  -21.77  -96.43
   6.676  -22.12 -107.35   -0.03  -16.62   -0.03  -16.62  -22.04  -96.56
   6.757  -22.42 -107.47   -0.02  -16.98   -0.02  -17.04  -22.42  -96.74
   6.839  -22.87 -108.49   -0.03  -17.42   -0.02  -17.41  -22.59  -96.72
   6.920  -23.04 -109.18   -0.03  -17.83   -0.02  -17.90  -23.07  -96.42
   7.002  -23.42 -110.15   -0.02  -18.25   -0.02  -18.26  -23.47  -96.40
   7.083  -23.73 -109.99   -0.01  -18.58   -0.02  -18.70  -23.85  -96.45
   7.165  -24.14 -110.68   -0.01  -18.97   -0.02  -19.06  -24.24  -96.33
   7.246  -24.58 -111.16   -0.02  -19.38   -0.02  -19.48  -24.57  -96.38
   7.328  -24.98 -112.61   -0.01  -19.78   -0.01  -19.80  -25.01  -95.43
   7.409  -25.33 -113.92   -0.01  -20.19   -0.03  -20.22  -25.55  -95.19
   7.491  -25.88 -113.82   -0.01  -20.59   -0.02  -20.64  -26.01  -95.66
   7.572  -26.33 -115.33    0.00  -20.96   -0.02  -21.11  -26.52  -95.43
   7.654  -27.11 -117.16   -0.02  -21.35   -0.02  -21.41  -26.93  -95.52
   7.735  -27.95 -117.68   -0.02  -21.68   -0.03  -21.74  -27.63  -95.16
   7.817  -28.60 -116.93   -0.01  -22.03   -0.02  -21.99  -28.39  -93.66
   7.898  -29.13 -115.88    0.00  -22.43   -0.02  -22.50  -29.15  -92.90
   7.980  -29.88 -115.61    0.00  -22.78   -0.01  -22.83  -29.75  -91.08
   8.061  -30.68 -115.14    0.00  -23.12   -0.02  -23.18  -30.38  -89.63
   8.143  -31.36 -116.97   -0.01  -23.57   -0.01  -23.60  -31.09  -87.92
   8.224  -32.19 -118.01   -0.01  -23.93   -0.01  -23.96  -32.07  -85.87
   8.306  -33.26 -118.13    0.00  -24.32    0.00  -24.38  -32.85  -82.96
   8.387  -33.17 -114.35   -0.01  -24.70   -0.01  -24.68  -33.05  -88.56
   8.469  -34.34 -113.45   -0.01  -25.05    0.00  -25.10  -33.88  -84.59
   8.550  -35.76 -112.56   -0.01  -25.46    0.00  -25.51  -34.80  -79.38
   8.632  -37.13 -111.61   -0.01  -25.85    0.00  -25.96  -35.47  -73.14
   8.713  -38.39 -107.84   -0.01  -26.23   -0.01  -26.30  -35.97  -66.47
   8.795  -40.16 -105.85    0.00  -26.58   -0.01  -26.55  -36.29  -61.57
   8.876  -41.97 -100.99   -0.01  -26.96    0.00  -27.00  -37.07  -58.14
   8.958  -44.10 -100.78   -0.01  -27.35    0.00  -27.29  -38.41  -50.64
   9.039  -48.11  -99.16   -0.01  -27.73    0.00  -27.78  -39.21  -35.95
   9.121  -58.89  -54.42   -0.01  -28.15   -0.02  -28.13  -38.50  -22.69
   9.202  -52.36   18.77   -0.01  -28.48   -0.02  -28.52  -38.08  -17.88
   9.284  -48.18   34.05    0.00  -28.83   -0.02  -28.86  -38.11  -10.38
   9.365  -45.36   53.79   -0.01  -29.08   -0.02  -29.11  -38.26    0.99
   9.447  -41.66   57.35   -0.01  -29.40   -0.02  -29.40  -37.34   11.64
   9.528  -38.86   56.68   -0.01  -29.69   -0.01  -29.66  -36.04   19.90
   9.610  -37.45   53.94   -0.01  -30.08   -0.01  -30.09  -34.92   23.49
   9.691  -36.02   53.18   -0.01  -30.47   -0.01  -30.52  -34.05   27.29
   9.773  -35.02   53.81   -0.01  -30.87   -0.01  -30.86  -32.98   29.52
   9.854  -34.05   54.32   -0.01  -31.27   -0.01  -31.28  -32.13   31.46
   9.936  -33.13   54.85   -0.01  -31.70   -0.01  -31.71  -31.20   31.87
  10.017  -32.21   53.34   -0.01  -32.15   -0.01  -32.11  -30.49   32.55
  10.099  -31.39   53.11   -0.01  -32.56   -0.01  -32.60  -30.02   32.37
  10.180  -30.77   52.16   -0.01  -32.93   -0.01  -32.94  -29.61   31.24
  10.262  -30.38   52.41   -0.01  -33.33   -0.01  -33.32  -29.28   31.77
  10.343  -29.78   53.00   -0.01  -33.71   -0.01  -33.69  -29.04   32.46
  10.425  -29.21   53.22   -0.01  -34.16   -0.01  -34.10  -28.66   34.36
  10.506  -28.54   52.88   -0.01  -34.62   -0.01  -34.59  -28.20   35.93
  10.588  -27.89   52.59   -0.01  -35.00   -0.01  -34.99  -27.70   36.77
  10.669  -27.33   52.91   -0.01  -35.34   -0.01  -35.29  -27.24   37.08
  10.751  -26.88   51.67   -0.01  -35.76   -0.01  -35.70  -26.71   37.28
  10.832  -26.28   50.85   -0.01  -36.07   -0.01  -36.13  -26.30   37.56
  10.914  -25.90   48.99   -0.01  -36.49    0.00  -36.48  -25.95   37.51
  10.995  -25.47   48.91   -0.01  -36.84   -0.01  -36.86  -25.62   37.41
  11.077  -25.09   47.50   -0.01  -37.26   -0.01  -37.30  -25.32   37.43
  11.158  -24.79   46.97   -0.01  -37.72   -0.01  -37.75  -24.90   37.76
  11.240  -24.45   46.11   -0.01  -38.16   -0.01  -38.17  -24.55   38.67
  11.321  -24.01   45.68   -0.01  -38.59    0.00  -38.58  -24.16   39.20
  11.403  -23.70   45.62   -0.01  -39.06   -0.01  -39.10  -23.73   38.94
  11.484  -23.28   45.13   -0.01  -39.56   -0.01  -39.58  -23.31   39.23
  11.566  -22.90   45.34   -0.01  -40.08   -0.01  -40.08  -22.82   38.82
  11.647  -22.42   44.60   -0.01  -40.68   -0.01  -40.63  -22.43   39.48
  11.729  -21.86   43.63   -0.01  -41.18   -0.02  -41.18  -21.93   39.70
  11.810  -21.32   43.79   -0.01  -41.73   -0.02  -41.72  -21.47   38.91
  11.892  -20.85   42.08   -0.01  -42.44   -0.03  -42.37  -20.84   38.94
  11.973  -20.20   41.28   -0.03  -43.05   -0.05  -43.04  -20.34   38.09
  12.055  -19.65   40.11   -0.05  -43.70   -0.07  -43.72  -19.69   37.41
  12.136  -19.03   38.18   -0.08  -44.46   -0.09  -44.41  -19.04   37.02
  12.218  -18.21   36.86   -0.10  -45.24   -0.13  -45.32  -18.39   35.23
  12.299  -17.59   34.91   -0.17  -46.12   -0.18  -46.21  -17.54   33.48
  12.381  -16.74   31.82   -0.23  -47.25   -0.24  -47.15  -16.69   31.98
  12.462  -15.62   28.91   -0.30  -48.47   -0.35  -48.50  -15.83   28.70
  12.544  -14.70   24.76   -0.47  -49.77   -0.48  -49.76  -14.66   25.32
  12.625  -13.39   19.23   -0.71  -51.40   -0.75  -51.24  -13.54   20.35
  12.707  -12.03   11.33   -1.11  -53.27   -1.17  -53.18  -12.16   12.10
  12.788  -10.70   -0.78   -1.84  -54.09   -1.85  -54.13  -10.57    0.88
  12.870   -9.49  -19.48   -2.98  -51.56   -2.93  -51.00   -9.71  -15.37
  12.951   -9.39  -41.54   -3.49  -41.61   -3.44  -41.65   -9.50  -38.32
  13.033  -10.75  -63.51   -2.58  -33.43   -2.56  -33.68  -10.69  -59.01
  13.114  -12.95  -80.14   -1.57  -32.14   -1.57  -32.38  -12.83  -73.61
  13.196  -15.44  -90.08   -0.93  -33.78   -0.97  -33.68  -15.11  -84.80
  13.277  -17.80  -97.30   -0.58  -35.52   -0.60  -35.72  -17.40  -89.80
  13.359  -20.08 -100.91   -0.39  -37.22   -0.42  -37.24  -19.71  -94.03
  13.440  -22.25 -102.96   -0.29  -38.68   -0.31  -38.62  -21.92  -96.05
  13.522  -24.43 -103.74   -0.18  -39.83   -0.20  -39.82  -23.99  -96.00
  13.603  -26.73 -105.10   -0.13  -40.89   -0.18  -40.88  -26.10  -94.22
  13.685  -29.33 -103.05   -0.11  -41.66   -0.12  -41.65  -28.25  -90.19
  13.766  -32.51  -99.83   -0.07  -42.37   -0.09  -42.28  -30.35  -86.06
  13.848  -35.86  -89.32   -0.06  -43.13   -0.05  -43.03  -32.73  -76.70
  13.929  -39.56  -61.10   -0.06  -43.86   -0.07  -43.76  -35.36  -64.30
  14.011  -39.72  -23.03   -0.03  -44.42   -0.04  -44.29  -37.08  -45.03
  14.092  -36.86    0.19   -0.02  -44.97   -0.02  -45.04  -37.59  -18.00
  14.174  -34.53   10.71   -0.02  -45.67   -0.03  -45.60  -36.30    3.87
  14.255  -32.80   13.81   -0.02  -46.17   -0.03  -46.09  -34.17   17.73
  14.337  -31.90   17.48   -0.02  -46.67   -0.02  -46.47  -32.35   24.76
  14.418  -31.05   22.87   -0.02  -47.07   -0.02  -47.03  -30.68   26.75
  14.500  -29.81   27.19   -0.01  -47.56   -0.01  -47.48  -29.69   28.14
  14.581  -28.54   27.58   -0.01  -48.11   -0.01  -48.02  -29.08   29.26
  14.663  -27.67   28.28   -0.01  -48.75   -0.01  -48.60  -28.25   31.72
  14.744  -27.01   27.31   -0.02  -49.17   -0.02  -49.01  -27.58   33.71
  14.826  -26.18   26.71   -0.01  -49.53   -0.01  -49.51  -26.86   36.07
  14.907  -25.86   25.95   -0.01  -49.93   -0.01  -49.75  -26.01   36.58
  14.989  -25.64   25.80   -0.01  -50.35   -0.01  -50.26  -25.18   35.94
  15.070  -25.47   28.09   -0.01  -50.83   -0.01  -50.65  -24.76   34.00
  15.152  -25.02   29.66   -0.01  -51.32   -0.01  -51.18  -24.48   33.82
  15.233  -24.48   30.76   -0.02  -51.82   -0.01  -51.79  -24.29   34.68
  15.315  -23.97   31.06   -0.02  -52.22   -0.03  -52.04  -23.97   34.22
  15.396  -23.59   31.92   -0.04  -52.70   -0.03  -52.67  -23.58   35.70
  15.478  -23.25   32.39   -0.05  -53.04   -0.04  -52.96  -23.22   35.90
  15.559  -22.72   32.52   -0.07  -53.44   -0.06  -53.35  -22.84   37.29
  15.641  -22.44   33.64   -0.08  -53.84   -0.06  -53.70  -22.46   36.88
  15.722  -21.93   33.41   -0.08  -54.22   -0.07  -54.05  -22.11   37.89
  15.804  -21.61   33.99   -0.10  -54.62   -0.08  -54.45  -21.79   38.02
  15.885  -21.26   33.62   -0.10  -54.97   -0.10  -54.77  -21.36   37.87
  15.967  -20.95   33.43   -0.12  -55.27   -0.10  -55.14  -20.99   38.80
  16.048  -20.54   33.28   -0.13  -55.70   -0.11  -55.49  -20.70   38.24
  16.130  -20.21   33.31   -0.13  -56.04   -0.12  -55.87  -20.32   38.40
  16.211  -19.90   32.86   -0.14  -56.28   -0.13  -56.14  -19.99   38.23
  16.293  -19.53   32.85   -0.15  -56.66   -0.12  -56.42  -19.62   38.09
  16.374  -19.30   32.57   -0.14  -57.00   -0.13  -56.87  -19.34   37.54
  16.456  -19.03   31.79   -0.15  -57.27   -0.12  -57.26  -18.98   37.74
  16.537  -18.81   31.75   -0.16  -57.64   -0.14  -57.53  -18.78   37.21
  16.619  -18.53   31.27   -0.17  -57.97   -0.14  -58.04  -18.46   36.94
  16.700  -18.29   31.05   -0.17  -58.34   -0.15  -58.33  -18.23   36.56
  16.782  -18.00   30.50   -0.20  -58.64   -0.16  -58.61  -17.97   36.46
  16.863  -17.80   30.60   -0.18  -58.97   -0.18  -58.91  -17.66   36.28
  16.945  -17.57   29.98   -0.20  -59.29   -0.17  -59.12  -17.33   35.54
  17.026  -17.29   29.50   -0.20  -59.36   -0.16  -59.55  -17.10   36.20
  17.108  -17.10   29.46   -0.20  -59.91   -0.12  -59.92  -16.89   34.09
  17.189  -16.80   28.98   -0.20  -60.10   -0.12  -60.12  -16.60   34.32
  17.271  -16.65   28.67   -0.19  -60.58   -0.15  -60.78  -16.45   33.51
  17.352  -16.38   27.95   -0.19  -61.01   -0.14  -61.09  -16.17   32.13
  17.434  -16.15   26.96   -0.18  -61.28   -0.17  -61.58  -16.02   32.84
  17.515  -15.89   26.00   -0.21  -61.73   -0.16  -61.98  -15.91   30.91
  17.597  -15.68   25.40   -0.21  -61.99   -0.16  -62.32  -15.78   30.55
  17.678  -15.78   24.36   -0.21  -62.37   -0.18  -62.54  -15.58   29.33
  17.760  -15.70   24.21   -0.21  -62.76   -0.16  -63.12  -15.47   29.05
  17.841  -15.69   23.98   -0.19  -62.97   -0.18  -63.44  -15.46   28.92
  17.923  -15.40   24.32   -0.21  -63.25   -0.17  -63.78  -15.42   28.42
  18.004  -15.27   24.59   -0.20  -63.76   -0.18  -64.22  -15.30   28.40
  18.086  -15.16   24.28   -0.20  -64.13   -0.20  -64.48  -15.08   27.37
  18.167  -14.89   23.60   -0.21  -64.40   -0.20  -64.95  -14.97   28.17
  18.249  -14.82   23.18   -0.20  -64.86   -0.20  -65.31  -14.81   26.94
  18.330  -14.63   22.84   -0.20  -65.25   -0.21  -65.79  -14.68   26.83
  18.412  -14.49   22.82   -0.22  -65.65   -0.21  -66.28  -14.66   25.71
  18.493  -14.42   22.62   -0.22  -66.06   -0.20  -66.54  -14.39   25.06
  18.575  -14.32   21.67   -0.21  -66.35   -0.24  -67.04  -14.36   25.16
  18.656  -14.15   21.24   -0.21  -66.74   -0.26  -67.34  -14.27   24.19
  18.738  -14.03   21.22   -0.22  -67.15   -0.25  -67.62  -14.20   24.06
  18.819  -13.91   20.42   -0.22  -67.59   -0.27  -68.03  -14.12   23.25
  18.901  -13.77   20.76   -0.21  -67.97   -0.25  -68.37  -13.97   22.92
  18.982  -13.74   19.94   -0.21  -68.40   -0.28  -68.71  -13.90   22.50
  19.064  -13.51   19.91   -0.22  -68.64   -0.27  -69.19  -13.81   22.22
  19.145  -13.47   19.82   -0.24  -69.16   -0.28  -69.61  -13.78   21.29
  19.227  -13.36   19.36   -0.22  -69.51   -0.28  -69.89  -13.56   20.70
  19.308  -13.24   18.61   -0.22  -70.01   -0.29  -70.41  -13.54   20.80
  19.390  -13.13   18.41   -0.23  -70.40   -0.30  -70.73  -13.40   19.73
  19.471  -12.98   17.49   -0.23  -70.87   -0.33  -71.12  -13.35   19.94
  19.553  -12.86   17.78   -0.27  -71.14   -0.32  -71.59  -13.28   18.13
  19.634  -12.79   17.35   -0.28  -71.58   -0.33  -71.93  -13.14   17.94
  19.716  -12.76   16.26   -0.29  -72.12   -0.34  -72.23  -13.04   17.43
  19.797  -12.57   15.82   -0.28  -72.40   -0.34  -72.69  -12.98   16.84
  19.879  -12.54   14.73   -0.27  -72.88   -0.35  -72.94  -12.90   16.52
  19.960  -12.39   14.58   -0.29  -73.13   -0.37  -73.46  -12.90   15.28
  20.042  -12.40   13.78   -0.30  -73.71   -0.35  -73.97  -12.77   14.56
  20.123  -12.40   12.92   -0.32  -74.23   -0.34  -74.27  -12.61   14.35
  20.205  -12.30   12.10   -0.30  -74.83   -0.36  -74.95  -12.59   13.70
  20.286  -12.25   11.59   -0.31  -75.29   -0.34  -75.19  -12.51   13.17
  20.368  -12.21   11.38   -0.31  -75.59   -0.36  -75.71  -12.45   12.58
  20.449  -12.19   11.00   -0.35  -76.17   -0.41  -76.33  -12.44   11.63
  20.531  -12.16   10.82   -0.36  -76.79   -0.36  -76.91  -12.22   10.60
  20.612  -12.08    9.29   -0.38  -77.36   -0.41  -77.27  -12.26   10.75
  20.694  -11.92    9.37   -0.37  -77.78   -0.43  -77.88  -12.22    9.84
  20.775  -11.91    8.53   -0.39  -78.34   -0.43  -78.18  -12.10    9.81
  20.857  -11.82    8.12   -0.44  -78.65   -0.49  -78.64  -12.09    9.34
  20.938  -11.78    7.44   -0.48  -79.33   -0.51  -79.67  -11.99    8.19
  21.020  -11.75    6.62   -0.50  -79.95   -0.49  -79.94  -11.81    8.41
  21.101  -11.54    5.74   -0.51  -80.50   -0.56  -80.42  -11.90    8.07
  21.183  -11.54    5.61   -0.56  -80.83   -0.57  -81.03  -11.75    7.01
  21.264  -11.44    4.80   -0.55  -81.30   -0.58  -81.23  -11.71    7.63
  21.346  -11.39    4.28   -0.62  -81.96   -0.66  -82.06  -11.67    7.24
  21.427  -11.26    4.47   -0.65  -82.68   -0.66  -82.86  -11.38    6.66
  21.509  -11.08    2.75   -0.70  -83.34   -0.72  -83.03  -11.30    7.75
  21.590  -10.85    3.43   -0.71  -83.68   -0.75  -83.79  -11.04    6.30
  21.672  -10.68    2.08   -0.75  -84.27   -0.77  -84.32  -10.80    6.17
