!  American Technical Ceramics  Date:   4/26/2005
!  One Norden Lane
!  Huntington Station,  NY.   11746-2102
!  Tel:  (631) 622-4700               Fax:  (631) 622-4748
!  Part Number  600S150         Mounting Orientation: Horizontal
!  Description: Ultra Low ESR Microwave capacitors
!  Application: Coupling, Bypass, Tuning, DC Block
!               Filters, Matching
# GHZ S DB R 50
! Freq   |S11|   S11 Ph  |S21|   S21 Ph  |S12|   S12 Ph  |S22|   S22 Ph
   0.000    0.00    0.00 -999.00   90.00 -999.00   90.00    0.00    0.00
   0.400  -11.95  -76.31   -0.29   13.84   -0.08   13.18  -11.52  -75.66
   0.445  -12.48  -76.73   -0.27   12.20   -0.08   11.32  -12.45  -78.20
   0.490  -13.71  -79.02   -0.19   10.83   -0.01   10.02  -13.28  -78.77
   0.535  -14.07  -79.28   -0.18    9.58   -0.01    8.62  -14.08  -80.76
   0.580  -15.26  -81.29   -0.13    8.61   -0.01    7.69  -14.82  -81.24
   0.625  -15.42  -81.25   -0.13    7.64   -0.01    6.61  -15.49  -82.96
   0.670  -16.60  -82.95   -0.09    6.84   -0.01    5.82  -16.13  -83.18
   0.715  -16.69  -82.72   -0.10    6.08   -0.01    5.06  -16.79  -84.28
   0.760  -17.81  -84.74   -0.07    5.44   -0.01    4.52  -17.37  -84.54
   0.805  -17.80  -83.25   -0.07    4.77   -0.01    3.83  -17.88  -85.77
   0.850  -18.95  -86.58   -0.06    4.24   -0.01    3.14  -18.46  -85.98
   0.895  -18.86  -84.21   -0.06    3.66   -0.01    2.56  -18.99  -86.90
   0.940  -19.96  -88.11   -0.04    3.19   -0.01    2.05  -19.53  -87.36
   0.985  -19.91  -85.09   -0.05    2.69   -0.01    1.59  -20.04  -88.14
   1.030  -20.94  -88.86   -0.03    2.28   -0.01    1.09  -20.48  -88.51
   1.075  -20.80  -85.71   -0.03    1.83   -0.01    0.72  -20.96  -88.98
   1.120  -21.86  -90.41   -0.03    1.44   -0.01    0.28  -21.46  -89.36
   1.165  -21.78  -85.97   -0.03    1.02   -0.01   -0.06  -21.92  -89.96
   1.210  -22.66  -91.60   -0.02    0.69   -0.01   -0.44  -22.35  -90.42
   1.255  -22.77  -86.61   -0.02    0.32   -0.01   -0.78  -22.77  -90.64
   1.300  -23.41  -92.28   -0.01   -0.02   -0.01   -1.11  -23.26  -91.09
   1.345  -23.70  -87.46   -0.01   -0.37   -0.01   -1.46  -23.69  -91.34
   1.390  -24.25  -92.86   -0.01   -0.67   -0.01   -1.74  -24.11  -91.74
   1.435  -24.58  -87.71   -0.01   -1.00   -0.01   -2.12  -24.50  -91.96
   1.480  -25.07  -94.01   -0.01   -1.28   -0.01   -2.32  -24.99  -92.60
   1.525  -25.51  -87.32   -0.01   -1.59   -0.01   -2.68  -25.38  -92.56
   1.570  -25.66  -94.57   -0.01   -1.86   -0.01   -2.84  -25.79  -92.74
   1.615  -26.63  -88.26    0.00   -2.15   -0.01   -3.13  -26.17  -93.05
   1.660  -26.35  -93.89    0.00   -2.42   -0.01   -3.42  -26.69  -93.79
   1.705  -27.43  -89.16   -0.01   -2.71   -0.01   -3.69  -27.13  -93.91
   1.750  -27.20  -95.62    0.00   -2.95   -0.01   -3.93  -27.53  -93.52
   1.795  -28.53  -89.14   -0.01   -3.22   -0.01   -4.20  -28.05  -93.41
   1.840  -27.97  -95.29    0.00   -3.45   -0.01   -4.43  -28.49  -93.58
   1.885  -29.50  -89.73   -0.01   -3.75   -0.01   -4.68  -28.90  -94.20
   1.930  -28.70  -95.20    0.00   -3.97    0.00   -4.92  -29.26  -93.80
   1.975  -30.64  -91.43    0.00   -4.22    0.00   -5.14  -29.74  -93.40
   2.020  -29.64  -93.34    0.00   -4.46    0.00   -5.38  -30.31  -93.40
   2.065  -31.41  -93.07   -0.01   -4.71   -0.01   -5.60  -30.73  -94.07
   2.110  -30.58  -93.39   -0.01   -4.97   -0.01   -5.86  -31.09  -93.86
   2.155  -32.51  -94.29   -0.01   -5.18   -0.01   -6.06  -31.58  -92.98
   2.200  -31.37  -92.69   -0.01   -5.42   -0.02   -6.28  -32.22  -92.66
   2.245  -33.52  -97.01   -0.01   -5.65   -0.02   -6.47  -32.70  -92.95
   2.290  -32.40  -92.01   -0.01   -5.87   -0.02   -6.72  -33.10  -93.78
   2.335  -34.61 -100.38   -0.01   -6.09   -0.02   -6.91  -33.58  -92.23
   2.380  -33.75  -91.03   -0.01   -6.32   -0.03   -7.11  -34.31  -91.89
   2.425  -35.46 -100.99   -0.01   -6.53   -0.02   -7.32  -34.83  -91.94
   2.470  -34.87  -91.35   -0.01   -6.76   -0.03   -7.50  -35.10  -92.69
   2.515  -36.65 -104.91   -0.01   -6.97   -0.03   -7.68  -35.51  -91.67
   2.560  -36.50  -91.87   -0.01   -7.19   -0.03   -7.87  -36.10  -90.36
   2.605  -37.96 -105.92   -0.01   -7.41   -0.03   -8.10  -36.83  -90.98
   2.650  -37.96  -90.95   -0.01   -7.63   -0.03   -8.28  -37.15  -91.53
   2.695  -39.32 -109.69   -0.01   -7.82   -0.03   -8.49  -37.44  -90.47
   2.740  -40.32  -91.46   -0.01   -8.07   -0.03   -8.70  -38.05  -89.28
   2.785  -40.89 -109.58   -0.01   -8.28   -0.03   -8.90  -38.72  -90.10
   2.830  -42.41  -87.82   -0.01   -8.50   -0.03   -9.12  -39.23  -91.54
   2.875  -42.24 -106.78   -0.01   -8.72   -0.03   -9.32  -39.66  -91.79
   2.920  -44.58  -84.48   -0.01   -8.94   -0.04   -9.52  -40.49  -88.81
   2.965  -42.93 -107.56   -0.01   -9.15   -0.05   -9.72  -41.39  -87.65
   3.010  -46.09  -90.19   -0.01   -9.34   -0.05   -9.89  -41.64  -85.22
   3.055  -44.96  -99.43   -0.01   -9.55   -0.05  -10.07  -45.66  -89.39
   3.100  -49.36  -56.46   -0.01   -9.75   -0.05  -10.24  -47.50  -84.21
   3.145  -46.96 -101.28   -0.01   -9.92   -0.06  -10.40  -50.56  -74.83
   3.190  -57.13  -25.46    0.00  -10.13   -0.05  -10.60  -53.19  -63.59
   3.235  -54.44  -91.89   -0.01  -10.32   -0.05  -10.79  -54.90  -43.10
   3.280  -52.09   42.24    0.00  -10.51   -0.05  -10.97  -52.92  -11.50
   3.325  -60.67    7.02   -0.01  -10.71   -0.05  -11.15  -52.01   11.36
   3.370  -47.40   48.77   -0.01  -10.93   -0.05  -11.34  -51.06   28.79
   3.415  -52.64   24.74    0.00  -11.11   -0.05  -11.52  -49.97   35.83
   3.460  -45.33   60.45   -0.01  -11.32   -0.05  -11.73  -47.66   40.09
   3.505  -48.48   43.13    0.00  -11.52   -0.05  -11.92  -45.82   45.86
   3.550  -43.53   68.88   -0.01  -11.72   -0.06  -12.09  -44.65   54.70
   3.595  -44.90   47.60   -0.01  -11.90   -0.06  -12.27  -43.94   57.80
   3.640  -42.31   70.09   -0.01  -12.10   -0.05  -12.46  -42.78   55.97
   3.685  -42.94   56.71   -0.01  -12.31   -0.05  -12.65  -41.82   56.36
   3.730  -40.48   74.76   -0.01  -12.51   -0.05  -12.82  -40.96   60.19
   3.775  -40.95   58.96    0.00  -12.73   -0.05  -13.03  -40.53   62.49
   3.820  -39.30   76.49    0.00  -12.90   -0.05  -13.20  -39.99   62.25
   3.865  -39.11   62.67    0.00  -13.11   -0.05  -13.40  -39.27   63.11
   3.910  -38.23   76.90   -0.01  -13.34   -0.04  -13.58  -38.50   65.78
   3.955  -37.63   66.57   -0.01  -13.54   -0.05  -13.79  -37.92   66.82
   4.000  -37.04   77.21    0.00  -13.74   -0.05  -13.98  -37.62   67.11
   4.045  -36.22   69.74   -0.01  -13.95   -0.05  -14.17  -37.03   67.34
   4.090  -35.85   76.96   -0.01  -14.14   -0.06  -14.37  -36.34   68.56
   4.135  -34.88   70.83   -0.01  -14.33   -0.06  -14.57  -35.77   69.21
   4.180  -34.72   76.42   -0.01  -14.51   -0.06  -14.74  -35.32   69.15
   4.225  -33.60   71.09   -0.01  -14.71   -0.06  -14.91  -34.60   68.34
   4.270  -33.82   73.59   -0.01  -14.90   -0.06  -15.08  -33.95   68.05
   4.315  -32.64   71.28   -0.01  -15.13   -0.05  -15.30  -33.49   67.86
   4.360  -32.83   72.26   -0.01  -15.36   -0.06  -15.50  -33.06   67.40
   4.405  -31.87   71.56   -0.02  -15.56   -0.06  -15.69  -32.48   66.85
   4.450  -31.75   72.45   -0.02  -15.74   -0.06  -15.88  -31.81   65.77
   4.495  -30.77   69.67   -0.02  -15.96   -0.06  -16.07  -31.30   64.57
   4.540  -30.76   69.44   -0.02  -16.18   -0.05  -16.32  -30.85   62.89
   4.585  -29.91   68.05   -0.01  -16.42   -0.05  -16.54  -30.40   61.25
   4.630  -30.01   66.16   -0.02  -16.69   -0.06  -16.81  -30.03   59.15
   4.675  -29.48   66.48   -0.02  -16.92   -0.06  -17.02  -29.77   59.17
   4.720  -29.22   66.63   -0.02  -17.18   -0.06  -17.28  -29.29   58.92
   4.765  -28.49   66.82   -0.03  -17.46   -0.07  -17.56  -28.77   58.11
   4.810  -28.08   66.12   -0.04  -17.75   -0.08  -17.80  -28.16   56.86
   4.855  -27.23   64.74   -0.05  -18.05   -0.09  -18.12  -27.49   55.66
   4.900  -26.73   62.78   -0.07  -18.37   -0.10  -18.40  -26.85   53.37
   4.945  -25.79   61.70   -0.10  -18.71   -0.13  -18.76  -26.12   50.34
   4.990  -25.02   57.07   -0.14  -19.08   -0.17  -19.12  -25.31   46.27
   5.035  -24.07   52.93   -0.20  -19.44   -0.23  -19.47  -24.44   40.25
   5.080  -23.09   44.25   -0.30  -19.68   -0.33  -19.68  -23.61   31.22
   5.125  -22.32   32.79   -0.45  -19.48   -0.46  -19.52  -23.09   17.86
   5.170  -22.47   15.75   -0.54  -18.51   -0.57  -18.56  -23.40    0.59
   5.215  -23.91    0.49   -0.49  -17.34   -0.51  -17.36  -25.24  -16.83
   5.260  -26.26  -10.02   -0.35  -16.85   -0.38  -16.94  -28.17  -27.26
   5.305  -29.19  -10.46   -0.23  -16.99   -0.26  -17.06  -31.85  -28.99
   5.350  -31.36   -4.74   -0.16  -17.34   -0.17  -17.40  -35.23  -18.07
   5.395  -33.35    6.79   -0.11  -17.72   -0.13  -17.75  -37.55    2.08
   5.440  -33.73   18.93   -0.08  -18.07   -0.10  -18.13  -37.61   24.98
   5.485  -33.87   30.98   -0.06  -18.42   -0.07  -18.45  -36.51   39.47
   5.530  -33.24   38.36   -0.05  -18.73   -0.07  -18.78  -35.18   48.00
   5.575  -32.87   45.58   -0.03  -19.01   -0.05  -19.02  -34.16   53.03
   5.620  -32.04   48.99   -0.03  -19.30   -0.04  -19.33  -33.20   56.14
   5.665  -31.71   52.36   -0.02  -19.55   -0.04  -19.56  -32.40   57.93
   5.710  -30.94   55.05   -0.02  -19.81   -0.03  -19.85  -31.63   59.17
   5.755  -30.62   56.29   -0.01  -20.07   -0.03  -20.11  -30.97   59.64
   5.800  -30.02   58.01   -0.02  -20.30   -0.02  -20.33  -30.48   60.44
   5.845  -29.66   58.77   -0.01  -20.56   -0.02  -20.60  -29.96   60.68
   5.890  -29.10   59.68   -0.01  -20.78   -0.01  -20.81  -29.53   60.63
   5.935  -28.81   59.72   -0.01  -21.05   -0.02  -21.10  -29.09   60.34
   5.980  -28.35   60.09   -0.01  -21.25   -0.01  -21.28  -28.77   60.23
   6.025  -28.13   60.01   -0.01  -21.44   -0.01  -21.52  -28.35   60.46
   6.070  -27.79   60.52   -0.02  -21.67   -0.02  -21.70  -28.06   59.90
   6.115  -27.46   60.09   -0.01  -21.87   -0.01  -21.94  -27.71   59.82
   6.160  -27.21   60.13   -0.02  -22.10   -0.01  -22.17  -27.38   59.89
   6.205  -26.91   60.53   -0.02  -22.29   -0.01  -22.36  -27.07   59.67
   6.250  -26.66   59.85   -0.02  -22.51   -0.01  -22.57  -26.83   59.27
   6.295  -26.44   60.16   -0.02  -22.70    0.00  -22.75  -26.60   58.89
   6.340  -26.20   59.40   -0.02  -22.91   -0.01  -23.00  -26.24   58.57
   6.385  -25.98   60.49   -0.02  -23.10   -0.01  -23.23  -26.01   58.70
   6.430  -25.75   59.03   -0.01  -23.32   -0.01  -23.54  -25.76   58.98
   6.475  -25.51   60.51   -0.02  -23.49   -0.01  -23.81  -25.66   58.19
   6.520  -25.35   57.80   -0.02  -23.71   -0.01  -24.23  -25.37   57.26
   6.565  -25.02   60.98   -0.02  -23.96   -0.01  -24.56  -25.06   56.64
   6.610  -25.04   57.63   -0.02  -24.16   -0.01  -24.86  -24.83   57.33
   6.655  -24.62   60.50   -0.02  -24.40   -0.03  -25.09  -24.77   57.76
   6.700  -24.66   57.73   -0.02  -24.62   -0.05  -25.27  -24.67   57.17
   6.745  -24.22   60.47   -0.03  -24.87   -0.08  -25.47  -24.42   56.16
   6.790  -24.14   58.25   -0.03  -25.02   -0.08  -25.64  -24.15   56.56
   6.835  -23.83   59.34   -0.03  -25.26   -0.09  -25.82  -23.87   57.60
   6.880  -23.80   58.31   -0.04  -25.44   -0.09  -25.84  -23.85   57.30
   6.925  -23.31   59.46   -0.04  -25.68   -0.11  -26.11  -23.66   56.79
   6.970  -23.31   57.62   -0.04  -25.89   -0.12  -26.15  -23.38   56.21
   7.015  -23.04   58.96   -0.04  -26.11   -0.11  -26.39  -23.05   56.95
   7.060  -22.91   57.37   -0.05  -26.32   -0.12  -26.48  -22.93   56.92
   7.105  -22.57   58.54   -0.05  -26.57   -0.11  -26.76  -22.78   56.81
   7.150  -22.45   56.73   -0.05  -26.79   -0.12  -26.89  -22.52   55.97
   7.195  -22.21   57.99   -0.05  -27.02   -0.11  -27.11  -22.24   56.16
   7.240  -22.09   56.25   -0.06  -27.26   -0.12  -27.37  -21.98   56.24
   7.285  -21.74   57.70   -0.06  -27.49   -0.11  -27.54  -21.85   55.91
   7.330  -21.62   55.57   -0.06  -27.71   -0.12  -27.80  -21.58   55.48
   7.375  -21.36   57.14   -0.07  -27.93   -0.12  -27.96  -21.34   54.63
   7.420  -21.18   54.54   -0.07  -28.17   -0.13  -28.21  -21.08   55.32
   7.465  -21.02   55.91   -0.08  -28.45   -0.14  -28.42  -20.89   54.22
   7.510  -20.74   54.17   -0.09  -28.67   -0.14  -28.71  -20.68   53.98
   7.555  -20.64   55.06   -0.09  -28.94   -0.14  -28.91  -20.42   52.82
   7.600  -20.37   53.50   -0.10  -29.17   -0.16  -29.17  -20.19   52.98
   7.645  -20.24   54.55   -0.10  -29.47   -0.16  -29.43  -19.94   52.23
   7.690  -19.81   53.65   -0.11  -29.73   -0.16  -29.66  -19.80   51.70
   7.735  -19.70   53.54   -0.13  -30.00   -0.18  -29.98  -19.55   50.90
   7.780  -19.27   52.49   -0.14  -30.27   -0.18  -30.20  -19.29   50.64
   7.825  -19.18   51.85   -0.14  -30.59   -0.19  -30.56  -18.97   50.55
   7.870  -18.72   51.63   -0.17  -30.90   -0.20  -30.74  -18.78   49.35
   7.915  -18.54   50.08   -0.18  -31.20   -0.22  -31.19  -18.54   48.91
   7.960  -18.17   49.54   -0.20  -31.55   -0.24  -31.48  -18.19   47.71
   8.005  -17.96   47.99   -0.22  -31.87   -0.26  -31.85  -17.91   47.36
   8.050  -17.55   47.27   -0.25  -32.30   -0.29  -32.14  -17.59   45.77
   8.095  -17.31   45.26   -0.28  -32.67   -0.31  -32.64  -17.30   44.70
   8.140  -16.92   44.28   -0.31  -33.06   -0.35  -33.02  -16.93   43.34
   8.185  -16.62   42.24   -0.36  -33.49   -0.39  -33.38  -16.57   41.79
   8.230  -16.19   40.71   -0.42  -33.91   -0.47  -33.86  -16.22   39.95
   8.275  -15.82   38.20   -0.49  -34.35   -0.52  -34.24  -15.80   37.64
   8.320  -15.35   35.55   -0.59  -34.79   -0.62  -34.76  -15.41   34.93
   8.365  -15.06   30.62   -0.70  -35.19   -0.72  -35.02  -15.05   33.85
   8.410  -14.60   26.69   -0.84  -35.57   -0.87  -35.42  -14.63   29.94
   8.455  -14.20   21.80   -1.02  -35.70   -1.03  -35.48  -14.19   24.61
   8.500  -13.83   15.90   -1.23  -35.48   -1.26  -35.39  -13.87   18.79
   8.545  -13.58    8.74   -1.46  -34.77   -1.48  -34.60  -13.58   11.46
   8.590  -13.54    0.36   -1.67  -33.39   -1.69  -33.28  -13.54    3.29
   8.635  -13.75   -8.62   -1.79  -31.36   -1.80  -31.25  -13.74   -6.05
   8.680  -14.34  -17.55   -1.77  -29.09   -1.76  -28.97  -14.30  -15.26
   8.725  -15.14  -26.06   -1.60  -27.19   -1.62  -27.18  -15.30  -24.29
   8.770  -16.42  -33.78   -1.37  -25.98   -1.38  -25.88  -16.49  -31.49
   8.815  -17.83  -39.06   -1.12  -25.48   -1.15  -25.47  -18.00  -37.15
   8.860  -19.34  -43.17   -0.90  -25.46   -0.93  -25.41  -19.53  -40.89
   8.905  -20.95  -44.74   -0.73  -25.76   -0.75  -25.67  -21.28  -42.54
   8.950  -22.69  -45.11   -0.59  -26.20   -0.61  -26.07  -23.06  -42.19
   8.995  -24.44  -42.83   -0.48  -26.65   -0.50  -26.56  -24.76  -38.63
   9.040  -26.17  -38.22   -0.40  -27.19   -0.41  -27.11  -26.35  -32.47
   9.085  -27.67  -30.03   -0.33  -27.70   -0.34  -27.55  -27.61  -24.00
   9.130  -28.88  -20.25   -0.27  -28.15   -0.30  -28.08  -28.51  -15.65
   9.175  -29.38   -7.92   -0.23  -28.58   -0.25  -28.45  -28.91   -6.88
   9.220  -29.37    0.87   -0.19  -29.06   -0.21  -28.99  -29.14    1.29
   9.265  -29.16    9.96   -0.16  -29.54   -0.19  -29.45  -29.22    9.61
   9.310  -28.91   16.16   -0.15  -29.89   -0.16  -29.83  -29.24   16.70
   9.355  -28.55   22.51   -0.14  -30.24   -0.15  -30.17  -28.98   23.43
   9.400  -28.18   26.84   -0.13  -30.57   -0.14  -30.50  -28.44   29.41
   9.445  -27.56   31.33   -0.12  -30.88   -0.13  -30.77  -27.79   34.21
   9.490  -27.15   33.77   -0.10  -31.13   -0.12  -31.06  -27.31   37.68
   9.535  -26.66   37.16   -0.10  -31.46   -0.10  -31.33  -26.81   39.39
   9.580  -26.26   37.86   -0.08  -31.71   -0.09  -31.64  -26.30   41.03
   9.625  -25.88   40.07   -0.07  -32.03   -0.08  -31.87  -25.87   42.63
   9.670  -25.54   40.39   -0.06  -32.27   -0.07  -32.18  -25.56   43.98
   9.715  -25.25   42.32   -0.06  -32.55   -0.06  -32.48  -25.26   44.47
   9.760  -25.05   42.34   -0.05  -32.83   -0.05  -32.72  -24.91   44.85
   9.805  -24.74   44.48   -0.04  -33.07   -0.05  -32.98  -24.56   45.65
   9.850  -24.47   44.56   -0.04  -33.32   -0.04  -33.22  -24.32   46.36
   9.895  -24.22   45.99   -0.03  -33.59   -0.03  -33.48  -24.12   46.82
   9.940  -23.90   46.07   -0.02  -33.84   -0.02  -33.68  -23.86   46.76
   9.985  -23.67   46.71   -0.02  -34.06   -0.02  -33.99  -23.64   47.33
  10.030  -23.41   46.69   -0.01  -34.33   -0.01  -34.20  -23.37   47.28
  10.075  -23.24   47.38   -0.01  -34.61   -0.01  -34.51  -23.30   47.43
  10.120  -22.98   46.95    0.00  -34.88   -0.01  -34.77  -23.07   47.14
  10.165  -22.86   47.17    0.00  -35.14   -0.01  -34.99  -22.89   47.20
  10.210  -22.60   46.91   -0.01  -35.39   -0.01  -35.28  -22.71   47.37
  10.255  -22.59   46.95   -0.01  -35.62   -0.01  -35.52  -22.59   47.38
  10.300  -22.37   47.16    0.00  -35.86   -0.01  -35.79  -22.47   46.92
  10.345  -22.32   46.84   -0.01  -36.11    0.00  -35.97  -22.30   47.12
  10.390  -22.12   47.33   -0.01  -36.33   -0.01  -36.21  -22.18   47.20
  10.435  -22.10   47.27   -0.01  -36.55   -0.01  -36.37  -22.03   47.12
  10.480  -21.89   47.55   -0.01  -36.73   -0.01  -36.71  -22.00   46.86
  10.525  -21.85   47.22   -0.02  -36.99   -0.01  -36.84  -21.80   46.69
  10.570  -21.67   47.84   -0.01  -37.19   -0.01  -37.09  -21.71   46.56
  10.615  -21.64   47.63   -0.02  -37.37   -0.01  -37.23  -21.62   46.52
  10.660  -21.49   48.38   -0.03  -37.56   -0.03  -37.46  -21.54   46.01
  10.705  -21.32   47.78   -0.02  -37.76   -0.03  -37.68  -21.41   46.02
  10.750  -21.19   48.29   -0.02  -37.95   -0.02  -37.85  -21.27   45.85
  10.795  -20.96   48.10   -0.03  -38.12   -0.03  -38.07  -21.26   45.35
  10.840  -20.87   47.53   -0.02  -38.34   -0.02  -38.25  -21.20   45.15
  10.885  -20.73   46.74   -0.02  -38.51   -0.03  -38.47  -21.12   44.65
  10.930  -20.69   46.13   -0.03  -38.68   -0.03  -38.55  -21.05   44.89
  10.975  -20.62   46.05   -0.03  -38.84   -0.03  -38.78  -21.05   44.54
  11.020  -20.63   45.50   -0.03  -39.06   -0.02  -38.95  -21.02   44.37
  11.065  -20.54   45.12   -0.02  -39.19   -0.02  -39.18  -20.97   43.92
  11.110  -20.54   44.67   -0.03  -39.42   -0.01  -39.33  -20.85   44.12
  11.155  -20.52   44.74   -0.02  -39.62   -0.02  -39.56  -20.83   43.94
  11.200  -20.46   45.05   -0.02  -39.78   -0.01  -39.75  -20.82   43.91
  11.245  -20.45   44.54   -0.01  -40.00    0.00  -39.92  -20.72   43.86
  11.290  -20.39   44.91   -0.01  -40.22   -0.01  -40.17  -20.67   43.43
  11.335  -20.33   44.48   -0.01  -40.43    0.00  -40.32  -20.59   44.07
  11.380  -20.32   45.01    0.00  -40.65   -0.01  -40.58  -20.57   43.51
  11.425  -20.23   44.82    0.00  -40.83   -0.01  -40.78  -20.49   43.52
  11.470  -20.13   44.91    0.00  -41.06   -0.01  -41.03  -20.41   43.34
  11.515  -20.04   44.52   -0.01  -41.32   -0.01  -41.20  -20.32   43.52
  11.560  -20.00   44.93   -0.01  -41.54   -0.01  -41.50  -20.28   42.98
  11.605  -19.88   44.59   -0.01  -41.80   -0.01  -41.73  -20.24   42.62
  11.650  -19.84   44.36   -0.01  -42.06    0.00  -41.94  -20.13   42.58
  11.695  -19.70   44.24    0.00  -42.25   -0.01  -42.16  -20.08   42.48
  11.740  -19.67   43.91   -0.01  -42.46   -0.01  -42.32  -20.01   42.43
  11.785  -19.54   44.10   -0.01  -42.70   -0.01  -42.67  -19.96   41.57
  11.830  -19.44   43.60   -0.01  -42.85   -0.01  -42.87  -19.84   41.73
  11.875  -19.34   43.25   -0.01  -43.14   -0.01  -43.10  -19.72   41.49
  11.920  -19.30   42.98   -0.02  -43.35   -0.01  -43.31  -19.64   41.25
  11.965  -19.14   42.87   -0.02  -43.59   -0.02  -43.59  -19.61   40.38
  12.010  -19.09   42.19   -0.03  -43.83   -0.02  -43.77  -19.50   39.91
  12.055  -18.94   42.17   -0.04  -44.04   -0.04  -44.06  -19.41   39.18
  12.100  -18.86   41.40   -0.04  -44.31   -0.05  -44.26  -19.36   38.55
  12.145  -18.74   41.01   -0.07  -44.54   -0.06  -44.49  -19.30   37.72
