!  American Technical Ceramics  Date:   4/26/2005
!  One Norden Lane
!  Huntington Station,  NY.   11746-2102
!  Tel:  (631) 622-4700               Fax:  (631) 622-4748
!  Part Number  600S200         Mounting Orientation: Horizontal
!  Description: Ultra Low ESR Microwave capacitors
!  Application: Coupling, Bypass, Tuning, DC Block
!               Filters, Matching
# GHZ S DB R 50
! Freq   |S11|   S11 Ph  |S21|   S21 Ph  |S12|   S12 Ph  |S22|   S22 Ph
   0.000    0.00    0.00 -999.00   90.00 -999.00   90.00    0.00    0.00
   0.400  -13.98  -78.75   -0.21   10.23   -0.27   10.25  -14.11  -78.52
   0.423  -14.56  -79.93   -0.18    9.54   -0.25    9.57  -14.58  -79.10
   0.445  -15.10  -79.86   -0.17    8.89   -0.23    8.91  -15.03  -79.73
   0.468  -15.43  -79.73   -0.15    8.31   -0.22    8.34  -15.48  -80.35
   0.490  -15.75  -80.91   -0.15    7.77   -0.20    7.83  -15.91  -80.68
   0.513  -16.26  -82.05   -0.13    7.30   -0.19    7.37  -16.29  -81.12
   0.535  -16.76  -81.78   -0.12    6.84   -0.18    6.85  -16.68  -81.62
   0.558  -17.03  -81.31   -0.12    6.38   -0.17    6.43  -17.07  -82.05
   0.580  -17.27  -82.42   -0.11    5.97   -0.16    6.08  -17.44  -82.25
   0.603  -17.72  -83.61   -0.10    5.61   -0.16    5.67  -17.78  -82.53
   0.625  -18.19  -83.31   -0.09    5.25   -0.15    5.31  -18.12  -83.02
   0.648  -18.44  -82.68   -0.09    4.91   -0.14    5.01  -18.46  -83.39
   0.670  -18.62  -83.55   -0.08    4.57   -0.15    4.68  -18.79  -83.55
   0.693  -19.02  -84.81   -0.08    4.27   -0.13    4.37  -19.09  -83.79
   0.715  -19.49  -84.48   -0.08    3.96   -0.13    4.07  -19.38  -84.14
   0.738  -19.72  -83.74   -0.07    3.66   -0.13    3.78  -19.69  -84.38
   0.760  -19.86  -84.29   -0.07    3.43   -0.12    3.49  -20.00  -84.49
   0.783  -20.17  -85.58   -0.07    3.15   -0.12    3.21  -20.30  -84.72
   0.805  -20.63  -85.68   -0.06    2.88   -0.12    2.98  -20.58  -84.89
   0.828  -20.90  -84.69   -0.06    2.63   -0.11    2.74  -20.86  -85.23
   0.850  -20.96  -85.03   -0.06    2.42   -0.11    2.53  -21.15  -85.43
   0.873  -21.25  -86.53   -0.06    2.21   -0.11    2.32  -21.42  -85.55
   0.895  -21.72  -86.70   -0.05    1.98   -0.10    2.11  -21.65  -85.86
   0.918  -22.01  -85.59   -0.05    1.75   -0.10    1.88  -21.91  -86.13
   0.940  -22.07  -85.42   -0.05    1.54   -0.10    1.66  -22.19  -86.09
   0.963  -22.26  -86.88   -0.05    1.33   -0.10    1.50  -22.45  -86.16
   0.985  -22.71  -87.49   -0.05    1.15   -0.09    1.29  -22.69  -86.27
   1.008  -23.03  -86.44   -0.05    0.95   -0.09    1.10  -22.94  -86.45
   1.030  -23.07  -86.25   -0.04    0.76   -0.09    0.92  -23.22  -86.65
   1.053  -23.24  -87.73   -0.04    0.58   -0.09    0.75  -23.47  -86.85
   1.075  -23.71  -88.50   -0.04    0.38   -0.09    0.59  -23.67  -86.92
   1.098  -24.06  -87.10   -0.04    0.23   -0.09    0.38  -23.90  -87.15
   1.120  -24.05  -86.30   -0.04    0.04   -0.08    0.22  -24.14  -87.34
   1.143  -24.14  -88.02   -0.04   -0.12   -0.08    0.08  -24.41  -87.33
   1.165  -24.61  -89.22   -0.04   -0.28   -0.08   -0.11  -24.64  -87.25
   1.188  -25.05  -87.84   -0.04   -0.45   -0.08   -0.26  -24.87  -87.20
   1.210  -25.05  -86.77   -0.04   -0.60   -0.08   -0.42  -25.08  -87.60
   1.233  -25.07  -88.32   -0.04   -0.76   -0.08   -0.56  -25.34  -87.71
   1.255  -25.51  -89.96   -0.03   -0.93   -0.08   -0.70  -25.57  -87.62
   1.278  -25.97  -88.73   -0.03   -1.06   -0.07   -0.86  -25.75  -87.91
   1.300  -25.99  -87.27   -0.03   -1.21   -0.07   -1.02  -26.01  -88.32
   1.323  -25.99  -88.61   -0.03   -1.36   -0.07   -1.15  -26.26  -87.96
   1.345  -26.41  -90.23   -0.03   -1.50   -0.07   -1.30  -26.48  -87.76
   1.368  -26.87  -89.21   -0.03   -1.67   -0.07   -1.46  -26.67  -87.95
   1.390  -26.94  -87.63   -0.03   -1.81   -0.07   -1.59  -26.91  -88.23
   1.413  -26.92  -88.95   -0.03   -1.95   -0.07   -1.72  -27.14  -88.19
   1.435  -27.29  -90.84   -0.03   -2.07   -0.07   -1.86  -27.33  -88.15
   1.458  -27.84  -89.80   -0.03   -2.21   -0.06   -1.99  -27.55  -88.36
   1.480  -27.88  -87.55   -0.03   -2.35   -0.06   -2.13  -27.79  -88.65
   1.503  -27.77  -88.72   -0.03   -2.49   -0.06   -2.24  -28.04  -88.45
   1.525  -28.13  -91.26   -0.03   -2.62   -0.06   -2.40  -28.28  -88.10
   1.548  -28.81  -90.49   -0.03   -2.74   -0.06   -2.50  -28.45  -88.04
   1.570  -28.93  -87.70   -0.03   -2.87   -0.06   -2.62  -28.63  -88.45
   1.593  -28.72  -87.97   -0.03   -3.00   -0.06   -2.78  -28.89  -88.52
   1.615  -28.96  -90.67   -0.03   -3.12   -0.05   -2.91  -29.13  -88.32
   1.638  -29.57  -90.85   -0.03   -3.26   -0.05   -3.02  -29.28  -88.71
   1.660  -29.83  -88.10   -0.02   -3.37   -0.05   -3.16  -29.57  -89.31
   1.683  -29.60  -88.12   -0.02   -3.50   -0.06   -3.29  -29.89  -88.93
   1.705  -29.75  -91.03   -0.02   -3.64   -0.05   -3.38  -30.11  -88.33
   1.728  -30.39  -91.92   -0.02   -3.76   -0.05   -3.52  -30.28  -88.48
   1.750  -30.84  -89.19   -0.02   -3.88   -0.05   -3.66  -30.56  -88.91
   1.773  -30.61  -88.21   -0.02   -4.00   -0.05   -3.78  -30.85  -88.60
   1.795  -30.67  -91.54   -0.03   -4.13   -0.05   -3.87  -31.08  -88.21
   1.818  -31.43  -93.34   -0.03   -4.24   -0.05   -4.00  -31.26  -87.90
   1.840  -31.96  -89.99   -0.02   -4.35   -0.05   -4.13  -31.46  -88.08
   1.863  -31.74  -87.75   -0.02   -4.45   -0.05   -4.24  -31.74  -88.14
   1.885  -31.63  -91.10   -0.02   -4.60   -0.05   -4.34  -32.08  -87.74
   1.908  -32.34  -93.79   -0.02   -4.70   -0.05   -4.44  -32.31  -87.27
   1.930  -33.11  -90.72   -0.03   -4.81   -0.05   -4.60  -32.56  -86.99
   1.953  -32.91  -87.10   -0.02   -4.95   -0.05   -4.68  -32.81  -87.34
   1.975  -32.64  -89.35   -0.02   -5.04   -0.05   -4.79  -33.07  -87.53
   1.998  -33.19  -93.31   -0.03   -5.16   -0.04   -4.90  -33.32  -86.58
   2.020  -34.13  -92.04   -0.02   -5.27   -0.05   -5.02  -33.47  -85.73
   2.043  -34.17  -87.20   -0.02   -5.38   -0.04   -5.13  -33.72  -85.98
   2.065  -33.78  -88.20   -0.02   -5.49   -0.04   -5.27  -34.08  -86.17
   2.088  -34.17  -92.88   -0.02   -5.59   -0.04   -5.35  -34.40  -85.25
   2.110  -35.12  -91.89   -0.02   -5.70   -0.04   -5.48  -34.55  -84.95
   2.133  -35.27  -86.77   -0.02   -5.83   -0.04   -5.57  -34.80  -86.00
   2.155  -34.86  -87.50   -0.02   -5.96   -0.04   -5.69  -35.22  -85.97
   2.178  -35.19  -92.49   -0.02   -6.07   -0.04   -5.83  -35.49  -84.63
   2.200  -36.33  -92.69   -0.02   -6.17   -0.04   -5.92  -35.70  -84.23
   2.223  -36.63  -87.45   -0.02   -6.30   -0.04   -6.02  -35.85  -84.37
   2.245  -36.12  -86.85   -0.02   -6.37   -0.03   -6.14  -36.30  -83.54
   2.268  -36.33  -91.83   -0.02   -6.50   -0.03   -6.26  -36.62  -82.33
   2.290  -37.51  -93.45   -0.02   -6.61   -0.03   -6.35  -36.91  -82.03
   2.313  -38.13  -87.00   -0.02   -6.70   -0.03   -6.48  -37.21  -82.06
   2.335  -37.57  -84.79   -0.02   -6.84   -0.04   -6.57  -37.51  -82.46
   2.358  -37.50  -90.06   -0.02   -6.92   -0.03   -6.68  -37.88  -82.01
   2.380  -38.67  -92.52   -0.03   -7.05   -0.03   -6.79  -38.09  -80.50
   2.403  -39.63  -87.21   -0.02   -7.12   -0.03   -6.88  -38.26  -79.71
   2.425  -39.20  -83.46   -0.02   -7.22   -0.03   -7.01  -38.57  -79.35
   2.448  -39.00  -88.12   -0.02   -7.34   -0.03   -7.10  -38.98  -78.61
   2.470  -40.06  -92.63   -0.03   -7.45   -0.03   -7.23  -39.42  -77.65
   2.493  -41.29  -87.20   -0.02   -7.55   -0.03   -7.33  -39.74  -77.26
   2.515  -40.86  -81.13   -0.02   -7.63   -0.02   -7.45  -40.21  -77.76
   2.538  -40.48  -85.83   -0.02   -7.74   -0.02   -7.56  -40.64  -77.07
   2.560  -41.54  -90.99   -0.02   -7.87   -0.02   -7.64  -40.89  -75.62
   2.583  -43.25  -86.43   -0.02   -7.98   -0.03   -7.79  -40.96  -73.81
   2.605  -43.05  -78.98   -0.02   -8.10   -0.03   -7.87  -41.39  -74.13
   2.628  -42.62  -82.72   -0.02   -8.18   -0.02   -7.96  -41.97  -71.40
   2.650  -43.90  -89.04   -0.02   -8.29   -0.03   -8.09  -42.39  -69.22
   2.673  -45.88  -83.61   -0.02   -8.39   -0.03   -8.17  -42.65  -67.15
   2.695  -45.45  -73.67   -0.02   -8.49   -0.03   -8.29  -43.10  -68.63
   2.718  -44.79  -76.73   -0.02   -8.61   -0.02   -8.40  -43.63  -68.14
   2.740  -46.24  -83.97   -0.02   -8.72   -0.03   -8.52  -43.91  -66.76
   2.763  -48.60  -76.47   -0.02   -8.83   -0.03   -8.62  -44.09  -62.94
   2.785  -48.16  -61.15   -0.02   -8.93   -0.03   -8.71  -44.17  -61.43
   2.808  -47.43  -66.54   -0.02   -9.04   -0.03   -8.82  -44.45  -59.73
   2.830  -49.11  -72.38   -0.02   -9.16   -0.02   -8.91  -45.20  -57.72
   2.853  -52.29  -56.49   -0.02   -9.25   -0.03   -9.06  -45.82  -56.60
   2.875  -50.31  -37.21   -0.02   -9.36   -0.03   -9.14  -46.35  -54.26
   2.898  -48.76  -43.54   -0.02   -9.48   -0.02   -9.26  -46.54  -53.28
   2.920  -50.07  -53.40   -0.03   -9.55   -0.03   -9.35  -46.97  -52.41
   2.943  -53.24  -39.71   -0.03   -9.68   -0.03   -9.46  -47.46  -50.72
   2.965  -51.26  -20.83   -0.03   -9.78   -0.03   -9.57  -47.44  -46.46
   2.988  -49.47  -27.87   -0.03   -9.88   -0.03   -9.65  -47.74  -42.30
   3.010  -51.18  -35.14   -0.03   -9.98   -0.03   -9.78  -48.19  -37.06
   3.033  -53.11  -18.56   -0.03  -10.07   -0.03   -9.88  -48.31  -33.08
   3.055  -46.68   13.45   -0.03  -10.17   -0.03   -9.98  -48.43   18.21
   3.078  -46.34    9.65   -0.03  -10.26   -0.03  -10.07  -48.05   23.08
   3.100  -47.25   14.12   -0.03  -10.37   -0.03  -10.17  -47.43   28.44
   3.123  -46.70   28.27   -0.03  -10.46   -0.03  -10.27  -46.55   29.41
   3.145  -44.82   30.95   -0.03  -10.55   -0.03  -10.36  -46.02   29.63
   3.168  -44.39   27.43   -0.03  -10.65   -0.03  -10.45  -45.55   31.63
   3.190  -45.05   30.10   -0.03  -10.74   -0.03  -10.55  -45.03   35.70
   3.213  -44.33   40.47   -0.03  -10.85   -0.03  -10.65  -44.55   38.55
   3.235  -42.94   42.69   -0.03  -10.98   -0.03  -10.79  -43.96   41.35
   3.258  -42.41   39.43   -0.03  -11.07   -0.03  -10.89  -43.66   43.68
   3.280  -42.63   42.03   -0.03  -11.17   -0.03  -11.01  -43.33   46.84
   3.303  -42.00   47.93   -0.03  -11.30   -0.02  -11.10  -42.86   48.15
   3.325  -40.78   49.14   -0.03  -11.40   -0.02  -11.21  -42.48   50.18
   3.348  -40.27   46.26   -0.03  -11.49   -0.02  -11.34  -41.93   52.37
   3.370  -40.21   47.33   -0.03  -11.62   -0.02  -11.44  -41.24   53.65
   3.393  -39.79   50.85   -0.03  -11.72   -0.03  -11.55  -40.47   55.20
   3.415  -38.90   50.91   -0.03  -11.84   -0.03  -11.65  -39.94   55.91
   3.438  -38.48   48.43   -0.03  -11.97   -0.03  -11.78  -39.71   57.51
   3.460  -38.63   49.41   -0.03  -12.06   -0.03  -11.90  -39.19   59.37
   3.483  -38.27   52.92   -0.03  -12.19   -0.02  -12.00  -38.76   60.31
   3.505  -37.40   53.91   -0.03  -12.28   -0.02  -12.12  -38.29   60.04
   3.528  -36.82   51.07   -0.04  -12.39   -0.03  -12.23  -37.92   59.83
   3.550  -36.81   49.66   -0.04  -12.51   -0.02  -12.33  -37.46   60.63
   3.573  -36.78   52.49   -0.04  -12.61   -0.03  -12.47  -36.92   61.19
   3.595  -36.08   54.93   -0.04  -12.73   -0.03  -12.57  -36.44   61.81
   3.618  -35.46   53.50   -0.04  -12.84   -0.03  -12.70  -36.02   62.03
   3.640  -35.31   52.27   -0.04  -12.97   -0.03  -12.82  -35.64   62.42
   3.663  -35.20   53.62   -0.04  -13.09   -0.03  -12.94  -35.26   62.65
   3.685  -34.67   55.36   -0.04  -13.24   -0.03  -13.09  -34.85   62.90
   3.708  -34.05   54.79   -0.05  -13.34   -0.04  -13.22  -34.47   62.45
   3.730  -33.78   53.80   -0.05  -13.47   -0.04  -13.33  -34.03   62.24
   3.753  -33.54   54.88   -0.05  -13.62   -0.04  -13.48  -33.58   62.43
   3.775  -32.93   56.07   -0.05  -13.75   -0.04  -13.62  -33.16   62.45
   3.798  -32.26   55.03   -0.05  -13.89   -0.05  -13.77  -32.74   62.39
   3.820  -31.92   53.11   -0.06  -14.05   -0.05  -13.92  -32.34   62.64
   3.843  -31.69   53.50   -0.06  -14.19   -0.06  -14.07  -31.85   62.76
   3.865  -31.14   54.45   -0.07  -14.36   -0.06  -14.23  -31.39   62.31
   3.888  -30.44   53.56   -0.08  -14.53   -0.07  -14.40  -30.90   61.75
   3.910  -29.97   51.43   -0.09  -14.68   -0.08  -14.57  -30.40   61.22
   3.933  -29.60   50.52   -0.10  -14.89   -0.09  -14.75  -29.76   60.78
   3.955  -29.06   50.74   -0.11  -15.08   -0.10  -14.94  -29.12   60.01
   3.978  -28.24   49.68   -0.13  -15.29   -0.12  -15.16  -28.42   58.68
   4.000  -27.52   47.02   -0.15  -15.49   -0.14  -15.37  -27.73   57.14
   4.023  -26.86   44.32   -0.18  -15.73   -0.17  -15.60  -27.02   54.95
   4.045  -26.12   41.89   -0.21  -15.97   -0.20  -15.84  -26.20   52.26
   4.068  -25.20   38.10   -0.27  -16.20   -0.25  -16.06  -25.28   48.54
   4.090  -24.27   32.24   -0.33  -16.40   -0.32  -16.24  -24.33   43.12
   4.113  -23.42   24.61   -0.43  -16.48   -0.42  -16.34  -23.40   35.83
   4.135  -22.71   15.39   -0.54  -16.24   -0.53  -16.13  -22.61   26.60
   4.158  -22.22    3.56   -0.65  -15.65   -0.64  -15.51  -22.10   15.00
   4.180  -22.23  -10.07   -0.70  -14.63   -0.69  -14.50  -22.07    1.71
   4.203  -22.85  -23.91   -0.66  -13.58   -0.64  -13.48  -22.66  -11.70
   4.225  -24.06  -36.13   -0.55  -12.93   -0.54  -12.82  -23.77  -23.11
   4.248  -25.68  -45.26   -0.44  -12.70   -0.42  -12.59  -25.15  -31.86
   4.270  -27.37  -51.01   -0.34  -12.74   -0.33  -12.65  -26.64  -37.98
   4.293  -28.95  -54.51   -0.27  -12.94   -0.25  -12.82  -28.18  -42.04
   4.315  -30.56  -57.45   -0.22  -13.18   -0.20  -13.10  -29.73  -44.14
   4.338  -32.35  -58.83   -0.18  -13.42   -0.16  -13.34  -31.25  -44.65
   4.360  -34.11  -57.11   -0.15  -13.67   -0.13  -13.57  -32.70  -43.65
   4.383  -35.52  -53.92   -0.13  -13.91   -0.11  -13.82  -34.01  -41.93
   4.405  -36.95  -51.30   -0.11  -14.12   -0.10  -14.01  -35.29  -39.49
   4.428  -38.63  -46.99   -0.10  -14.31   -0.09  -14.22  -36.60  -35.35
   4.450  -40.05  -38.39   -0.09  -14.50   -0.08  -14.41  -37.60  -28.77
   4.473  -40.93  -28.85   -0.08  -14.67   -0.07  -14.57  -38.39  -21.72
   4.495  -41.76  -21.44   -0.08  -14.83   -0.06  -14.75  -39.02  -14.66
   4.518  -42.60   -8.94   -0.07  -14.99   -0.06  -14.89  -39.55   -6.59
   4.540  -42.41    5.01   -0.07  -15.14   -0.06  -15.05  -39.92    2.24
   4.563  -41.75   12.88   -0.07  -15.27   -0.05  -15.19  -39.68   10.99
   4.585  -41.24   18.85   -0.06  -15.41   -0.05  -15.32  -39.10   17.01
   4.608  -40.75   26.60   -0.06  -15.55   -0.05  -15.46  -38.55   20.52
   4.630  -39.75   33.07   -0.06  -15.69   -0.04  -15.60  -38.27   22.75
   4.653  -38.85   33.71   -0.05  -15.81   -0.04  -15.72  -38.00   25.01
   4.675  -38.56   33.55   -0.05  -15.94   -0.04  -15.87  -37.73   28.17
   4.698  -38.57   36.61   -0.05  -16.07   -0.04  -15.99  -37.54   30.80
   4.720  -38.30   40.65   -0.05  -16.20   -0.04  -16.12  -37.23   33.75
   4.743  -37.78   42.90   -0.05  -16.33   -0.03  -16.24  -37.08   36.58
   4.765  -37.35   44.98   -0.05  -16.44   -0.04  -16.37  -36.85   38.89
   4.788  -36.91   47.15   -0.05  -16.57   -0.03  -16.49  -36.56   41.22
   4.810  -36.40   48.29   -0.05  -16.68   -0.03  -16.60  -36.17   43.22
   4.833  -35.98   48.67   -0.04  -16.82   -0.03  -16.72  -35.79   44.41
   4.855  -35.76   49.46   -0.04  -16.95   -0.03  -16.85  -35.42   45.57
   4.878  -35.47   51.61   -0.04  -17.03   -0.03  -16.95  -35.12   46.72
   4.900  -34.92   53.03   -0.04  -17.19   -0.03  -17.07  -34.84   48.09
   4.923  -34.47   52.60   -0.04  -17.29   -0.03  -17.19  -34.53   49.31
   4.945  -34.28   52.06   -0.05  -17.39   -0.03  -17.31  -34.20   49.95
   4.968  -34.18   53.19   -0.04  -17.51   -0.02  -17.42  -33.98   50.45
   4.990  -33.82   54.32   -0.04  -17.62   -0.02  -17.53  -33.73   50.64
   5.013  -33.37   54.75   -0.04  -17.73   -0.02  -17.68  -33.52   51.57
   5.035  -33.12   54.16   -0.04  -17.84   -0.03  -17.77  -33.26   52.25
   5.058  -32.95   54.56   -0.04  -17.93   -0.02  -17.89  -32.94   52.86
   5.080  -32.69   55.40   -0.04  -18.06   -0.03  -17.99  -32.64   53.22
   5.103  -32.40   55.45   -0.04  -18.19   -0.03  -18.12  -32.48   53.23
   5.125  -32.18   55.05   -0.04  -18.29   -0.03  -18.21  -32.33   53.73
   5.148  -32.08   55.45   -0.04  -18.40   -0.03  -18.34  -32.13   54.46
   5.170  -31.79   56.34   -0.04  -18.51   -0.03  -18.46  -31.89   55.00
   5.193  -31.50   56.12   -0.04  -18.62   -0.03  -18.58  -31.63   54.98
   5.215  -31.31   55.51   -0.04  -18.70   -0.03  -18.67  -31.43   55.07
   5.238  -31.23   56.01   -0.04  -18.85   -0.02  -18.82  -31.20   55.34
   5.260  -30.94   57.40   -0.04  -18.94   -0.03  -18.93  -30.99   55.86
   5.283  -30.54   57.26   -0.05  -19.08   -0.02  -19.03  -30.77   56.18
   5.305  -30.33   56.28   -0.05  -19.16   -0.03  -19.15  -30.56   56.21
   5.328  -30.29   56.04   -0.05  -19.31   -0.03  -19.27  -30.39   56.37
   5.350  -30.16   56.90   -0.05  -19.41   -0.03  -19.40  -30.20   56.17
   5.373  -29.90   57.26   -0.05  -19.51   -0.03  -19.49  -30.06   56.23
   5.395  -29.62   57.00   -0.05  -19.62   -0.03  -19.59  -29.85   56.57
   5.418  -29.47   56.77   -0.05  -19.76   -0.03  -19.72  -29.57   56.86
   5.440  -29.29   56.96   -0.05  -19.87   -0.03  -19.84  -29.34   56.84
   5.463  -29.05   57.13   -0.05  -19.96   -0.03  -19.95  -29.16   56.60
   5.485  -28.88   56.78   -0.05  -20.10   -0.03  -20.08  -29.03   56.86
   5.508  -28.78   56.62   -0.05  -20.22   -0.03  -20.21  -28.88   57.20
   5.530  -28.60   57.10   -0.05  -20.33   -0.03  -20.32  -28.67   57.24
   5.553  -28.31   57.34   -0.05  -20.44   -0.03  -20.45  -28.46   57.13
   5.575  -28.07   56.82   -0.06  -20.56   -0.03  -20.55  -28.27   56.93
   5.598  -27.94   56.32   -0.06  -20.68   -0.03  -20.68  -28.08   56.94
   5.620  -27.82   56.76   -0.06  -20.80   -0.03  -20.81  -27.90   57.02
   5.643  -27.56   57.31   -0.06  -20.93   -0.04  -20.93  -27.68   57.36
   5.665  -27.29   56.84   -0.06  -21.04   -0.03  -21.05  -27.46   57.30
   5.688  -27.14   56.12   -0.06  -21.16   -0.04  -21.20  -27.27   57.21
   5.710  -27.06   56.08   -0.06  -21.28   -0.04  -21.34  -27.13   57.19
   5.733  -26.86   56.59   -0.06  -21.44   -0.04  -21.50  -26.97   57.08
   5.755  -26.61   56.30   -0.06  -21.56   -0.04  -21.64  -26.75   56.97
   5.778  -26.38   55.85   -0.07  -21.69   -0.04  -21.76  -26.54   57.00
   5.800  -26.22   55.77   -0.07  -21.82   -0.05  -21.88  -26.30   56.91
   5.823  -26.02   55.97   -0.07  -21.96   -0.05  -22.01  -26.10   56.66
   5.845  -25.75   55.60   -0.08  -22.10   -0.05  -22.18  -25.90   56.58
   5.868  -25.58   55.09   -0.08  -22.27   -0.05  -22.32  -25.73   56.51
   5.890  -25.44   55.07   -0.08  -22.38   -0.06  -22.47  -25.54   56.42
   5.913  -25.20   55.15   -0.08  -22.53   -0.06  -22.61  -25.32   56.25
   5.935  -24.91   54.51   -0.09  -22.68   -0.07  -22.78  -25.11   55.82
   5.958  -24.74   53.60   -0.09  -22.82   -0.07  -22.93  -24.91   55.42
   5.980  -24.61   53.44   -0.09  -22.96   -0.07  -23.06  -24.70   55.25
   6.003  -24.37   53.55   -0.10  -23.12   -0.08  -23.29  -24.47   55.06
   6.025  -24.09   53.22   -0.10  -23.24   -0.09  -23.41  -24.22   55.09
   6.048  -23.86   52.59   -0.11  -23.45   -0.09  -23.61  -23.98   54.64
   6.070  -23.71   52.04   -0.12  -23.57   -0.10  -23.76  -23.79   54.26
   6.093  -23.50   51.86   -0.12  -23.73   -0.10  -23.88  -23.59   54.03
   6.115  -23.24   51.51   -0.13  -23.89   -0.11  -24.10  -23.36   53.78
   6.138  -23.00   50.86   -0.14  -24.07   -0.12  -24.27  -23.11   53.42
   6.160  -22.76   50.46   -0.15  -24.27   -0.13  -24.49  -22.84   53.01
   6.183  -22.52   50.00   -0.16  -24.43   -0.15  -24.70  -22.59   52.35
   6.205  -22.23   49.43   -0.17  -24.62   -0.15  -24.91  -22.32   51.82
   6.228  -21.96   48.62   -0.18  -24.81   -0.17  -25.12  -22.06   51.30
   6.250  -21.75   47.96   -0.19  -25.02   -0.19  -25.30  -21.77   50.89
   6.273  -21.46   47.45   -0.20  -25.22   -0.20  -25.58  -21.50   50.26
