!  American Technical Ceramics  Date:   4/26/2005
!  One Norden Lane
!  Huntington Station,  NY.   11746-2102
!  Tel:  (631) 622-4700               Fax:  (631) 622-4748
!  Part Number  600S2R2         Mounting Orientation: Horizontal
!  Description: Ultra Low ESR Microwave capacitors
!  Application: Coupling, Bypass, Tuning, DC Block
!               Filters, Matching
# GHZ S DB R 50
! Freq   |S11|   S11 Ph  |S21|   S21 Ph  |S12|   S12 Ph  |S22|   S22 Ph
   0.000   0.00    0.00	  -999.00  90.00  -999.00  90.00    0.00    0.00
   0.400   -1.17  -29.64   -6.43   59.76   -6.44   59.74   -1.15  -30.01
   0.465   -1.50  -33.56   -5.46   55.78   -5.47   55.71   -1.50  -34.08
   0.530   -1.92  -37.12   -4.67   52.22   -4.68   51.54   -1.88  -37.75
   0.595   -2.28  -40.88   -4.06   48.79   -4.06   49.04   -2.27  -39.99
   0.660   -2.61  -43.63   -3.50   45.54   -3.54   45.94   -2.67  -43.73
   0.725   -3.06  -46.34   -3.09   42.60   -3.10   42.43   -3.03  -47.39
   0.790   -3.38  -49.20   -2.70   39.91   -2.73   39.56   -3.44  -50.16
   0.855   -3.81  -52.13   -2.43   37.50   -2.44   37.46   -3.86  -51.82
   0.920   -4.21  -54.02   -2.15   35.36   -2.18   35.41   -4.18  -54.15
   0.985   -4.54  -56.23   -1.92   32.96   -1.93   33.45   -4.61  -56.31
   1.050   -4.92  -57.85   -1.72   31.03   -1.73   30.99   -4.97  -59.12
   1.115   -5.33  -59.96   -1.56   29.36   -1.59   29.02   -5.34  -60.77
   1.180   -5.65  -62.11   -1.41   27.47   -1.42   27.57   -5.71  -61.83
   1.245   -6.03  -63.27   -1.29   26.13   -1.30   26.39   -6.02  -63.33
   1.310   -6.36  -64.72   -1.17   24.38   -1.18   24.59   -6.40  -65.60
   1.375   -6.69  -66.28   -1.07   23.05   -1.08   23.02   -6.74  -66.90
   1.440   -7.03  -67.81   -0.98   21.71   -1.01   21.53   -7.06  -68.19
   1.505   -7.37  -69.17   -0.91   20.59   -0.91   20.62   -7.38  -68.89
   1.570   -7.68  -70.12   -0.84   19.19   -0.85   19.49   -7.72  -70.62
   1.635   -7.96  -70.98   -0.76   18.14   -0.77   18.32   -8.01  -71.88
   1.700   -8.31  -72.64   -0.73   17.11   -0.73   16.94   -8.34  -72.77
   1.765   -8.60  -73.69   -0.66   16.08   -0.68   16.01   -8.63  -73.69
   1.830   -8.89  -74.66   -0.63   15.10   -0.64   15.22   -8.92  -74.37
   1.895   -9.14  -75.36   -0.57   14.16   -0.57   14.37   -9.18  -75.56
   1.960   -9.44  -76.16   -0.54   13.20   -0.56   13.34   -9.51  -76.63
   2.025   -9.72  -77.57   -0.51   12.38   -0.51   12.31   -9.78  -77.22
   2.090   -9.99  -78.58   -0.47   11.59   -0.49   11.54  -10.01  -77.95
   2.155  -10.25  -78.96   -0.44   10.72   -0.44   10.95  -10.28  -78.82
   2.220  -10.49  -79.53   -0.42    9.95   -0.42   10.16  -10.53  -79.44
   2.285  -10.75  -80.77   -0.39    9.17   -0.39    9.24  -10.82  -80.28
   2.350  -11.04  -81.61   -0.37    8.54   -0.39    8.47  -11.06  -80.77
   2.415  -11.27  -82.30   -0.36    7.81   -0.35    7.84  -11.32  -81.36
   2.480  -11.50  -82.70   -0.33    7.08   -0.33    7.32  -11.55  -82.25
   2.545  -11.74  -83.35   -0.32    6.45   -0.32    6.63  -11.79  -82.81
   2.610  -11.96  -84.31   -0.31    5.76   -0.30    5.81  -12.02  -83.14
   2.675  -12.20  -85.24   -0.28    5.20   -0.30    5.14  -12.25  -83.60
   2.740  -12.42  -85.42   -0.28    4.58   -0.29    4.75  -12.48  -84.31
   2.805  -12.61  -85.90   -0.27    3.98   -0.27    4.19  -12.71  -84.79
   2.870  -12.82  -86.75   -0.25    3.42   -0.26    3.54  -12.92  -85.08
   2.935  -13.05  -87.73   -0.24    2.90   -0.26    2.93  -13.10  -85.40
   3.000  -13.25  -88.35   -0.23    2.37   -0.23    2.35  -13.31  -85.84
   3.065  -13.45  -88.49   -0.20    1.92   -0.22    2.11  -13.44  -86.63
   3.130  -13.63  -88.97   -0.20    1.44   -0.19    1.64  -13.66  -86.95
   3.195  -13.85  -89.59   -0.19    0.90   -0.20    1.00  -13.83  -87.24
   3.260  -14.03  -90.08   -0.19    0.47   -0.20    0.48  -14.05  -87.61
   3.325  -14.22  -90.45   -0.18   -0.01   -0.18    0.05  -14.20  -88.16
   3.390  -14.36  -90.73   -0.17   -0.46   -0.17   -0.30  -14.42  -88.64
   3.455  -14.57  -91.23   -0.16   -0.97   -0.16   -0.77  -14.59  -89.10
   3.520  -14.77  -92.25   -0.15   -1.39   -0.15   -1.36  -14.77  -89.09
   3.585  -14.98  -92.37   -0.15   -1.86   -0.15   -1.82  -14.95  -89.82
   3.650  -15.11  -92.61   -0.14   -2.29   -0.14   -2.20  -15.16  -90.24
   3.715  -15.31  -92.96   -0.14   -2.78   -0.14   -2.56  -15.31  -90.72
   3.780  -15.48  -93.70   -0.13   -3.17   -0.13   -3.03  -15.49  -90.76
   3.845  -15.67  -94.05   -0.14   -3.57   -0.13   -3.53  -15.64  -91.28
   3.910  -15.83  -94.53   -0.12   -3.99   -0.12   -3.96  -15.81  -91.79
   3.975  -15.98  -94.68   -0.13   -4.40   -0.12   -4.26  -16.02  -92.43
   4.040  -16.18  -95.36   -0.12   -4.84   -0.12   -4.66  -16.17  -92.82
   4.105  -16.36  -95.94   -0.13   -5.21   -0.12   -5.08  -16.36  -93.05
   4.170  -16.57  -96.39   -0.11   -5.57   -0.11   -5.56  -16.53  -93.48
   4.235  -16.74  -96.29   -0.11   -5.93   -0.11   -5.86  -16.79  -94.17
   4.300  -16.91  -96.70   -0.10   -6.39   -0.10   -6.24  -16.96  -94.16
   4.365  -17.10  -97.14   -0.10   -6.69   -0.09   -6.56  -17.14  -93.99
   4.430  -17.28  -97.37   -0.09   -7.11   -0.09   -7.07  -17.26  -94.31
   4.495  -17.40  -97.68   -0.09   -7.51   -0.09   -7.48  -17.44  -94.64
   4.560  -17.51  -97.98   -0.09   -7.91   -0.09   -7.84  -17.64  -95.70
   4.625  -17.73  -99.24   -0.09   -8.13   -0.09   -8.03  -17.92  -95.51
   4.690  -18.01  -99.41   -0.08   -8.58   -0.07   -8.48  -18.01  -95.04
   4.755  -18.18  -99.45   -0.07   -8.89   -0.07   -8.88  -18.15  -95.08
   4.820  -18.33  -99.60   -0.07   -9.32   -0.07   -9.31  -18.35  -95.78
   4.885  -18.53  -99.87   -0.06   -9.69   -0.06   -9.54  -18.47  -95.93
   4.950  -18.67 -100.14   -0.07   -9.99   -0.06   -9.92  -18.68  -96.09
   5.015  -18.93 -100.98   -0.06  -10.41   -0.06  -10.27  -18.78  -95.89
   5.080  -19.06 -100.89   -0.07  -10.75   -0.06  -10.73  -18.99  -96.71
   5.145  -19.23 -101.23   -0.06  -11.08   -0.06  -11.03  -19.15  -96.67
   5.210  -19.42 -101.43   -0.06  -11.44   -0.06  -11.35  -19.37  -97.10
   5.275  -19.66 -102.07   -0.05  -11.79   -0.04  -11.67  -19.50  -97.11
   5.340  -19.80 -102.46   -0.05  -12.09   -0.06  -12.05  -19.73  -97.12
   5.405  -20.05 -102.63   -0.05  -12.51   -0.06  -12.44  -19.88  -97.61
   5.470  -20.16 -102.79   -0.05  -12.80   -0.05  -12.80  -20.13  -97.88
   5.535  -20.43 -103.42   -0.05  -13.17   -0.04  -13.02  -20.24  -97.86
   5.600  -20.60 -103.96   -0.05  -13.50   -0.05  -13.45  -20.46  -97.75
   5.665  -20.86 -104.22   -0.04  -13.84   -0.04  -13.74  -20.62  -98.17
   5.730  -21.00 -104.54   -0.04  -14.14   -0.05  -14.15  -20.91  -98.46
   5.795  -21.25 -105.00   -0.04  -14.56   -0.03  -14.45  -21.08  -98.61
   5.860  -21.50 -105.49   -0.03  -14.83   -0.03  -14.75  -21.30  -98.66
   5.925  -21.80 -105.94   -0.04  -15.18   -0.04  -15.11  -21.49  -98.56
   5.990  -22.00 -106.42   -0.03  -15.56   -0.04  -15.53  -21.76  -98.43
   6.055  -22.26 -105.80   -0.04  -15.86   -0.04  -15.83  -21.95  -99.02
   6.120  -22.45 -106.64   -0.04  -16.21   -0.05  -16.13  -22.23  -98.64
   6.185  -22.82 -107.06   -0.04  -16.52   -0.04  -16.41  -22.41  -98.34
   6.250  -23.02 -106.95   -0.04  -16.82   -0.05  -16.77  -22.70  -98.39
   6.315  -23.26 -107.29   -0.04  -17.13   -0.05  -17.09  -22.91  -98.07
   6.380  -23.43 -107.47   -0.04  -17.45   -0.04  -17.38  -23.18  -98.13
   6.445  -23.76 -107.87   -0.04  -17.73   -0.03  -17.64  -23.34  -98.07
   6.510  -24.00 -108.93   -0.04  -18.09   -0.04  -18.00  -23.62  -97.76
   6.575  -24.27 -109.01   -0.04  -18.35   -0.04  -18.30  -23.90  -97.71
   6.640  -24.54 -109.55   -0.04  -18.68   -0.05  -18.62  -24.16  -97.83
   6.705  -24.87 -110.32   -0.04  -19.01   -0.04  -18.91  -24.41  -97.62
   6.770  -25.14 -111.10   -0.03  -19.32   -0.04  -19.20  -24.69  -97.45
   6.835  -25.62 -111.93   -0.04  -19.64   -0.03  -19.50  -24.84  -97.15
   6.900  -25.85 -112.84   -0.04  -19.99   -0.04  -19.90  -25.29  -97.61
   6.965  -26.30 -113.85   -0.04  -20.26   -0.04  -20.14  -25.58  -98.26
   7.030  -26.91 -115.06   -0.05  -20.52   -0.04  -20.45  -25.91  -98.78
   7.095  -27.51 -114.85   -0.05  -20.79   -0.04  -20.68  -26.53  -98.63
   7.160  -27.92 -113.95   -0.03  -21.05   -0.03  -20.97  -27.06  -98.05
   7.225  -28.30 -113.50   -0.03  -21.40   -0.02  -21.30  -27.49  -96.89
   7.290  -28.59 -113.61   -0.02  -21.70   -0.02  -21.68  -28.07  -95.81
   7.355  -29.14 -114.53   -0.02  -22.02   -0.02  -21.93  -28.38  -94.69
   7.420  -29.64 -116.38   -0.02  -22.39   -0.02  -22.23  -28.91  -93.10
   7.485  -30.10 -115.86   -0.01  -22.71   -0.01  -22.64  -29.53  -92.71
   7.550  -30.69 -116.81   -0.02  -23.01   -0.02  -22.95  -30.03  -91.56
   7.615  -31.32 -118.63   -0.02  -23.31   -0.02  -23.21  -30.57  -88.92
   7.680  -32.03 -119.74   -0.02  -23.63   -0.01  -23.56  -31.10  -87.32
   7.745  -32.81 -120.81   -0.01  -23.95   -0.02  -23.89  -31.71  -85.30
   7.810  -33.50 -122.46   -0.02  -24.27   -0.02  -24.16  -32.39  -81.85
   7.875  -34.43 -124.05   -0.01  -24.52   -0.01  -24.48  -32.97  -79.59
   7.940  -35.66 -128.51   -0.01  -24.90    0.00  -24.80  -33.59  -76.04
   8.005  -36.96 -130.53   -0.02  -25.19   -0.01  -25.10  -34.28  -71.91
   8.070  -38.33 -132.83   -0.01  -25.49   -0.02  -25.44  -34.92  -67.84
   8.135  -40.06 -138.61   -0.02  -25.83   -0.01  -25.80  -35.64  -62.25
   8.200  -42.03 -145.57   -0.02  -26.14   -0.02  -26.10  -36.30  -55.90
   8.265  -44.80 -155.89   -0.02  -26.45   -0.01  -26.41  -36.75  -47.36
   8.330  -46.81 -144.49   -0.02  -26.76   -0.02  -26.73  -38.36  -40.79
   8.395  -52.25 -162.71   -0.02  -27.07   -0.02  -27.03  -38.41  -29.79
   8.460  -53.69  125.61   -0.02  -27.35   -0.02  -27.29  -38.06  -19.44
   8.525  -48.64   84.62   -0.02  -27.70   -0.01  -27.63  -37.51  -11.20
   8.590  -44.26   70.40   -0.02  -28.04   -0.02  -27.91  -36.87   -4.14
   8.655  -41.44   61.13   -0.02  -28.35   -0.02  -28.30  -35.90    0.89
   8.720  -39.53   56.09   -0.03  -28.70   -0.03  -28.63  -35.44    4.95
   8.785  -38.58   51.05   -0.03  -29.04   -0.03  -28.96  -35.07    8.31
   8.850  -37.76   49.75   -0.04  -29.29   -0.04  -29.27  -35.01   13.63
   8.915  -37.15   53.01   -0.04  -29.64   -0.04  -29.52  -34.42   24.25
   8.980  -36.09   57.59   -0.05  -29.93   -0.05  -29.86  -32.99   29.96
   9.045  -34.65   59.86   -0.04  -30.18   -0.05  -30.11  -31.56   30.59
   9.110  -33.28   59.45   -0.04  -30.46   -0.04  -30.40  -30.61   29.36
   9.175  -32.49   56.94   -0.04  -30.80   -0.05  -30.69  -30.05   27.83
   9.240  -31.69   56.41   -0.04  -31.14   -0.05  -31.00  -29.80   27.26
   9.305  -31.01   56.93   -0.04  -31.40   -0.04  -31.32  -29.66   28.07
   9.370  -30.34   56.76   -0.04  -31.67   -0.05  -31.58  -29.34   30.79
   9.435  -29.62   56.84   -0.03  -32.00   -0.04  -31.91  -28.87   33.00
   9.500  -28.88   56.84   -0.03  -32.31   -0.03  -32.26  -28.25   35.00
   9.565  -28.11   56.94   -0.03  -32.67   -0.03  -32.63  -27.72   35.64
   9.630  -27.45   55.64   -0.02  -33.03   -0.02  -32.96  -27.17   36.10
   9.695  -26.85   54.21   -0.02  -33.45   -0.02  -33.34  -26.64   37.07
   9.760  -26.31   53.64   -0.02  -33.80   -0.01  -33.77  -26.07   37.60
   9.825  -25.76   53.19   -0.01  -34.24   -0.02  -34.15  -25.50   38.14
   9.890  -25.19   52.19   -0.01  -34.68   -0.01  -34.60  -25.01   38.43
   9.955  -24.62   51.98   -0.02  -35.16   -0.02  -35.15  -24.53   37.68
  10.020  -24.15   50.53   -0.02  -35.64   -0.03  -35.50  -23.96   38.46
  10.085  -23.52   49.79   -0.03  -36.04   -0.04  -35.99  -23.53   38.42
  10.150  -22.98   49.00   -0.05  -36.60   -0.06  -36.50  -22.97   37.48
  10.215  -22.42   48.06   -0.05  -37.07   -0.06  -36.97  -22.41   37.92
  10.280  -21.84   46.63   -0.07  -37.57   -0.07  -37.50  -21.88   37.69
  10.345  -21.27   45.57   -0.09  -38.15   -0.09  -38.02  -21.26   37.34
  10.410  -20.65   44.21   -0.11  -38.72   -0.12  -38.63  -20.61   36.83
  10.475  -19.91   43.10   -0.13  -39.35   -0.14  -39.32  -20.03   35.52
  10.540  -19.25   41.53   -0.17  -40.12   -0.17  -40.06  -19.24   34.32
  10.605  -18.44   39.15   -0.21  -40.95   -0.22  -40.73  -18.50   33.49
  10.670  -17.56   36.95   -0.29  -41.67   -0.30  -41.51  -17.73   31.88
  10.735  -16.69   33.83   -0.37  -42.72   -0.38  -42.56  -16.73   29.46
  10.800  -15.55   30.21   -0.50  -43.77   -0.52  -43.74  -15.80   26.07
  10.865  -14.42   24.96   -0.68  -45.08   -0.70  -44.97  -14.60   22.11
  10.930  -13.20   17.60   -1.00  -46.48   -1.00  -46.10  -13.32   16.73
  10.995  -11.82    8.30   -1.49  -47.48   -1.50  -47.21  -12.03    7.60
  11.060  -10.57   -5.44   -2.27  -46.84   -2.27  -46.48  -10.84   -4.90
  11.125   -9.89  -23.43   -3.10  -42.06   -3.04  -41.90  -10.06  -21.91
  11.190  -10.04  -43.78   -3.09  -33.40   -3.08  -33.52  -10.24  -40.72
  11.255  -11.30  -62.44   -2.31  -28.22   -2.28  -28.40  -11.33  -57.45
  11.320  -13.01  -76.54   -1.50  -27.44   -1.49  -27.47  -13.00  -69.97
  11.385  -14.84  -85.92   -0.98  -28.53   -0.99  -28.50  -14.78  -79.23
  11.450  -16.66  -93.23   -0.66  -30.00   -0.67  -29.88  -16.55  -84.81
  11.515  -18.42  -98.83   -0.46  -31.35   -0.47  -31.31  -18.13  -88.25
  11.580  -20.01 -102.65   -0.33  -32.53   -0.34  -32.39  -19.64  -91.08
  11.645  -21.53 -105.73   -0.25  -33.55   -0.25  -33.45  -21.08  -92.34
  11.710  -22.99 -108.24   -0.19  -34.50   -0.19  -34.35  -22.51  -93.23
  11.775  -24.49 -110.14   -0.14  -35.29   -0.16  -35.20  -23.68  -93.58
  11.840  -25.90 -112.48   -0.11  -36.02   -0.12  -35.96  -25.03  -92.88
  11.905  -27.44 -113.63   -0.08  -36.66   -0.09  -36.54  -26.16  -91.40
  11.970  -28.83 -114.71   -0.06  -37.26   -0.07  -37.15  -27.45  -89.70
  12.035  -30.46 -115.30   -0.05  -37.83   -0.06  -37.73  -28.60  -87.40
  12.100  -32.09 -116.13   -0.04  -38.37   -0.05  -38.25  -29.70  -83.77
  12.165  -33.90 -116.31   -0.03  -38.88   -0.04  -38.77  -30.72  -80.48
  12.230  -35.73 -116.10   -0.03  -39.33   -0.04  -39.34  -31.87  -76.22
  12.295  -38.05 -114.98   -0.02  -39.79   -0.03  -39.70  -32.67  -70.93
  12.360  -40.70 -115.36   -0.02  -40.22   -0.03  -40.10  -33.59  -64.59
  12.425  -44.16 -111.80   -0.02  -40.60   -0.03  -40.57  -34.39  -58.77
  12.490  -49.68 -104.20   -0.02  -41.03   -0.03  -40.91  -34.89  -51.56
  12.555  -59.99  -66.31   -0.01  -41.40   -0.01  -41.30  -35.52  -44.39
  12.620  -53.35   40.37   -0.01  -41.79   -0.01  -41.66  -35.98  -36.26
  12.685  -46.49   46.89   -0.01  -42.18    0.00  -42.09  -36.08  -26.89
  12.750  -42.78   52.67   -0.01  -42.54   -0.01  -42.32  -36.09  -18.35
  12.815  -40.21   54.97    0.00  -42.88   -0.01  -42.75  -35.73  -11.31
  12.880  -38.09   53.12   -0.01  -43.29   -0.02  -43.14  -35.19   -3.30
  12.945  -36.37   53.27   -0.01  -43.62   -0.01  -43.51  -34.67    2.03
  13.010  -35.22   51.80   -0.01  -43.94    0.00  -43.80  -33.95    7.60
  13.075  -33.98   50.08   -0.01  -44.35   -0.01  -44.20  -33.34   12.39
  13.140  -33.07   48.66   -0.01  -44.68   -0.01  -44.49  -32.75   15.03
  13.205  -32.33   48.40   -0.01  -45.00    0.00  -44.78  -32.03   16.25
  13.270  -31.69   45.54    0.00  -45.35   -0.01  -45.22  -31.39   19.27
  13.335  -31.21   45.14    0.00  -45.70   -0.01  -45.54  -30.91   20.09
  13.400  -30.74   45.50   -0.01  -45.95   -0.01  -45.88  -30.50   20.48
  13.465  -30.19   45.92   -0.01  -46.39   -0.01  -46.28  -30.04   21.74
  13.530  -29.65   45.97    0.00  -46.70    0.00  -46.61  -29.73   22.34
  13.595  -29.03   45.19   -0.01  -47.05   -0.02  -47.13  -29.23   23.43
  13.660  -28.51   44.92   -0.01  -47.30    0.00  -47.18  -29.00   25.03
  13.725  -28.00   44.53    0.00  -47.72    0.00  -47.49  -28.69   24.98
  13.790  -27.54   44.83    0.00  -47.95   -0.01  -47.89  -28.37   25.73
  13.855  -27.02   43.89    0.00  -48.34   -0.01  -48.16  -27.97   26.76
  13.920  -26.64   42.55   -0.01  -48.70   -0.01  -48.54  -27.64   27.41
  13.985  -26.21   41.90   -0.02  -49.03   -0.02  -48.89  -27.32   27.75
  14.050  -25.82   41.88   -0.02  -49.31   -0.02  -49.25  -27.18   28.24
  14.115  -25.50   40.41   -0.02  -49.67   -0.03  -49.56  -26.77   29.27
  14.180  -25.06   40.30   -0.02  -49.93   -0.02  -49.85  -26.48   30.41
  14.245  -24.63   39.02   -0.03  -50.30   -0.01  -50.16  -26.12   31.86
  14.310  -24.14   37.79   -0.02  -50.65   -0.03  -50.53  -25.80   31.63
  14.375  -24.00   35.61   -0.03  -51.02   -0.02  -50.80  -25.41   32.24
  14.440  -23.95   34.33   -0.03  -51.34   -0.03  -51.17  -25.07   32.84
  14.505  -24.00   33.79   -0.04  -51.73   -0.04  -51.58  -24.54   33.08
  14.570  -23.78   35.00   -0.05  -52.02   -0.06  -51.81  -24.17   32.52
  14.635  -23.55   36.65   -0.06  -52.28   -0.06  -52.09  -23.85   30.60
  14.700  -23.07   37.43   -0.06  -52.56   -0.07  -52.38  -23.71   29.55
  14.765  -22.74   36.98   -0.06  -52.83   -0.07  -52.70  -23.52   29.72
  14.830  -22.24   36.17   -0.07  -53.21   -0.07  -52.97  -23.41   30.23
  14.895  -21.88   35.48   -0.07  -53.50   -0.08  -53.27  -23.20   30.18
  14.960  -21.69   33.84   -0.08  -53.73   -0.08  -53.62  -22.95   30.70
  15.025  -21.57   33.05   -0.06  -54.02   -0.07  -53.88  -22.60   30.26
  15.090  -21.45   32.82   -0.06  -54.41   -0.07  -54.23  -22.38   29.93
  15.155  -21.28   33.45   -0.07  -54.79   -0.07  -54.66  -22.30   29.82
  15.220  -20.90   33.78   -0.08  -55.17   -0.07  -55.06  -22.14   29.53
  15.285  -20.61   34.31   -0.08  -55.51   -0.09  -55.40  -21.92   29.05
  15.350  -20.36   33.29   -0.11  -55.88   -0.10  -55.73  -21.78   29.97
  15.415  -20.12   32.93   -0.11  -56.17   -0.11  -56.05  -21.63   30.07
  15.480  -19.83   33.06   -0.12  -56.51   -0.12  -56.41  -21.44   30.43
  15.545  -19.57   32.99   -0.14  -56.85   -0.12  -56.66  -21.30   30.94
  15.610  -19.41   32.78   -0.14  -57.14   -0.15  -56.99  -21.02   31.03
  15.675  -19.10   32.80   -0.15  -57.46   -0.16  -57.34  -20.81   31.52
  15.740  -18.78   32.24   -0.17  -57.82   -0.16  -57.63  -20.67   32.23
  15.805  -18.49   32.41   -0.17  -58.15   -0.18  -57.85  -20.44   32.11
  15.870  -18.22   32.14   -0.18  -58.39   -0.18  -58.25  -20.17   32.60
  15.935  -17.96   31.13   -0.21  -58.76   -0.20  -58.56  -19.98   33.22
  16.000  -17.75   30.91   -0.21  -59.03   -0.20  -58.89  -19.64   33.39
  16.065  -17.41   30.44   -0.21  -59.34   -0.21  -59.10  -19.48   33.87
  16.130  -17.16   30.14   -0.22  -59.70   -0.22  -59.40  -19.21   33.68
  16.195  -16.94   29.58   -0.23  -59.90   -0.23  -59.69  -18.92   33.79
  16.260  -16.72   28.83   -0.25  -60.20   -0.25  -60.05  -18.65   34.12
  16.325  -16.41   27.98   -0.26  -60.48   -0.25  -60.32  -18.44   34.04
  16.390  -16.19   27.61   -0.25  -60.82   -0.26  -60.47  -18.20   33.81
  16.455  -16.01   26.74   -0.26  -61.01   -0.25  -60.83  -17.95   33.83
  16.520  -15.82   25.95   -0.28  -61.40   -0.27  -61.16  -17.73   33.61
  16.585  -15.59   25.15   -0.29  -61.74   -0.27  -61.57  -17.49   33.53
  16.650  -15.45   24.76   -0.30  -62.03   -0.28  -61.86  -17.29   33.80
  16.715  -15.23   24.14   -0.29  -62.38   -0.29  -62.15  -17.07   33.40
  16.780  -15.06   23.56   -0.33  -62.63   -0.31  -62.34  -16.81   33.64
  16.845  -14.92   23.08   -0.31  -62.88   -0.31  -62.78  -16.51   33.71
  16.910  -14.71   22.38   -0.34  -63.30   -0.31  -63.13  -16.28   33.35
  16.975  -14.52   22.22   -0.35  -63.66   -0.31  -63.27  -16.05   33.11
  17.040  -14.33   21.47   -0.32  -63.80   -0.32  -63.56  -15.78   33.23
  17.105  -14.14   20.86   -0.36  -64.19   -0.31  -63.89  -15.55   32.27
  17.170  -13.99   20.38   -0.36  -64.52   -0.35  -64.33  -15.34   32.08
  17.235  -13.74   19.44   -0.34  -64.89   -0.34  -64.73  -15.12   31.88
  17.300  -13.57   19.18   -0.36  -65.28   -0.34  -65.03  -14.88   31.02
  17.365  -13.40   18.49   -0.37  -65.69   -0.32  -65.39  -14.63   30.57
