!  American Technical Ceramics  Date:   10/27/06
!  One Norden Lane
!  Huntington Station,  NY.   11746-2102
!  Tel:  (631) 622-4700               Fax:  (631) 622-4748
!  Part Number  600S100         Mounting Orientation: Horizontal
!  Description: Ultra Low ESR Microwave capacitors
!  Application: Coupling, Bypass, Tuning, DC Block
!               Filters, Matching
# GHZ S DB R 50
! Freq   |S11|   S11 Ph  |S21|   S21 Ph  |S12|   S12 Ph  |S22|   S22 Ph
   0.000   0.00    0.00	  -999.00  90.00  -999.00  90.00    0.00    0.00
   0.400   -8.53  -69.10   -0.68   20.63   -0.69   20.62   -8.54  -68.57
   0.445   -9.35  -71.29   -0.55   18.42   -0.56   18.47   -9.43  -71.32
   0.490  -10.11  -73.21   -0.46   16.55   -0.48   16.57  -10.09  -72.94
   0.535  -10.82  -74.85   -0.39   14.93   -0.39   14.94  -10.91  -74.44
   0.580  -11.49  -76.28   -0.33   13.52   -0.35   13.56  -11.47  -76.30
   0.625  -12.12  -77.55   -0.29   12.27   -0.30   12.27  -12.17  -76.72
   0.670  -12.71  -78.67   -0.25   11.16   -0.26   11.22  -12.76  -78.82
   0.715  -13.27  -79.71   -0.22   10.16   -0.23   10.16  -13.25  -78.89
   0.760  -13.81  -80.64   -0.20    9.27   -0.20    9.30  -13.91  -80.44
   0.805  -14.32  -81.50   -0.17    8.43   -0.19    8.46  -14.26  -80.98
   0.850  -14.81  -82.27   -0.16    7.66   -0.16    7.69  -14.93  -81.44
   0.895  -15.27  -83.00   -0.14    6.95   -0.15    7.01  -15.25  -82.94
   0.940  -15.73  -83.70   -0.13    6.31   -0.14    6.33  -15.78  -82.37
   0.985  -16.17  -84.34   -0.12    5.70   -0.12    5.74  -16.23  -84.39
   1.030  -16.59  -84.93   -0.11    5.13   -0.12    5.14  -16.55  -83.60
   1.075  -16.99  -85.49   -0.10    4.58   -0.10    4.62  -17.16  -85.10
   1.120  -17.40  -86.01   -0.09    4.08   -0.10    4.11  -17.30  -85.29
   1.165  -17.78  -86.57   -0.08    3.58   -0.09    3.61  -17.95  -85.24
   1.210  -18.16  -87.01   -0.08    3.12   -0.09    3.17  -18.12  -86.93
   1.255  -18.53  -87.52   -0.07    2.69   -0.08    2.69  -18.60  -85.50
   1.300  -18.89  -87.92   -0.07    2.26   -0.07    2.31  -18.98  -87.95
   1.345  -19.25  -88.42   -0.06    1.85   -0.07    1.88  -19.19  -86.57
   1.390  -19.59  -88.78   -0.06    1.45   -0.06    1.49  -19.81  -87.98
   1.435  -19.94  -89.19   -0.05    1.07   -0.06    1.12  -19.81  -88.05
   1.480  -20.27  -89.59   -0.05    0.70   -0.06    0.74  -20.46  -87.46
   1.525  -20.62  -89.90   -0.05    0.34   -0.06    0.40  -20.53  -89.62
   1.570  -20.94  -90.19   -0.05    0.01   -0.06    0.04  -20.95  -87.55
   1.615  -21.26  -90.54   -0.05   -0.32   -0.05   -0.26  -21.37  -90.65
   1.660  -21.58  -90.76   -0.04   -0.64   -0.05   -0.61  -21.44  -88.72
   1.705  -21.85  -91.11   -0.04   -0.97   -0.05   -0.92  -22.17  -90.14
   1.750  -22.16  -91.63   -0.04   -1.27   -0.05   -1.23  -22.03  -90.49
   1.795  -22.49  -92.16   -0.04   -1.57   -0.04   -1.54  -22.77  -89.00
   1.840  -22.81  -92.42   -0.04   -1.87   -0.04   -1.81  -22.79  -92.16
   1.885  -23.13  -92.73   -0.03   -2.16   -0.04   -2.13  -23.15  -88.73
   1.930  -23.41  -92.99   -0.03   -2.44   -0.04   -2.39  -23.68  -92.43
   1.975  -23.74  -93.24   -0.03   -2.72   -0.04   -2.69  -23.55  -90.05
   2.020  -24.02  -93.72   -0.03   -3.01   -0.04   -2.97  -24.45  -91.15
   2.065  -24.35  -93.95   -0.03   -3.28   -0.04   -3.23  -24.12  -92.18
   2.110  -24.62  -94.31   -0.03   -3.54   -0.03   -3.51  -24.89  -89.53
   2.155  -24.92  -94.53   -0.03   -3.80   -0.03   -3.76  -24.95  -93.95
   2.200  -25.24  -94.89   -0.03   -4.05   -0.03   -4.04  -25.19  -89.51
   2.245  -25.52  -95.40   -0.03   -4.31   -0.03   -4.28  -25.89  -93.80
   2.290  -25.84  -95.62   -0.03   -4.58   -0.03   -4.54  -25.56  -91.29
   2.335  -26.13  -95.99   -0.02   -4.83   -0.03   -4.79  -26.67  -91.64
   2.380  -26.44  -96.16   -0.02   -5.08   -0.03   -5.04  -26.22  -93.87
   2.425  -26.75  -96.53   -0.03   -5.32   -0.03   -5.29  -27.06  -89.56
   2.470  -27.00  -96.82   -0.02   -5.56   -0.03   -5.51  -27.17  -95.44
   2.515  -27.30  -97.18   -0.02   -5.79   -0.03   -5.77  -27.25  -89.87
   2.560  -27.58  -97.59   -0.02   -6.03   -0.03   -6.00  -28.23  -94.29
   2.605  -27.86  -98.15   -0.02   -6.26   -0.04   -6.22  -27.71  -91.90
   2.650  -28.17  -99.27   -0.02   -6.49   -0.03   -6.45  -28.93  -90.97
   2.695  -28.54  -99.58   -0.02   -6.73   -0.03   -6.68  -28.39  -94.82
   2.740  -28.92  -99.89   -0.02   -6.96   -0.03   -6.92  -29.24  -88.24
   2.785  -29.21  -99.94   -0.02   -7.18   -0.03   -7.13  -29.53  -95.74
   2.830  -29.50 -100.33   -0.02   -7.41   -0.03   -7.37  -29.35  -88.54
   2.875  -29.72 -100.92   -0.02   -7.63   -0.03   -7.58  -30.74  -93.24
   2.920  -29.99 -101.33   -0.02   -7.86   -0.03   -7.81  -29.73  -91.27
   2.965  -30.24 -102.50   -0.02   -8.08   -0.03   -8.03  -31.37  -87.47
   3.010  -30.79  -99.66   -0.02   -8.29   -0.03   -8.23  -30.87  -95.94
   3.055  -31.17 -100.48   -0.02   -8.52   -0.02   -8.48  -31.69  -86.19
   3.100  -31.45 -100.28   -0.02   -8.74   -0.03   -8.69  -32.31  -96.19
   3.145  -31.80 -101.19   -0.02   -8.96   -0.03   -8.91  -31.66  -86.87
   3.190  -32.19 -101.58   -0.02   -9.20   -0.03   -9.13  -33.65  -90.35
   3.235  -32.51 -102.38   -0.03   -9.40   -0.04   -9.33  -32.09  -90.09
   3.280  -32.90 -103.37   -0.03   -9.58   -0.03   -9.52  -33.74  -83.80
   3.325  -33.35 -104.26   -0.03   -9.79   -0.03   -9.72  -33.01  -94.32
   3.370  -33.93 -104.84   -0.02  -10.00   -0.03   -9.94  -33.65  -83.56
   3.415  -34.40 -105.27   -0.02  -10.22   -0.03  -10.15  -34.84  -95.37
   3.460  -34.86 -105.74   -0.02  -10.43   -0.03  -10.37  -33.71  -86.40
   3.505  -35.45 -106.02   -0.02  -10.65   -0.03  -10.58  -36.27  -90.07
   3.550  -35.98 -105.51   -0.03  -10.86   -0.03  -10.78  -34.47  -92.64
   3.595  -36.54 -106.70   -0.03  -11.06   -0.03  -10.99  -36.84  -81.95
   3.640  -37.05 -106.18   -0.03  -11.26   -0.03  -11.18  -36.14  -97.33
   3.685  -37.70 -106.84   -0.03  -11.45   -0.04  -11.38  -36.21  -81.16
   3.730  -38.29 -106.56   -0.03  -11.64   -0.03  -11.57  -38.24  -99.19
   3.775  -38.93 -107.14   -0.03  -11.85   -0.03  -11.78  -36.76  -89.39
   3.820  -39.69 -107.72   -0.03  -12.06   -0.03  -11.97  -40.78  -92.32
   3.865  -40.43 -107.90   -0.03  -12.25   -0.03  -12.17  -38.10 -100.58
   3.910  -41.37 -109.35   -0.03  -12.45   -0.03  -12.38  -41.99  -82.47
   3.955  -42.40 -108.16   -0.03  -12.65   -0.03  -12.57  -41.87 -111.19
   4.000  -43.47 -108.92   -0.03  -12.84   -0.03  -12.78  -42.31  -76.10
   4.045  -44.83 -109.57   -0.03  -13.05   -0.03  -12.97  -48.49 -110.29
   4.090  -46.10 -108.86   -0.03  -13.25   -0.03  -13.17  -43.49  -81.84
   4.135  -47.86 -109.04   -0.03  -13.46   -0.03  -13.37  -53.32  -36.38
   4.180  -49.71 -106.00   -0.03  -13.66   -0.03  -13.58  -46.15  -96.26
   4.225  -52.58 -107.95   -0.03  -13.86   -0.03  -13.78  -46.59  -11.48
   4.270  -55.84 -107.18   -0.03  -14.06   -0.03  -14.00  -60.41 -103.48
   4.315  -63.59  -99.97   -0.03  -14.27   -0.03  -14.21  -46.70  -22.07
   4.360  -77.21   32.47   -0.03  -14.48   -0.03  -14.41  -50.24   56.43
   4.405  -59.49   66.57   -0.03  -14.69   -0.03  -14.61  -49.85  -20.93
   4.450  -54.21   72.85   -0.03  -14.90   -0.03  -14.82  -44.69   41.78
   4.495  -50.98   72.79   -0.03  -15.10   -0.03  -15.02  -52.99   39.88
   4.540  -47.86   74.96   -0.03  -15.29   -0.03  -15.22  -42.68   33.28
   4.585  -45.31   74.38   -0.03  -15.47   -0.03  -15.41  -44.67   68.65
   4.630  -42.91   67.69   -0.03  -15.66   -0.03  -15.58  -42.17   30.89
   4.675  -42.08   59.99   -0.02  -15.88   -0.03  -15.81  -40.51   57.21
   4.720  -41.92   58.18   -0.02  -16.14   -0.02  -16.06  -43.32   38.18
   4.765  -41.27   60.77   -0.03  -16.36   -0.03  -16.28  -38.78   52.19
   4.810  -40.45   63.15   -0.03  -16.58   -0.03  -16.50  -41.46   61.04
   4.855  -39.35   63.91   -0.03  -16.78   -0.03  -16.72  -37.73   47.38
   4.900  -38.51   64.66   -0.03  -17.00   -0.03  -16.94  -37.87   66.62
   4.945  -37.60   64.03   -0.03  -17.23   -0.03  -17.16  -37.39   48.51
   4.990  -36.82   64.50   -0.03  -17.47   -0.04  -17.39  -35.35   61.72
   5.035  -35.97   64.62   -0.04  -17.71   -0.04  -17.62  -36.56   55.05
   5.080  -35.22   64.34   -0.04  -17.94   -0.04  -17.85  -33.80   55.72
   5.125  -34.48   64.34   -0.04  -18.18   -0.04  -18.11  -34.81   61.00
   5.170  -33.65   63.66   -0.05  -18.43   -0.05  -18.34  -32.91   51.08
   5.215  -32.92   63.60   -0.05  -18.69   -0.05  -18.61  -32.54   60.58
   5.260  -32.10   63.06   -0.06  -18.95   -0.06  -18.88  -32.11   50.33
   5.305  -31.31   62.55   -0.06  -19.24   -0.07  -19.16  -30.57   55.96
   5.350  -30.49   61.51   -0.08  -19.54   -0.07  -19.46  -30.90   51.22
   5.395  -29.56   60.62   -0.09  -19.85   -0.09  -19.77  -28.92   49.47
   5.440  -28.63   59.40   -0.11  -20.20   -0.11  -20.12  -28.94   50.62
   5.485  -27.54   57.44   -0.13  -20.57   -0.13  -20.47  -27.37   43.20
   5.530  -26.46   54.90   -0.16  -20.99   -0.16  -20.91  -26.55   44.78
   5.575  -25.17   51.15   -0.22  -21.44   -0.22  -21.35  -25.45   35.29
   5.620  -23.77   45.62   -0.30  -21.92   -0.30  -21.82  -23.84   31.94
   5.665  -22.27   37.33   -0.44  -22.27   -0.44  -22.19  -22.84   19.91
   5.710  -20.82   24.25   -0.65  -22.09   -0.65  -22.00  -21.18    6.46
   5.755  -20.01    5.71   -0.85  -20.75   -0.85  -20.67  -20.85  -14.74
   5.800  -20.43  -15.10   -0.82  -18.65   -0.82  -18.56  -21.15  -37.00
   5.845  -22.07  -32.11   -0.60  -17.58   -0.60  -17.47  -23.43  -57.24
   5.890  -24.18  -43.04   -0.40  -17.59   -0.40  -17.49  -25.28  -70.69
   5.935  -26.32  -48.95   -0.27  -18.00   -0.27  -17.89  -28.54  -78.96
   5.980  -28.34  -51.40   -0.19  -18.48   -0.19  -18.39  -30.20  -88.78
   6.025  -30.26  -50.93   -0.14  -18.94   -0.14  -18.83  -33.69  -85.64
   6.070  -31.98  -48.95   -0.11  -19.37   -0.11  -19.28  -35.86 -101.89
   6.115  -33.49  -44.56   -0.09  -19.76   -0.09  -19.65  -38.33  -87.53
   6.160  -34.76  -39.42   -0.08  -20.11   -0.07  -20.01  -44.37 -112.17
   6.205  -35.81  -32.12   -0.07  -20.44   -0.06  -20.34  -44.05  -93.04
   6.250  -36.68  -24.59   -0.06  -20.73   -0.06  -20.62  -63.33   48.91
   6.295  -37.19  -17.16   -0.06  -21.00   -0.05  -20.90  -56.22 -148.28
   6.340  -37.59   -9.59   -0.05  -21.26   -0.05  -21.14  -47.39   50.84
   6.385  -37.69   -1.22   -0.05  -21.50   -0.05  -21.41  -45.60  100.92
   6.430  -37.59    6.02   -0.04  -21.75   -0.04  -21.64  -44.27   58.46
   6.475  -37.36   13.60   -0.04  -21.98   -0.04  -21.88  -39.79   83.06
   6.520  -36.90   18.20   -0.04  -22.23   -0.04  -22.12  -41.87   70.72
   6.565  -36.45   23.24   -0.04  -22.45   -0.04  -22.34  -37.22   71.89
   6.610  -35.98   27.07   -0.04  -22.66   -0.03  -22.56  -38.73   78.80
   6.655  -35.55   30.41   -0.04  -22.87   -0.03  -22.78  -36.16   64.46
   6.700  -35.06   33.45   -0.04  -23.09   -0.03  -23.00  -35.88   78.24
   6.745  -34.62   34.98   -0.03  -23.31   -0.03  -23.20  -35.75   63.49
   6.790  -34.15   37.67   -0.03  -23.52   -0.03  -23.42  -33.95   73.22
   6.835  -33.72   39.01   -0.04  -23.74   -0.03  -23.62  -35.17   66.52
   6.880  -33.33   40.88   -0.04  -23.93   -0.03  -23.83  -32.86   66.24
   6.925  -32.96   41.59   -0.04  -24.13   -0.03  -24.05  -33.88   71.17
   6.970  -32.61   42.72   -0.03  -24.34   -0.03  -24.23  -32.56   62.17
   7.015  -32.21   43.80   -0.03  -24.54   -0.03  -24.45  -32.38   71.09
   7.060  -31.87   44.53   -0.03  -24.75   -0.03  -24.64  -32.46   61.01
   7.105  -31.52   45.16   -0.03  -24.94   -0.03  -24.85  -31.13   67.77
   7.150  -31.26   45.65   -0.04  -25.14   -0.03  -25.03  -32.09   64.75
   7.195  -30.95   46.39   -0.04  -25.33   -0.03  -25.24  -30.48   63.36
   7.240  -30.69   46.75   -0.04  -25.52   -0.03  -25.41  -31.09   67.04
   7.285  -30.39   47.08   -0.04  -25.71   -0.03  -25.60  -30.14   60.06
   7.330  -30.17   47.70   -0.04  -25.90   -0.03  -25.81  -29.91   67.30
   7.375  -29.92   48.09   -0.04  -26.10   -0.03  -25.97  -30.06   59.55
   7.420  -29.63   48.57   -0.04  -26.30   -0.03  -26.17  -28.95   63.39
   7.465  -29.40   48.49   -0.04  -26.49   -0.03  -26.38  -29.62   60.70
   7.510  -29.16   48.82   -0.04  -26.68   -0.03  -26.57  -28.36   59.38
   7.555  -29.05   49.13   -0.03  -26.86   -0.03  -26.76  -28.93   62.43
   7.600  -28.78   49.47   -0.04  -27.07   -0.03  -26.97  -28.21   55.45
   7.645  -28.63   49.70   -0.04  -27.29   -0.03  -27.17  -27.98   60.50
   7.690  -28.46   50.32   -0.04  -27.48   -0.03  -27.37  -28.16   54.56
   7.735  -28.28   51.41   -0.04  -27.69   -0.03  -27.57  -27.38   57.41
   7.780  -28.03   52.13   -0.04  -27.87   -0.04  -27.76  -27.77   55.21
   7.825  -27.75   52.66   -0.05  -28.07   -0.04  -27.95  -27.26   53.69
   7.870  -27.47   53.09   -0.04  -28.25   -0.04  -28.14  -27.44   55.76
   7.915  -27.20   53.32   -0.05  -28.44   -0.04  -28.33  -27.16   53.48
   7.960  -26.94   53.56   -0.05  -28.64   -0.04  -28.53  -27.06   53.14
   8.005  -26.70   53.17   -0.05  -28.83   -0.04  -28.72  -26.81   53.95
   8.050  -26.42   53.02   -0.06  -29.00   -0.05  -28.90  -26.73   52.96
   8.095  -26.27   52.68   -0.06  -29.17   -0.05  -29.06  -26.56   53.54
   8.140  -26.10   52.45   -0.06  -29.34   -0.05  -29.23  -26.23   52.63
   8.185  -26.00   52.32   -0.06  -29.51   -0.05  -29.40  -26.20   53.40
   8.230  -25.84   52.20   -0.06  -29.69   -0.05  -29.57  -25.93   51.52
   8.275  -25.73   52.78   -0.05  -29.87   -0.05  -29.75  -25.68   52.75
   8.320  -25.54   52.13   -0.05  -30.07   -0.04  -29.95  -25.63   52.59
   8.365  -25.36   52.17   -0.05  -30.27   -0.04  -30.16  -25.26   52.34
   8.410  -25.20   52.04   -0.05  -30.49   -0.04  -30.38  -25.28   51.85
   8.455  -25.02   52.04   -0.05  -30.71   -0.04  -30.59  -24.92   50.43
   8.500  -24.88   51.91   -0.05  -30.91   -0.04  -30.79  -24.86   50.66
   8.545  -24.72   51.70   -0.06  -31.10   -0.05  -30.97  -24.70   48.84
   8.590  -24.57   51.70   -0.06  -31.29   -0.05  -31.17  -24.56   49.18
   8.635  -24.41   51.47   -0.06  -31.50   -0.05  -31.38  -24.58   47.69
   8.680  -24.28   51.18   -0.07  -31.69   -0.06  -31.57  -24.31   47.64
   8.725  -24.21   51.08   -0.07  -31.87   -0.06  -31.76  -24.41   47.62
   8.770  -24.13   50.92   -0.08  -32.03   -0.07  -31.93  -24.24   46.99
   8.815  -24.05   51.44   -0.08  -32.18   -0.07  -32.08  -24.29   47.95
   8.860  -23.93   51.76   -0.08  -32.33   -0.07  -32.21  -24.18   47.42
   8.905  -23.74   52.41   -0.07  -32.50   -0.06  -32.39  -23.89   49.40
   8.950  -23.53   52.35   -0.06  -32.73   -0.05  -32.61  -23.73   49.29
   8.995  -23.35   52.15   -0.07  -32.99   -0.06  -32.87  -23.28   49.10
   9.040  -23.21   52.01   -0.08  -33.22   -0.06  -33.10  -23.14   48.28
   9.085  -23.08   51.76   -0.09  -33.41   -0.07  -33.29  -22.79   46.67
   9.130  -22.94   52.07   -0.10  -33.58   -0.08  -33.47  -22.71   46.71
   9.175  -22.78   51.77   -0.10  -33.71   -0.09  -33.59  -22.65   44.97
   9.220  -22.65   51.80   -0.10  -33.86   -0.09  -33.73  -22.52   45.06
   9.265  -22.50   51.55   -0.10  -34.01   -0.09  -33.90  -22.50   44.31
   9.310  -22.38   51.46   -0.10  -34.18   -0.09  -34.06  -22.24   44.45
   9.355  -22.24   51.54   -0.10  -34.36   -0.08  -34.24  -22.29   44.52
   9.400  -22.11   51.35   -0.09  -34.54   -0.08  -34.43  -22.09   43.36
   9.445  -21.98   51.41   -0.09  -34.75   -0.08  -34.61  -21.98   44.26
   9.490  -21.84   51.26   -0.09  -34.91   -0.08  -34.79  -21.85   43.22
   9.535  -21.70   51.42   -0.09  -35.11   -0.08  -34.99  -21.65   44.14
   9.580  -21.55   51.46   -0.09  -35.30   -0.07  -35.17  -21.65   43.57
   9.625  -21.38   51.31   -0.08  -35.49   -0.07  -35.38  -21.33   43.28
   9.670  -21.22   51.24   -0.08  -35.71   -0.06  -35.60  -21.23   43.57
   9.715  -21.06   50.99   -0.07  -35.94   -0.06  -35.82  -21.01   42.97
   9.760  -20.90   50.99   -0.07  -36.16   -0.06  -36.05  -20.88   43.36
   9.805  -20.77   50.53   -0.07  -36.38   -0.05  -36.27  -20.76   42.20
   9.850  -20.61   50.38   -0.06  -36.62   -0.05  -36.50  -20.50   42.52
   9.895  -20.46   50.29   -0.06  -36.87   -0.05  -36.77  -20.43   42.11
   9.940  -20.30   50.07   -0.06  -37.14   -0.05  -37.03  -20.18   41.65
   9.985  -20.13   49.92   -0.06  -37.39   -0.05  -37.29  -20.10   41.54
  10.030  -19.97   49.50   -0.06  -37.67   -0.05  -37.57  -19.86   40.60
  10.075  -19.79   49.35   -0.06  -37.97   -0.05  -37.85  -19.68   41.07
  10.120  -19.63   48.90   -0.07  -38.27   -0.05  -38.17  -19.55   39.95
  10.165  -19.46   48.46   -0.08  -38.57   -0.06  -38.47  -19.30   39.79
  10.210  -19.31   48.02   -0.09  -38.85   -0.07  -38.76  -19.21   39.24
  10.255  -19.14   47.52   -0.10  -39.11   -0.09  -39.01  -18.97   38.58
  10.300  -18.99   47.21   -0.11  -39.36   -0.10  -39.27  -18.89   38.40
  10.345  -18.83   46.69   -0.12  -39.63   -0.11  -39.54  -18.70   37.24
  10.390  -18.67   46.31   -0.13  -39.89   -0.12  -39.79  -18.52   37.33
  10.435  -18.50   45.90   -0.15  -40.14   -0.13  -40.03  -18.40   36.50
  10.480  -18.31   45.50   -0.16  -40.41   -0.15  -40.30  -18.18   36.27
  10.525  -18.12   45.08   -0.17  -40.69   -0.16  -40.63  -18.10   35.74
  10.570  -17.94   44.51   -0.18  -40.98   -0.17  -40.93  -17.82   35.08
  10.615  -17.71   44.03   -0.20  -41.28   -0.19  -41.23  -17.66   34.92
  10.660  -17.49   43.44   -0.22  -41.59   -0.21  -41.51  -17.42   33.99
  10.705  -17.28   42.59   -0.24  -41.89   -0.23  -41.83  -17.21   33.52
  10.750  -17.05   41.72   -0.26  -42.21   -0.25  -42.14  -17.02   32.42
  10.795  -16.80   40.92   -0.28  -42.52   -0.27  -42.46  -16.69   31.95
  10.840  -16.54   39.86   -0.31  -42.86   -0.30  -42.81  -16.53   31.02
  10.885  -16.29   38.74   -0.34  -43.21   -0.33  -43.14  -16.22   29.70
  10.930  -16.00   37.46   -0.37  -43.55   -0.36  -43.53  -15.98   28.80
  10.975  -15.72   36.07   -0.41  -43.93   -0.40  -43.89  -15.68   27.16
  11.020  -15.41   34.44   -0.46  -44.33   -0.45  -44.28  -15.36   26.13
  11.065  -15.09   32.44   -0.52  -44.72   -0.51  -44.68  -15.11   23.99
  11.110  -14.77   30.13   -0.58  -45.14   -0.57  -45.07  -14.72   22.06
  11.155  -14.43   27.64   -0.67  -45.54   -0.65  -45.51  -14.42   19.84
  11.200  -14.09   24.83   -0.77  -45.92   -0.76  -45.86  -14.05   16.99
  11.245  -13.76   21.22   -0.89  -46.23   -0.88  -46.18  -13.74   13.84
  11.290  -13.44   16.98   -1.05  -46.44   -1.04  -46.40  -13.39    9.66
  11.335  -13.15   12.28   -1.23  -46.42   -1.22  -46.37  -13.07    5.24
  11.380  -12.93    6.74   -1.43  -46.05   -1.43  -45.98  -12.85   -0.28
  11.425  -12.82    0.24   -1.64  -45.18   -1.64  -45.13  -12.70   -6.49
  11.470  -12.85   -6.93   -1.82  -43.76   -1.81  -43.71  -12.75  -13.71
  11.515  -13.11  -14.69   -1.91  -41.90   -1.90  -41.84  -12.94  -21.21
  11.560  -13.61  -22.30   -1.89  -39.85   -1.88  -39.79  -13.46  -28.78
  11.605  -14.39  -29.69   -1.76  -38.04   -1.75  -37.99  -14.16  -36.24
  11.650  -15.35  -36.24   -1.55  -36.76   -1.54  -36.69  -15.14  -42.51
  11.695  -16.51  -41.55   -1.32  -36.08   -1.31  -36.03  -16.23  -47.99
  11.740  -17.82  -45.40   -1.10  -35.88   -1.09  -35.80  -17.52  -51.38
  11.785  -19.22  -47.76   -0.91  -36.01   -0.90  -35.95  -18.92  -54.45
  11.830  -20.68  -48.80   -0.75  -36.37   -0.74  -36.31  -20.25  -55.26
  11.875  -22.09  -48.10   -0.62  -36.82   -0.61  -36.77  -21.75  -55.19
  11.920  -23.56  -45.63   -0.52  -37.32   -0.51  -37.26  -23.08  -53.15
  11.965  -25.00  -41.45   -0.43  -37.84   -0.43  -37.77  -24.65  -49.01
  12.010  -26.25  -35.93   -0.37  -38.35   -0.36  -38.33  -25.90  -45.13
  12.055  -27.28  -28.48   -0.32  -38.87   -0.31  -38.81  -26.91  -36.80
  12.100  -27.98  -19.54   -0.28  -39.33   -0.27  -39.30  -27.96  -29.31
  12.145  -28.43  -10.38   -0.24  -39.80   -0.23  -39.75  -28.22  -19.69
