!  American Technical Ceramics  Date:   11/6/2006
!  One Norden Lane
!  Huntington Station,  NY.   11746-2102
!  Tel:  (631) 622-4700               Fax:  (631) 622-4748
!  Part Number  600S680FT       Mounting Orientation: Horizontal
!  Description: Ultra Low ESR Microwave capacitors
!  Application: Coupling, Bypass, Tuning, DC Block
!               Filters, Matching
# GHZ S DB R 50
! Freq   |S11|   S11 Ph  |S21|   S21 Ph  |S12|   S12 Ph  |S22|   S22 Ph
   0.000    0.00    0.00 -999.00   90.00 -999.00   90.00    0.00    0.00
   0.400  -24.59  -86.53   -0.03    1.92   -0.03    1.93  -24.63  -86.88
   0.423  -25.09  -86.65   -0.03    1.66   -0.03    1.66  -25.13  -87.85
   0.445  -25.54  -86.81   -0.03    1.41   -0.02    1.40  -25.72  -87.79
   0.468  -25.98  -87.03   -0.02    1.18   -0.02    1.17  -26.11  -87.28
   0.490  -26.42  -87.13   -0.02    0.96   -0.02    0.95  -26.46  -88.02
   0.513  -26.83  -87.20   -0.02    0.75   -0.02    0.75  -27.00  -88.57
   0.535  -27.22  -87.36   -0.02    0.55   -0.02    0.55  -27.45  -87.85
   0.558  -27.60  -87.49   -0.02    0.36   -0.02    0.36  -27.70  -87.99
   0.580  -27.97  -87.57   -0.02    0.18   -0.02    0.18  -28.11  -89.11
   0.603  -28.31  -87.73   -0.02    0.01   -0.02    0.01  -28.62  -88.84
   0.625  -28.65  -87.91   -0.02   -0.16   -0.02   -0.16  -28.89  -88.17
   0.648  -28.99  -87.98   -0.02   -0.32   -0.02   -0.33  -29.13  -89.14
   0.670  -29.30  -88.06   -0.02   -0.48   -0.02   -0.48  -29.61  -89.75
   0.693  -29.61  -88.29   -0.02   -0.63   -0.02   -0.63  -29.99  -88.72
   0.715  -29.93  -88.42   -0.02   -0.78   -0.01   -0.78  -30.15  -88.79
   0.738  -30.24  -88.44   -0.02   -0.92   -0.01   -0.93  -30.52  -90.08
   0.760  -30.51  -88.58   -0.02   -1.07   -0.01   -1.06  -31.02  -89.63
   0.783  -30.80  -88.80   -0.01   -1.21   -0.01   -1.21  -31.20  -88.69
   0.805  -31.09  -88.91   -0.01   -1.34   -0.01   -1.34  -31.38  -89.91
   0.828  -31.35  -89.01   -0.01   -1.47   -0.01   -1.48  -31.88  -90.61
   0.850  -31.62  -89.30   -0.01   -1.61   -0.01   -1.61  -32.23  -89.22
   0.873  -31.91  -89.49   -0.01   -1.73   -0.01   -1.74  -32.30  -89.32
   0.895  -32.17  -89.57   -0.01   -1.86   -0.01   -1.86  -32.64  -90.85
   0.918  -32.42  -89.78   -0.01   -1.98   -0.01   -1.99  -33.16  -90.28
   0.940  -32.69  -89.97   -0.01   -2.11   -0.01   -2.11  -33.31  -88.94
   0.963  -32.96  -90.11   -0.01   -2.23   -0.01   -2.23  -33.44  -90.24
   0.985  -33.19  -90.24   -0.01   -2.35   -0.01   -2.36  -33.97  -91.06
   1.008  -33.44  -90.57   -0.01   -2.47   -0.01   -2.47  -34.33  -89.30
   1.030  -33.71  -90.84   -0.01   -2.58   -0.01   -2.58  -34.34  -89.45
   1.053  -33.96  -91.00   -0.01   -2.71   -0.01   -2.70  -34.70  -91.16
   1.075  -34.19  -91.30   -0.01   -2.82   -0.01   -2.82  -35.26  -90.58
   1.098  -34.47  -91.72   -0.01   -2.93   -0.01   -2.93  -35.36  -88.85
   1.120  -34.74  -91.83   -0.01   -3.04   -0.01   -3.04  -35.45  -90.39
   1.143  -34.99  -92.08   -0.01   -3.16   -0.01   -3.15  -36.06  -91.36
   1.165  -35.25  -92.38   -0.01   -3.26   -0.01   -3.27  -36.44  -88.82
   1.188  -35.52  -92.52   -0.01   -3.37   -0.01   -3.37  -36.38  -88.79
   1.210  -35.76  -92.62   -0.01   -3.48   -0.01   -3.48  -36.78  -90.98
   1.233  -35.98  -93.17   -0.01   -3.60   -0.01   -3.59  -37.43  -89.85
   1.255  -36.28  -93.61   -0.01   -3.71   -0.01   -3.71  -37.48  -87.75
   1.278  -36.56  -93.71   -0.01   -3.82   -0.01   -3.81  -37.54  -89.76
   1.300  -36.78  -94.12   -0.01   -3.93   -0.01   -3.92  -38.23  -90.82
   1.323  -37.05  -94.74   -0.01   -4.03   -0.01   -4.02  -38.64  -87.68
   1.345  -37.38  -95.02   -0.02   -4.13   -0.01   -4.13  -38.53  -87.82
   1.368  -37.67  -95.26   -0.01   -4.24   -0.01   -4.24  -39.05  -90.40
   1.390  -37.94  -95.72   -0.01   -4.35   -0.01   -4.35  -39.88  -88.11
   1.413  -38.26  -96.24   -0.01   -4.45   -0.01   -4.45  -39.83  -85.07
   1.435  -38.58  -96.60   -0.01   -4.56   -0.01   -4.56  -39.92  -87.92
   1.458  -38.85  -97.06   -0.01   -4.66   -0.01   -4.67  -40.84  -88.40
   1.480  -39.19  -98.07   -0.01   -4.78   -0.01   -4.77  -41.25  -83.67
   1.503  -39.60  -98.38   -0.01   -4.87   -0.01   -4.88  -40.98  -83.76
   1.525  -39.92  -98.66   -0.02   -4.98   -0.01   -4.98  -41.54  -87.03
   1.548  -40.31  -99.59   -0.02   -5.09   -0.02   -5.09  -42.39  -83.91
   1.570  -40.81  -99.90   -0.02   -5.19   -0.02   -5.19  -42.21  -81.68
   1.593  -41.21  -99.67   -0.02   -5.29   -0.02   -5.29  -42.53  -86.62
   1.615  -41.49  -99.64   -0.02   -5.39   -0.02   -5.39  -44.14  -87.55
   1.638  -41.82 -100.80   -0.02   -5.50   -0.02   -5.51  -44.87  -79.49
   1.660  -42.20 -101.64   -0.02   -5.61   -0.02   -5.62  -44.66  -79.71
   1.683  -42.52 -103.31   -0.02   -5.72   -0.02   -5.72  -46.01  -83.16
   1.705  -42.97 -106.31   -0.02   -5.83   -0.02   -5.83  -47.71  -74.56
   1.728  -43.75 -109.49   -0.02   -5.93   -0.02   -5.94  -47.26  -67.53
   1.750  -44.63 -111.54   -0.02   -6.04   -0.02   -6.04  -48.12  -71.94
   1.773  -45.51 -113.76   -0.02   -6.14   -0.02   -6.15  -51.06  -62.96
   1.795  -46.57 -117.31   -0.02   -6.26   -0.02   -6.26  -50.72  -41.12
   1.818  -47.99 -120.02   -0.02   -6.37   -0.02   -6.37  -50.35  -41.89
   1.840  -49.38 -124.02   -0.02   -6.49   -0.02   -6.48  -53.11  -29.39
   1.863  -51.04 -131.16   -0.02   -6.61   -0.02   -6.62  -51.49    0.68
   1.885  -53.56 -144.53   -0.03   -6.73   -0.02   -6.74  -49.57    3.34
   1.908  -56.70 -167.74   -0.03   -6.87   -0.03   -6.87  -50.08   14.39
   1.930  -57.53  148.84   -0.03   -7.01   -0.03   -7.01  -47.41   35.24
   1.953  -53.85  111.93   -0.03   -7.15   -0.03   -7.16  -44.56   34.98
   1.975  -49.71   90.87   -0.04   -7.32   -0.04   -7.31  -43.41   36.33
   1.998  -46.04   79.43   -0.05   -7.49   -0.05   -7.49  -41.46   44.00
   2.020  -42.76   70.30   -0.06   -7.69   -0.06   -7.69  -38.68   43.79
   2.043  -39.55   60.90   -0.08   -7.92   -0.08   -7.92  -36.51   39.08
   2.065  -36.39   49.56   -0.12   -8.16   -0.12   -8.16  -34.25   35.06
   2.088  -33.28   33.90   -0.19   -8.32   -0.19   -8.32  -31.43   25.49
   2.110  -30.58    9.90   -0.30   -8.05   -0.30   -8.05  -29.02    5.21
   2.133  -29.61  -20.89   -0.33   -7.15   -0.33   -7.15  -28.43  -21.94
   2.155  -30.62  -47.35   -0.23   -6.61   -0.23   -6.61  -29.88  -44.21
   2.178  -32.37  -65.00   -0.15   -6.65   -0.15   -6.64  -31.89  -56.54
   2.200  -34.07  -76.15   -0.10   -6.85   -0.10   -6.85  -33.57  -63.62
   2.223  -35.52  -83.95   -0.08   -7.06   -0.08   -7.07  -35.28  -69.31
   2.245  -36.79  -90.19   -0.06   -7.26   -0.06   -7.26  -37.10  -70.26
   2.268  -37.91  -95.73   -0.05   -7.44   -0.05   -7.44  -38.13  -68.26
   2.290  -38.98 -100.15   -0.05   -7.60   -0.05   -7.59  -38.90  -70.23
   2.313  -39.88 -104.21   -0.04   -7.74   -0.04   -7.75  -40.45  -71.18
   2.335  -40.74 -108.16   -0.04   -7.88   -0.04   -7.89  -41.53  -65.21
   2.358  -41.53 -111.70   -0.04   -8.01   -0.04   -8.02  -41.74  -63.72
   2.380  -42.22 -115.93   -0.04   -8.14   -0.03   -8.14  -42.99  -65.62
   2.403  -42.93 -119.91   -0.04   -8.27   -0.03   -8.26  -44.58  -57.58
   2.425  -43.60 -124.89   -0.03   -8.38   -0.03   -8.39  -44.28  -48.53
   2.448  -44.28 -128.97   -0.03   -8.50   -0.03   -8.49  -44.31  -50.06
   2.470  -44.72 -133.76   -0.03   -8.61   -0.03   -8.60  -45.56  -47.22
   2.493  -45.21 -140.38   -0.03   -8.72   -0.03   -8.72  -45.66  -37.35
   2.515  -46.00 -146.14   -0.03   -8.82   -0.03   -8.82  -45.19  -37.98
   2.538  -46.42 -150.87   -0.04   -8.93   -0.03   -8.93  -46.52  -37.87
   2.560  -46.65 -157.73   -0.04   -9.03   -0.03   -9.03  -47.03  -23.40
   2.583  -47.14 -164.38   -0.04   -9.12   -0.04   -9.13  -45.64  -19.48
   2.605  -47.57 -169.70   -0.04   -9.22   -0.04   -9.23  -46.08  -23.34
   2.628  -47.68 -174.42   -0.04   -9.32   -0.04   -9.32  -47.36  -14.24
   2.650  -47.47 -179.17   -0.04   -9.41   -0.03   -9.42  -46.39   -4.17
   2.673  -47.44  175.16   -0.03   -9.51   -0.03   -9.52  -46.09   -6.54
   2.695  -47.20  170.10   -0.03   -9.62   -0.03   -9.62  -47.21    1.27
   2.718  -46.67  166.92   -0.03   -9.73   -0.03   -9.73  -45.95   14.28
   2.740  -46.34  161.57   -0.03   -9.83   -0.03   -9.83  -44.49   13.72
   2.763  -46.02  157.55   -0.04   -9.93   -0.03   -9.94  -44.61   13.20
   2.785  -45.51  154.53   -0.04  -10.03   -0.03  -10.04  -44.08   21.01
   2.808  -44.90  151.14   -0.04  -10.13   -0.03  -10.13  -42.72   21.30
   2.830  -44.50  147.30   -0.03  -10.23   -0.03  -10.23  -42.47   17.34
   2.853  -43.97  144.94   -0.04  -10.32   -0.03  -10.33  -42.74   20.92
   2.875  -43.33  142.92   -0.04  -10.42   -0.04  -10.43  -41.74   25.28
   2.898  -42.71  139.58   -0.03  -10.52   -0.03  -10.53  -41.04   20.90
   2.920  -42.15  136.82   -0.03  -10.63   -0.03  -10.63  -41.44   19.99
   2.943  -41.61  134.35   -0.03  -10.73   -0.03  -10.73  -41.22   24.36
   2.965  -41.00  130.95   -0.03  -10.84   -0.03  -10.83  -40.40   23.57
   2.988  -40.55  127.34   -0.03  -10.95   -0.03  -10.96  -40.54   21.06
   3.010  -40.27  124.11   -0.03  -11.07   -0.03  -11.07  -40.95   25.94
   3.033  -41.72  103.17   -0.03  -11.20   -0.03  -11.20  -39.94   45.76
   3.055  -41.17  100.58   -0.03  -11.31   -0.03  -11.33  -39.40   43.67
   3.078  -40.80   99.19   -0.03  -11.44   -0.03  -11.44  -39.54   45.71
   3.100  -40.31   98.19   -0.04  -11.56   -0.03  -11.56  -38.66   50.06
   3.123  -39.81   96.51   -0.04  -11.68   -0.04  -11.67  -37.71   47.92
   3.145  -39.32   94.91   -0.04  -11.79   -0.04  -11.79  -37.65   46.01
   3.168  -38.93   93.98   -0.04  -11.90   -0.04  -11.90  -37.38   48.81
   3.190  -38.42   92.83   -0.05  -12.02   -0.05  -12.02  -36.51   48.81
   3.213  -37.78   91.02   -0.05  -12.13   -0.05  -12.14  -36.14   45.93
   3.235  -37.39   89.31   -0.05  -12.26   -0.05  -12.26  -36.14   46.68
   3.258  -36.92   88.26   -0.05  -12.37   -0.05  -12.38  -35.53   48.81
   3.280  -36.46   86.67   -0.06  -12.49   -0.06  -12.49  -34.94   46.77
   3.303  -35.97   85.27   -0.06  -12.62   -0.06  -12.63  -34.93   46.10
   3.325  -35.52   84.09   -0.06  -12.75   -0.06  -12.75  -34.59   48.91
   3.348  -35.00   82.84   -0.06  -12.89   -0.06  -12.89  -33.80   48.87
   3.370  -34.52   81.11   -0.07  -13.02   -0.07  -13.03  -33.41   46.59
   3.393  -34.04   79.50   -0.07  -13.16   -0.07  -13.17  -33.28   47.51
   3.415  -33.56   78.27   -0.08  -13.30   -0.08  -13.31  -32.69   48.78
   3.438  -32.99   76.88   -0.09  -13.46   -0.08  -13.47  -32.03   47.56
   3.460  -32.45   75.09   -0.09  -13.62   -0.09  -13.63  -31.69   46.57
   3.483  -31.92   73.21   -0.10  -13.78   -0.10  -13.79  -31.22   47.68
   3.505  -31.33   71.82   -0.11  -13.96   -0.11  -13.96  -30.45   47.09
   3.528  -30.74   69.53   -0.12  -14.13   -0.12  -14.13  -29.89   45.11
   3.550  -30.12   67.52   -0.14  -14.32   -0.13  -14.31  -29.45   44.65
   3.573  -29.46   65.19   -0.15  -14.51   -0.15  -14.51  -28.71   44.16
   3.595  -28.77   62.57   -0.18  -14.71   -0.17  -14.71  -27.97   41.67
   3.618  -28.05   59.49   -0.20  -14.92   -0.20  -14.92  -27.42   39.35
   3.640  -27.32   55.99   -0.23  -15.13   -0.23  -15.13  -26.73   37.98
   3.663  -26.54   52.11   -0.27  -15.33   -0.27  -15.34  -25.83   35.20
   3.685  -25.74   47.39   -0.32  -15.52   -0.32  -15.53  -25.05   30.94
   3.708  -24.93   41.87   -0.39  -15.68   -0.39  -15.69  -24.34   26.57
   3.730  -24.13   35.46   -0.47  -15.74   -0.47  -15.75  -23.52   21.60
   3.753  -23.37   27.76   -0.56  -15.66   -0.56  -15.66  -22.72   14.58
   3.775  -22.73   18.62   -0.66  -15.34   -0.66  -15.34  -22.14    6.25
   3.798  -22.28    8.30   -0.74  -14.76   -0.74  -14.76  -21.74   -2.68
   3.820  -22.10   -2.71   -0.78  -13.93   -0.78  -13.94  -21.52  -12.47
   3.843  -22.23  -13.92   -0.77  -13.06   -0.77  -13.07  -21.61  -22.94
   3.865  -22.66  -24.64   -0.71  -12.33   -0.71  -12.34  -22.07  -32.95
   3.888  -23.32  -34.26   -0.63  -11.85   -0.62  -11.86  -22.77  -41.32
   3.910  -24.11  -42.54   -0.53  -11.63   -0.53  -11.63  -23.53  -48.46
   3.933  -24.98  -49.58   -0.45  -11.59   -0.45  -11.60  -24.39  -55.15
   3.955  -25.90  -55.71   -0.38  -11.68   -0.38  -11.68  -25.40  -60.34
   3.978  -26.84  -60.73   -0.32  -11.82   -0.32  -11.83  -26.35  -63.82
   4.000  -27.76  -64.68   -0.27  -12.01   -0.27  -12.01  -27.17  -67.02
   4.023  -28.61  -68.29   -0.24  -12.22   -0.23  -12.21  -28.07  -70.34
   4.045  -29.46  -71.29   -0.20  -12.40   -0.20  -12.42  -29.07  -72.30
   4.068  -30.28  -73.79   -0.18  -12.61   -0.18  -12.61  -29.86  -72.98
   4.090  -31.04  -76.12   -0.16  -12.80   -0.16  -12.81  -30.53  -74.96
   4.113  -31.78  -78.24   -0.15  -12.98   -0.15  -12.99  -31.46  -76.69
   4.135  -32.55  -80.19   -0.13  -13.17   -0.13  -13.17  -32.31  -76.37
   4.158  -33.27  -81.87   -0.12  -13.34   -0.12  -13.34  -32.88  -76.62
   4.180  -33.95  -83.69   -0.11  -13.50   -0.11  -13.50  -33.60  -78.50
   4.203  -34.67  -85.37   -0.11  -13.65   -0.11  -13.65  -34.55  -78.34
   4.225  -35.39  -86.80   -0.10  -13.80   -0.10  -13.81  -35.16  -76.92
   4.248  -36.09  -87.85   -0.09  -13.96   -0.09  -13.95  -35.71  -77.82
   4.270  -36.84  -89.50   -0.09  -14.10   -0.09  -14.09  -36.69  -78.47
   4.293  -37.61  -90.35   -0.08  -14.23   -0.08  -14.23  -37.53  -75.94
   4.315  -38.35  -91.21   -0.08  -14.37   -0.08  -14.37  -37.93  -75.47
   4.338  -39.10  -92.33   -0.08  -14.50   -0.08  -14.50  -38.77  -77.21
   4.360  -39.91  -93.40   -0.07  -14.63   -0.07  -14.63  -40.03  -74.97
   4.383  -40.76  -94.08   -0.07  -14.76   -0.07  -14.75  -40.49  -70.26
   4.405  -41.63  -94.56   -0.07  -14.88   -0.07  -14.87  -40.91  -71.45
   4.428  -42.57  -95.26   -0.07  -15.00   -0.07  -15.00  -42.23  -71.68
   4.450  -43.65  -95.67   -0.07  -15.11   -0.07  -15.12  -43.19  -64.63
   4.473  -44.74  -94.83   -0.06  -15.23   -0.06  -15.23  -43.28  -62.61
   4.495  -45.71  -93.93   -0.06  -15.34   -0.06  -15.35  -44.45  -63.34
   4.518  -46.90  -92.10   -0.06  -15.46   -0.06  -15.45  -45.70  -55.48
   4.540  -47.89  -88.28   -0.06  -15.59   -0.06  -15.58  -45.65  -51.02
   4.563  -48.27  -86.68   -0.06  -15.70   -0.05  -15.71  -46.34  -55.60
   4.585  -48.63  -90.61   -0.06  -15.84   -0.06  -15.86  -49.11  -53.32
   4.608  -49.76 -100.12   -0.07  -15.96   -0.06  -15.97  -51.07  -37.43
   4.630  -51.81 -113.91   -0.07  -16.05   -0.07  -16.06  -52.35  -25.28
   4.653  -55.37 -138.88   -0.07  -16.12   -0.07  -16.13  -54.28    4.83
   4.675  -59.27  168.54   -0.07  -16.19   -0.07  -16.19  -49.84   30.90
   4.698  -57.52  109.67   -0.07  -16.26   -0.06  -16.28  -47.16   26.77
   4.720  -54.23   81.82   -0.06  -16.36   -0.06  -16.37  -46.80   24.97
   4.743  -51.86   69.50   -0.06  -16.47   -0.06  -16.49  -46.21   31.35
   4.765  -50.19   64.55   -0.06  -16.59   -0.05  -16.59  -44.91   30.95
   4.788  -48.95   59.76   -0.06  -16.71   -0.05  -16.72  -44.94   28.45
   4.810  -48.06   59.01   -0.06  -16.82   -0.05  -16.83  -45.12   34.26
   4.833  -47.08   57.78   -0.06  -16.93   -0.05  -16.93  -43.99   39.01
   4.855  -46.03   57.17   -0.05  -17.04   -0.05  -17.05  -43.34   36.77
   4.878  -45.26   55.84   -0.06  -17.15   -0.05  -17.16  -43.48   38.04
   4.900  -44.50   55.41   -0.06  -17.26   -0.06  -17.26  -42.80   43.69
   4.923  -43.69   54.46   -0.06  -17.37   -0.06  -17.38  -41.73   42.26
   4.945  -43.05   52.66   -0.06  -17.48   -0.06  -17.49  -41.65   40.70
   4.968  -42.41   51.19   -0.06  -17.58   -0.06  -17.59  -41.50   43.51
   4.990  -41.74   50.10   -0.07  -17.68   -0.07  -17.69  -40.58   44.06
   5.013  -41.18   47.51   -0.07  -17.78   -0.07  -17.79  -40.16   39.68
   5.035  -40.73   44.99   -0.08  -17.87   -0.07  -17.87  -40.34   38.25
   5.058  -40.45   42.64   -0.08  -17.95   -0.08  -17.96  -39.94   40.74
   5.080  -40.07   39.47   -0.08  -18.02   -0.08  -18.04  -39.28   36.40
   5.103  -39.88   36.34   -0.09  -18.09   -0.09  -18.10  -39.79   30.34
   5.125  -39.94   33.23   -0.09  -18.15   -0.09  -18.16  -40.52   32.93
   5.148  -40.06   31.00   -0.09  -18.20   -0.09  -18.21  -40.12   33.78
   5.170  -40.34   29.57   -0.09  -18.26   -0.09  -18.26  -40.40   28.60
   5.193  -40.71   29.12   -0.09  -18.33   -0.09  -18.32  -41.83   29.61
   5.215  -41.03   30.09   -0.08  -18.38   -0.08  -18.39  -41.92   39.09
   5.238  -41.26   31.51   -0.08  -18.47   -0.08  -18.47  -41.43   38.94
   5.260  -41.39   33.59   -0.08  -18.55   -0.07  -18.56  -42.29   38.74
   5.283  -41.45   36.62   -0.07  -18.65   -0.07  -18.65  -42.63   49.16
   5.305  -41.33   39.26   -0.07  -18.74   -0.07  -18.74  -41.34   53.36
   5.328  -41.09   41.41   -0.07  -18.83   -0.07  -18.84  -41.25   50.39
   5.350  -40.94   43.27   -0.06  -18.94   -0.06  -18.94  -41.84   55.64
   5.373  -40.67   45.67   -0.06  -19.04   -0.06  -19.04  -40.88   60.56
   5.395  -40.34   47.44   -0.06  -19.13   -0.06  -19.14  -40.29   59.91
   5.418  -40.04   48.74   -0.06  -19.23   -0.06  -19.24  -40.46   60.12
   5.440  -39.73   49.57   -0.06  -19.33   -0.06  -19.33  -40.14   64.60
   5.463  -39.35   50.79   -0.06  -19.43   -0.06  -19.43  -39.35   64.72
   5.485  -39.04   51.28   -0.06  -19.52   -0.06  -19.53  -39.25   62.91
   5.508  -38.80   51.85   -0.06  -19.62   -0.06  -19.63  -39.31   65.81
   5.530  -38.46   52.78   -0.06  -19.71   -0.06  -19.72  -38.63   67.84
   5.553  -38.17   52.64   -0.06  -19.82   -0.06  -19.82  -38.23   65.76
   5.575  -37.89   52.84   -0.06  -19.91   -0.06  -19.92  -38.53   65.55
   5.598  -37.67   53.58   -0.06  -20.01   -0.06  -20.02  -38.20   69.94
   5.620  -37.40   53.73   -0.06  -20.10   -0.06  -20.11  -37.41   68.44
   5.643  -37.14   53.75   -0.06  -20.19   -0.06  -20.21  -37.58   65.78
   5.665  -36.90   54.11   -0.06  -20.30   -0.06  -20.30  -37.60   68.85
   5.688  -36.67   54.60   -0.06  -20.39   -0.06  -20.40  -37.03   70.16
   5.710  -36.38   54.65   -0.06  -20.49   -0.06  -20.50  -36.73   68.28
   5.733  -36.16   54.70   -0.06  -20.59   -0.06  -20.59  -36.81   68.51
   5.755  -35.92   54.86   -0.06  -20.69   -0.06  -20.69  -36.47   70.67
   5.778  -35.65   55.04   -0.06  -20.78   -0.06  -20.78  -36.04   69.45
   5.800  -35.44   54.88   -0.06  -20.88   -0.06  -20.88  -36.05   68.11
   5.823  -35.21   54.96   -0.06  -20.97   -0.06  -20.98  -36.01   69.80
   5.845  -34.96   55.19   -0.06  -21.07   -0.06  -21.07  -35.53   70.49
   5.868  -34.73   55.14   -0.06  -21.16   -0.06  -21.17  -35.27   68.76
   5.890  -34.52   55.13   -0.06  -21.26   -0.06  -21.26  -35.34   68.40
   5.913  -34.30   55.13   -0.07  -21.36   -0.06  -21.36  -35.06   69.97
   5.935  -34.06   55.16   -0.07  -21.45   -0.06  -21.46  -34.65   68.84
   5.958  -33.86   55.06   -0.07  -21.55   -0.06  -21.56  -34.61   67.58
   5.980  -33.65   55.09   -0.07  -21.65   -0.06  -21.66  -34.57   68.57
   6.003  -33.42   55.28   -0.06  -21.75   -0.06  -21.76  -34.13   68.88
   6.025  -33.16   55.34   -0.06  -21.86   -0.06  -21.87  -33.94   67.28
   6.048  -32.94   55.20   -0.06  -21.96   -0.06  -21.98  -33.94   67.09
   6.070  -32.70   55.25   -0.06  -22.07   -0.06  -22.08  -33.66   67.82
   6.093  -32.41   55.08   -0.07  -22.18   -0.06  -22.20  -33.29   66.59
   6.115  -32.17   54.66   -0.07  -22.29   -0.06  -22.30  -33.23   65.05
   6.138  -31.94   54.60   -0.07  -22.40   -0.07  -22.41  -33.14   65.71
   6.160  -31.67   54.24   -0.07  -22.51   -0.07  -22.52  -32.76   65.52
   6.183  -31.45   53.71   -0.07  -22.62   -0.07  -22.63  -32.56   63.54
   6.205  -31.22   53.30   -0.07  -22.72   -0.07  -22.75  -32.59   63.10
   6.228  -31.01   53.02   -0.08  -22.84   -0.08  -22.85  -32.35   63.55
   6.250  -30.78   52.51   -0.08  -22.96   -0.08  -22.96  -32.03   62.25
   6.273  -30.57   52.00   -0.08  -23.06   -0.08  -23.07  -31.97   60.86
