!  American Technical Ceramics  Date:   10/26/00
!  One Norden Lane
!  Huntington Station,  NY.   11746-2102
!  Tel:  (631) 622-4700               Fax:  (631) 622-4748
!  Part Number  600S110JW      Mounting Orientation: Horizontal
!  Description: Ultra Low ESR Microwave capacitors
!  Application: Coupling, Bypass, Tuning, DC Block
!               Filters, Matching
# GHZ S DB R 50
! Freq   |S11|   S11 Ph  |S21|   S21 Ph  |S12|   S12 Ph  |S22|   S22 Ph
   0.000   0.00    0.00	  -999.00  90.00  -999.00  90.00    0.00    0.00
   0.400   -9.49  -71.02   -0.56   18.43   -0.56   18.49   -9.46  -70.27
   0.444  -10.30  -73.03   -0.45   16.39   -0.47   16.26  -10.31  -72.46
   0.488  -11.08  -74.85   -0.39   14.75   -0.39   14.79  -11.08  -73.73
   0.532  -11.82  -76.03   -0.32   13.24   -0.34   13.10  -11.79  -75.49
   0.576  -12.49  -77.55   -0.29   11.99   -0.29   12.05  -12.48  -76.30
   0.620  -13.12  -78.46   -0.25   10.83   -0.25   10.75  -13.10  -77.90
   0.664  -13.71  -79.72   -0.22    9.83   -0.22    9.85  -13.71  -78.52
   0.708  -14.30  -80.29   -0.19    8.91   -0.20    8.87  -14.28  -79.67
   0.752  -14.83  -81.29   -0.17    8.08   -0.18    8.07  -14.82  -80.16
   0.796  -15.35  -81.81   -0.16    7.29   -0.15    7.31  -15.36  -81.24
   0.840  -15.84  -82.93   -0.15    6.64   -0.14    6.63  -15.86  -81.63
   0.884  -16.33  -83.14   -0.13    5.99   -0.13    6.00  -16.30  -82.47
   0.928  -16.78  -83.91   -0.12    5.38   -0.12    5.34  -16.78  -82.96
   0.972  -17.22  -84.37   -0.11    4.79   -0.11    4.84  -17.25  -83.48
   1.016  -17.67  -85.10   -0.10    4.29   -0.10    4.23  -17.65  -84.06
   1.060  -18.06  -85.45   -0.09    3.77   -0.09    3.81  -18.05  -84.60
   1.104  -18.50  -85.78   -0.09    3.32   -0.09    3.28  -18.46  -85.01
   1.148  -18.89  -86.14   -0.08    2.85   -0.08    2.89  -18.89  -85.32
   1.192  -19.30  -86.62   -0.08    2.42   -0.07    2.38  -19.26  -85.85
   1.236  -19.66  -87.01   -0.07    2.04   -0.07    2.04  -19.60  -86.06
   1.280  -20.03  -87.13   -0.07    1.61   -0.06    1.61  -19.97  -86.72
   1.324  -20.42  -87.50   -0.06    1.25   -0.06    1.25  -20.36  -86.53
   1.368  -20.76  -87.52   -0.06    0.84   -0.06    0.87  -20.72  -87.12
   1.412  -21.12  -88.01   -0.06    0.49   -0.06    0.50  -21.05  -87.31
   1.456  -21.45  -88.00   -0.06    0.14   -0.06    0.19  -21.40  -87.75
   1.500  -21.82  -88.35   -0.05   -0.17   -0.05   -0.18  -21.76  -87.62
   1.544  -22.17  -88.00   -0.05   -0.51   -0.05   -0.48  -22.09  -88.20
   1.588  -22.50  -88.59   -0.05   -0.80   -0.05   -0.81  -22.45  -88.38
   1.632  -22.81  -88.35   -0.05   -1.12   -0.04   -1.09  -22.75  -88.87
   1.676  -23.14  -88.77   -0.04   -1.43   -0.04   -1.44  -23.08  -88.71
   1.720  -23.46  -88.19   -0.04   -1.71   -0.05   -1.70  -23.38  -89.10
   1.764  -23.69  -88.64   -0.04   -2.00   -0.04   -2.01  -23.71  -89.57
   1.808  -24.04  -88.82   -0.04   -2.28   -0.04   -2.25  -24.01  -89.92
   1.852  -24.31  -89.03   -0.04   -2.56   -0.04   -2.56  -24.31  -90.43
   1.896  -24.64  -89.27   -0.04   -2.86   -0.04   -2.83  -24.61  -90.51
   1.940  -24.95  -89.04   -0.04   -3.13   -0.04   -3.08  -24.94  -91.09
   1.984  -25.24  -89.57   -0.04   -3.38   -0.03   -3.34  -25.28  -91.17
   2.028  -25.54  -89.33   -0.04   -3.63   -0.03   -3.60  -25.52  -91.78
   2.072  -25.83  -89.87   -0.04   -3.89   -0.03   -3.87  -25.82  -91.74
   2.116  -26.12  -89.39   -0.04   -4.16   -0.03   -4.11  -26.09  -92.44
   2.160  -26.45  -90.16   -0.04   -4.41   -0.03   -4.40  -26.43  -92.28
   2.204  -26.74  -89.64   -0.03   -4.65   -0.03   -4.62  -26.71  -93.12
   2.248  -26.98  -90.24   -0.03   -4.90   -0.03   -4.88  -26.97  -92.90
   2.292  -27.31  -89.81   -0.03   -5.12   -0.03   -5.11  -27.25  -93.34
   2.336  -27.60  -89.75   -0.03   -5.39   -0.03   -5.36  -27.61  -93.31
   2.380  -27.88  -89.97   -0.04   -5.62   -0.04   -5.61  -27.91  -93.11
   2.424  -28.18  -89.74   -0.04   -5.84   -0.03   -5.82  -28.12  -93.20
   2.468  -28.47  -89.52   -0.04   -6.09   -0.04   -6.05  -28.37  -93.12
   2.512  -28.78  -88.94   -0.04   -6.29   -0.03   -6.27  -28.67  -92.93
   2.556  -29.09  -88.76   -0.04   -6.53   -0.03   -6.51  -28.88  -93.17
   2.600  -29.27  -88.27   -0.04   -6.77   -0.04   -6.71  -29.16  -93.48
   2.644  -29.49  -88.76   -0.04   -6.97   -0.04   -6.95  -29.36  -93.61
   2.688  -29.79  -87.70   -0.04   -7.20   -0.03   -7.15  -29.68  -94.09
   2.732  -30.03  -87.76   -0.04   -7.42   -0.04   -7.37  -29.94  -93.34
   2.776  -30.29  -87.92   -0.04   -7.61   -0.03   -7.59  -30.18  -94.03
   2.820  -30.58  -87.54   -0.04   -7.85   -0.04   -7.83  -30.46  -94.03
   2.864  -30.74  -87.11   -0.04   -8.03   -0.03   -8.02  -30.65  -93.97
   2.908  -31.04  -87.39   -0.04   -8.24   -0.03   -8.22  -30.84  -93.93
   2.952  -31.32  -87.34   -0.04   -8.46   -0.04   -8.44  -31.10  -93.71
   2.996  -31.48  -87.22   -0.04   -8.66   -0.04   -8.64  -31.23  -93.21
   3.040  -31.46  -90.79   -0.04   -8.88   -0.04   -8.83  -31.07  -89.49
   3.084  -31.71  -90.16   -0.04   -9.07   -0.04   -9.02  -31.28  -89.68
   3.128  -31.97  -90.38   -0.04   -9.26   -0.04   -9.22  -31.45  -90.22
   3.172  -32.09  -90.29   -0.04   -9.44   -0.04   -9.38  -31.69  -91.98
   3.216  -32.32  -90.63   -0.04   -9.65   -0.03   -9.63  -32.08  -92.17
   3.260  -32.59  -90.32   -0.04   -9.88   -0.03   -9.85  -32.47  -92.29
   3.304  -32.89  -90.64   -0.04  -10.06   -0.03  -10.05  -32.69  -91.72
   3.348  -33.08  -90.07   -0.04  -10.27   -0.03  -10.23  -32.89  -92.22
   3.392  -33.16  -90.81   -0.04  -10.47   -0.04  -10.43  -33.02  -93.33
   3.436  -33.38  -91.48   -0.04  -10.65   -0.04  -10.62  -33.37  -94.00
   3.480  -33.71  -92.29   -0.04  -10.86   -0.04  -10.84  -33.64  -94.79
   3.524  -34.07  -94.02   -0.04  -11.06   -0.04  -11.01  -34.20  -97.02
   3.568  -34.62  -95.01   -0.04  -11.22   -0.04  -11.19  -34.58  -96.64
   3.612  -35.14  -93.93   -0.04  -11.42   -0.04  -11.36  -34.91  -97.36
   3.656  -35.70  -92.94   -0.03  -11.62   -0.03  -11.57  -35.50  -97.73
   3.700  -36.27  -91.50   -0.03  -11.82   -0.03  -11.79  -35.86  -97.21
   3.744  -36.59  -89.68   -0.03  -12.04   -0.02  -11.99  -36.28  -97.87
   3.788  -36.92  -89.31   -0.03  -12.23   -0.03  -12.20  -36.77  -98.18
   3.832  -37.38  -86.23   -0.03  -12.44   -0.02  -12.42  -37.26  -97.06
   3.876  -37.64  -84.19   -0.03  -12.66   -0.02  -12.63  -37.54  -97.87
   3.920  -38.10  -83.89   -0.03  -12.85   -0.03  -12.83  -38.24  -98.44
   3.964  -38.57  -81.43   -0.03  -13.06   -0.03  -13.05  -38.51  -98.52
   4.008  -38.74  -79.54   -0.03  -13.26   -0.03  -13.24  -39.29 -100.09
   4.052  -39.42  -77.18   -0.03  -13.47   -0.03  -13.42  -39.68  -98.29
   4.096  -39.72  -73.26   -0.03  -13.66   -0.03  -13.61  -40.16 -101.30
   4.140  -40.33  -72.58   -0.03  -13.84   -0.03  -13.79  -41.28 -101.80
   4.184  -40.72  -68.08   -0.03  -14.03   -0.02  -14.02  -42.02 -101.68
   4.228  -40.82  -63.66   -0.03  -14.23   -0.03  -14.20  -42.65 -100.96
   4.272  -41.05  -60.63   -0.03  -14.42   -0.03  -14.40  -43.44 -101.74
   4.316  -41.57  -56.47   -0.03  -14.64   -0.03  -14.58  -44.58 -101.97
   4.360  -41.56  -52.37   -0.03  -14.83   -0.03  -14.81  -45.24 -106.38
   4.404  -41.64  -51.70   -0.03  -15.02   -0.03  -14.99  -46.87 -106.20
   4.448  -41.86  -44.51   -0.03  -15.23   -0.02  -15.19  -47.29 -107.13
   4.492  -41.55  -41.57   -0.03  -15.41   -0.03  -15.38  -49.96 -116.78
   4.536  -42.15  -37.77   -0.03  -15.62   -0.03  -15.60  -51.44 -109.43
   4.580  -41.82  -33.61   -0.03  -15.83   -0.02  -15.79  -52.10 -125.60
   4.624  -41.88  -31.78   -0.03  -16.01   -0.03  -16.00  -54.80 -139.86
   4.668  -41.78  -25.83   -0.03  -16.24   -0.03  -16.23  -57.69 -152.37
   4.712  -41.59  -20.54   -0.03  -16.49   -0.02  -16.42  -57.29  175.43
   4.756  -41.53  -18.32   -0.03  -16.69   -0.03  -16.63  -53.46  146.86
   4.800  -41.44  -14.33   -0.03  -16.90   -0.03  -16.89  -52.66  127.80
   4.844  -40.77   -8.84   -0.03  -17.09   -0.03  -17.07  -50.54  117.23
   4.888  -40.66   -5.58   -0.03  -17.31   -0.03  -17.27  -48.16  105.98
   4.932  -40.30    0.41   -0.04  -17.52   -0.03  -17.45  -47.32  106.27
   4.976  -39.68    1.07   -0.04  -17.76   -0.03  -17.69  -45.39  104.56
   5.020  -39.43    4.69   -0.04  -17.97   -0.04  -17.89  -44.46   97.49
   5.064  -38.67    8.40   -0.04  -18.18   -0.04  -18.13  -43.19   97.76
   5.108  -38.22   11.62   -0.04  -18.43   -0.04  -18.35  -41.76   96.08
   5.152  -37.86   12.81   -0.04  -18.66   -0.04  -18.59  -41.04   94.69
   5.196  -37.42   14.54   -0.05  -18.89   -0.05  -18.82  -40.15   94.45
   5.240  -36.68   16.06   -0.05  -19.16   -0.05  -19.08  -39.17   92.38
   5.284  -36.41   16.77   -0.05  -19.39   -0.05  -19.37  -38.23   93.16
   5.328  -36.10   19.04   -0.06  -19.66   -0.06  -19.64  -37.42   94.79
   5.372  -35.91   17.05   -0.07  -19.97   -0.07  -19.92  -36.60   96.76
   5.416  -36.23   17.07   -0.09  -20.29   -0.08  -20.24  -35.40  100.21
   5.460  -37.52   21.48   -0.12  -20.60   -0.12  -20.53  -33.29  103.85
   5.504  -38.40   53.71   -0.18  -20.65   -0.18  -20.55  -30.54  100.46
   5.548  -33.03   66.31   -0.18  -20.42   -0.18  -20.38  -28.74   87.36
   5.592  -30.26   56.03   -0.14  -20.55   -0.14  -20.50  -28.41   75.66
   5.636  -29.01   48.48   -0.12  -20.97   -0.12  -20.92  -28.30   70.42
   5.680  -28.03   44.48   -0.12  -21.38   -0.11  -21.32  -27.78   67.90
   5.724  -27.04   41.34   -0.13  -21.84   -0.13  -21.79  -27.06   65.22
   5.768  -26.02   38.02   -0.16  -22.34   -0.16  -22.25  -26.20   62.05
   5.812  -24.73   34.91   -0.20  -22.87   -0.20  -22.79  -25.04   57.98
   5.856  -23.29   30.05   -0.28  -23.47   -0.28  -23.41  -23.67   52.46
   5.900  -21.66   23.16   -0.41  -24.10   -0.41  -24.00  -22.13   44.15
   5.944  -19.95   11.56   -0.65  -24.41   -0.65  -24.30  -20.44   31.25
   5.988  -18.48   -6.76   -0.98  -23.33   -0.96  -23.19  -19.19   11.27
   6.032  -18.39  -30.73   -1.08  -20.44   -1.07  -20.39  -19.08  -14.11
   6.076  -19.93  -52.07   -0.80  -18.30   -0.79  -18.30  -20.73  -37.48
   6.120  -22.29  -65.85   -0.51  -18.14   -0.50  -18.13  -23.17  -53.71
   6.164  -24.69  -73.64   -0.33  -18.68   -0.32  -18.65  -25.77  -63.82
   6.208  -26.96  -76.30   -0.22  -19.31   -0.22  -19.22  -28.14  -69.83
   6.252  -28.94  -75.97   -0.16  -19.85   -0.16  -19.80  -30.63  -73.48
   6.296  -30.90  -74.31   -0.12  -20.33   -0.12  -20.24  -33.03  -75.45
   6.340  -32.58  -70.34   -0.10  -20.72   -0.10  -20.65  -35.50  -77.18
   6.384  -33.88  -65.05   -0.08  -21.07   -0.07  -20.99  -38.38  -76.12
   6.428  -35.13  -56.86   -0.06  -21.37   -0.06  -21.31  -41.96  -69.45
   6.472  -35.73  -46.59   -0.04  -21.64   -0.04  -21.61  -46.21  -48.63
   6.516  -35.69  -38.91   -0.01  -21.91   -0.01  -21.84  -47.90    1.05
   6.560  -34.97  -37.06    0.05  -22.25    0.04  -22.17  -41.82   23.38
   6.604  -34.88  -46.32    0.09  -23.01    0.09  -22.89  -38.68    8.56
   6.648  -37.70  -53.47    0.03  -23.71    0.05  -23.62  -39.68   -7.85
   6.692  -41.74  -40.47   -0.02  -23.96   -0.01  -23.89  -42.94   -8.59
   6.736  -43.14   -8.34   -0.04  -24.09   -0.04  -24.05  -46.85    9.11
   6.780  -41.09   15.31   -0.06  -24.19   -0.06  -24.13  -46.03   46.02
   6.824  -38.34   22.00   -0.06  -24.30   -0.06  -24.24  -42.58   59.38
   6.868  -37.02   23.08   -0.06  -24.51   -0.06  -24.45  -40.24   63.98
   6.912  -36.23   24.67   -0.06  -24.71   -0.05  -24.63  -38.79   65.49
   6.956  -35.55   26.23   -0.05  -24.89   -0.05  -24.85  -37.71   64.11
   7.000  -34.94   26.60   -0.05  -25.11   -0.05  -25.05  -36.81   64.96
   7.044  -34.51   28.93   -0.05  -25.34   -0.05  -25.28  -35.78   65.05
   7.088  -33.86   31.15   -0.05  -25.53   -0.05  -25.45  -35.27   64.72
   7.132  -33.57   31.51   -0.05  -25.74   -0.05  -25.66  -34.62   65.56
   7.176  -33.13   33.21   -0.05  -25.97   -0.05  -25.88  -34.01   64.02
   7.220  -32.59   33.65   -0.05  -26.14   -0.05  -26.08  -33.45   64.26
   7.264  -32.32   35.13   -0.05  -26.38   -0.05  -26.30  -32.91   64.77
   7.308  -31.90   36.69   -0.05  -26.57   -0.05  -26.52  -32.46   64.43
   7.352  -31.54   37.39   -0.05  -26.82   -0.05  -26.74  -32.03   64.20
   7.396  -31.14   37.64   -0.05  -27.01   -0.04  -26.95  -31.66   63.59
   7.440  -30.81   38.97   -0.05  -27.23   -0.05  -27.15  -31.16   63.55
   7.484  -30.33   39.69   -0.05  -27.41   -0.05  -27.32  -30.77   63.43
   7.528  -30.14   40.16   -0.05  -27.63   -0.05  -27.55  -30.25   62.95
   7.572  -29.66   41.19   -0.05  -27.85   -0.05  -27.78  -29.97   62.04
   7.616  -29.31   40.81   -0.05  -28.05   -0.05  -27.97  -29.48   62.52
   7.660  -29.05   41.87   -0.05  -28.26   -0.06  -28.17  -29.04   61.16
   7.704  -28.64   42.46   -0.06  -28.49   -0.05  -28.41  -28.75   60.93
   7.748  -28.39   41.66   -0.06  -28.72   -0.06  -28.63  -28.30   60.54
   7.792  -28.11   41.99   -0.06  -28.92   -0.06  -28.88  -28.00   59.22
   7.836  -27.76   42.17   -0.06  -29.17   -0.06  -29.13  -27.54   58.85
   7.880  -27.40   42.38   -0.06  -29.35   -0.05  -29.27  -27.23   57.50
   7.924  -27.27   42.15   -0.06  -29.56   -0.06  -29.51  -26.94   56.98
   7.968  -26.92   42.24   -0.07  -29.81   -0.06  -29.71  -26.67   55.49
   8.012  -26.77   40.97   -0.06  -30.02   -0.06  -29.95  -26.34   54.45
   8.056  -26.60   42.28   -0.07  -30.25   -0.06  -30.12  -26.14   52.89
   8.100  -26.41   42.15   -0.07  -30.46   -0.07  -30.40  -25.92   53.10
   8.144  -26.31   42.98   -0.07  -30.69   -0.06  -30.67  -25.67   52.16
   8.188  -25.97   44.40   -0.07  -30.95   -0.07  -30.88  -25.47   51.88
   8.232  -25.55   44.63   -0.07  -31.21   -0.07  -31.14  -25.12   51.76
   8.276  -25.27   45.15   -0.08  -31.47   -0.07  -31.34  -24.83   50.98
   8.320  -24.97   45.28   -0.08  -31.72   -0.07  -31.68  -24.61   50.70
   8.364  -26.65   58.54   -0.08  -32.00   -0.07  -31.84  -25.42   31.80
   8.408  -26.00   58.40   -0.08  -32.26   -0.09  -32.15  -24.94   32.35
   8.452  -25.23   59.05   -0.09  -32.55   -0.08  -32.35  -24.38   32.82
   8.496  -24.63   57.67   -0.10  -32.79   -0.09  -32.70  -23.85   33.23
   8.540  -24.08   57.83   -0.11  -33.11   -0.10  -32.96  -23.35   33.45
   8.584  -23.42   56.76   -0.11  -33.41   -0.11  -33.32  -22.78   33.73
   8.628  -22.87   55.91   -0.12  -33.75   -0.12  -33.61  -22.21   33.40
   8.672  -22.36   55.80   -0.14  -34.06   -0.12  -33.94  -21.76   33.37
   8.716  -21.74   54.94   -0.15  -34.37   -0.15  -34.28  -21.27   33.16
   8.760  -21.33   53.78   -0.16  -34.70   -0.17  -34.60  -20.76   32.81
   8.804  -20.78   53.39   -0.19  -35.06   -0.19  -34.96  -20.33   32.51
   8.848  -20.23   52.29   -0.21  -35.41   -0.20  -35.29  -19.81   32.37
   8.892  -19.73   51.11   -0.23  -35.75   -0.24  -35.70  -19.43   31.91
   8.936  -19.25   50.25   -0.26  -36.12   -0.26  -36.00  -18.94   31.84
   8.980  -18.73   48.68   -0.29  -36.47   -0.30  -36.35  -18.45   31.73
   9.024  -18.25   47.76   -0.32  -36.90   -0.32  -36.76  -17.89   31.54
   9.068  -17.70   46.51   -0.35  -37.37   -0.35  -37.30  -17.28   31.29
   9.112  -17.10   45.05   -0.39  -37.88   -0.39  -37.81  -16.66   30.25
   9.156  -16.52   42.75   -0.45  -38.52   -0.45  -38.42  -15.98   29.12
   9.200  -15.81   41.13   -0.53  -39.19   -0.52  -39.08  -15.30   27.60
   9.244  -15.17   37.66   -0.63  -39.88   -0.62  -39.78  -14.56   25.57
   9.288  -14.46   34.41   -0.78  -40.64   -0.77  -40.50  -13.81   22.57
   9.332  -13.70   29.62   -0.96  -41.44   -0.96  -41.26  -12.99   19.22
   9.376  -12.95   23.71   -1.24  -42.04   -1.24  -41.91  -12.20   14.14
   9.420  -12.24   16.41   -1.60  -42.27   -1.59  -42.07  -11.39    8.01
   9.464  -11.61    6.76   -2.07  -41.47   -2.08  -41.33  -10.76   -0.23
   9.508  -11.31   -4.89   -2.56  -38.94   -2.53  -38.69  -10.29  -10.38
   9.552  -11.39  -18.82   -2.82  -34.33   -2.80  -34.23  -10.35  -22.06
   9.596  -12.13  -32.76   -2.65  -29.35   -2.63  -29.37  -10.86  -33.97
   9.640  -13.34  -45.70   -2.15  -26.20   -2.13  -26.14  -11.91  -43.96
   9.684  -15.10  -56.52   -1.62  -25.13   -1.62  -25.16  -13.34  -52.11
   9.728  -17.02  -65.31   -1.19  -25.33   -1.19  -25.29  -14.86  -56.94
   9.772  -19.13  -71.88   -0.88  -26.10   -0.89  -26.07  -16.47  -59.69
   9.816  -21.50  -77.47   -0.66  -27.07   -0.66  -26.95  -18.05  -59.74
   9.860  -24.10  -81.36   -0.50  -28.02   -0.50  -27.89  -19.59  -58.25
   9.904  -27.00  -85.06   -0.39  -28.83   -0.38  -28.77  -20.96  -54.86
   9.948  -30.62  -87.83   -0.31  -29.70   -0.31  -29.58  -22.25  -50.08
   9.992  -35.92  -89.17   -0.25  -30.44   -0.25  -30.30  -23.21  -43.70
  10.036  -46.34  -89.77   -0.20  -31.12   -0.20  -31.01  -24.09  -36.34
  10.080  -45.16   88.07   -0.17  -31.75   -0.17  -31.63  -24.60  -28.29
  10.124  -37.17   83.46   -0.14  -32.33   -0.15  -32.21  -24.88  -20.84
  10.168  -33.29   82.84   -0.12  -32.90   -0.13  -32.77  -24.81  -12.56
  10.212  -30.73   81.97   -0.12  -33.35   -0.11  -33.26  -24.47   -6.22
  10.256  -29.08   81.44   -0.11  -33.81   -0.10  -33.70  -24.19   -0.53
  10.300  -27.73   81.49   -0.10  -34.21   -0.10  -34.13  -23.73    3.80
  10.344  -26.52   80.35   -0.09  -34.60   -0.08  -34.51  -23.33    6.76
  10.388  -25.64   79.65   -0.08  -34.99   -0.08  -34.83  -22.86    9.75
  10.432  -24.71   79.77   -0.08  -35.38   -0.08  -35.27  -22.56   11.42
  10.476  -23.97   78.54   -0.08  -35.77   -0.08  -35.64  -22.19   13.62
  10.520  -23.31   77.50   -0.08  -36.10   -0.08  -36.04  -21.86   14.43
  10.564  -22.75   75.77   -0.09  -36.45   -0.08  -36.31  -21.57   16.24
  10.608  -22.29   74.33   -0.10  -36.70   -0.09  -36.65  -21.29   17.16
  10.652  -21.96   73.02   -0.10  -37.03   -0.10  -36.90  -21.05   18.39
  10.696  -21.63   72.33   -0.10  -37.27   -0.10  -37.18  -20.76   18.67
  10.740  -21.34   70.93   -0.10  -37.47   -0.10  -37.35  -20.57   19.32
  10.784  -21.19   69.82   -0.11  -37.74   -0.10  -37.62  -20.30   19.95
  10.828  -20.99   69.24   -0.11  -37.99   -0.10  -37.87  -20.16   20.20
  10.872  -20.87   68.33   -0.11  -38.21   -0.11  -38.07  -19.98   20.85
  10.916  -20.74   68.30   -0.11  -38.44   -0.11  -38.36  -19.82   20.84
  10.960  -20.64   67.63   -0.11  -38.64   -0.11  -38.55  -19.71   21.57
  11.004  -20.58   67.72   -0.11  -38.86   -0.11  -38.74  -19.57   21.72
  11.048  -20.50   67.96   -0.11  -39.06   -0.10  -38.94  -19.48   22.03
  11.092  -20.33   68.47   -0.11  -39.26   -0.11  -39.16  -19.35   22.14
  11.136  -20.19   68.62   -0.10  -39.46   -0.09  -39.29  -19.28   22.75
  11.180  -20.04   68.88   -0.10  -39.67   -0.10  -39.53  -19.19   23.25
  11.224  -19.87   68.75   -0.09  -39.88   -0.09  -39.76  -19.08   23.71
  11.268  -19.70   68.60   -0.08  -40.10   -0.08  -39.95  -18.97   24.23
  11.312  -19.57   68.66   -0.07  -40.32   -0.07  -40.25  -18.83   24.73
  11.356  -19.40   68.22   -0.07  -40.54   -0.07  -40.42  -18.77   25.00
  11.400  -19.31   67.71   -0.06  -40.78   -0.06  -40.65  -18.66   25.33
  11.444  -19.18   67.55   -0.06  -40.99   -0.06  -40.90  -18.49   25.54
  11.488  -19.08   67.29   -0.06  -41.24   -0.06  -41.16  -18.37   25.47
  11.532  -19.00   67.04   -0.05  -41.47   -0.05  -41.37  -18.36   25.45
  11.576  -18.91   66.53   -0.04  -41.69   -0.05  -41.57  -18.30   25.49
  11.620  -18.80   66.07   -0.05  -41.92   -0.04  -41.85  -18.18   25.38
  11.664  -18.71   65.70   -0.05  -42.18   -0.05  -42.10  -18.15   25.34
  11.708  -18.71   65.28   -0.04  -42.44   -0.04  -42.32  -18.11   25.43
  11.752  -18.61   64.66   -0.04  -42.66   -0.03  -42.57  -18.13   25.24
  11.796  -18.61   63.77   -0.05  -42.94   -0.04  -42.76  -18.03   25.52
  11.840  -18.55   63.59   -0.05  -43.18   -0.05  -43.09  -18.00   24.92
  11.884  -18.53   63.05   -0.04  -43.43   -0.04  -43.31  -18.07   25.12
