!  American Technical Ceramics  Date:   10/26/00
!  One Norden Lane
!  Huntington Station,  NY.   11746-2102
!  Tel:  (631) 622-4700               Fax:  (631) 622-4748
!  Part Number  600S9R1       Mounting Orientation: Horizontal
!  Description: Ultra Low ESR Microwave capacitors
!  Application: Coupling, Bypass, Tuning, DC Block
!               Filters, Matching
# GHZ S DB R 50
! Freq   |S11|   S11 Ph  |S21|   S21 Ph  |S12|   S12 Ph  |S22|   S22 Ph
   0.000   0.00    0.00	  -999.00  90.00  -999.00  90.00    0.00    0.00
   0.400   -8.12  -67.35   -0.80   22.06   -0.80   22.10   -8.07  -66.91
   0.444   -8.89  -69.62   -0.66   19.76   -0.68   19.56   -8.90  -69.37
   0.488   -9.63  -71.64   -0.56   17.87   -0.56   17.95   -9.63  -70.92
   0.532  -10.33  -73.06   -0.47   16.16   -0.49   15.98  -10.31  -72.97
   0.576  -10.98  -74.70   -0.42   14.71   -0.42   14.79  -10.97  -73.92
   0.620  -11.59  -75.81   -0.36   13.40   -0.37   13.31  -11.58  -75.75
   0.664  -12.15  -77.19   -0.32   12.27   -0.33   12.31  -12.16  -76.50
   0.708  -12.72  -77.89   -0.29   11.22   -0.29   11.14  -12.71  -77.83
   0.752  -13.24  -78.96   -0.26   10.28   -0.27   10.26  -13.23  -78.41
   0.796  -13.74  -79.60   -0.24    9.39   -0.24    9.39  -13.75  -79.65
   0.840  -14.22  -80.81   -0.22    8.61   -0.22    8.61  -14.22  -80.10
   0.884  -14.68  -81.15   -0.20    7.89   -0.20    7.88  -14.66  -81.13
   0.928  -15.12  -81.91   -0.18    7.20   -0.19    7.16  -15.12  -81.67
   0.972  -15.54  -82.46   -0.17    6.55   -0.17    6.61  -15.57  -82.27
   1.016  -15.98  -83.20   -0.16    5.99   -0.16    5.89  -15.95  -82.92
   1.060  -16.34  -83.62   -0.15    5.41   -0.15    5.44  -16.35  -83.60
   1.104  -16.77  -84.10   -0.14    4.91   -0.14    4.84  -16.73  -84.03
   1.148  -17.14  -84.41   -0.13    4.37   -0.13    4.43  -17.14  -84.44
   1.192  -17.52  -85.03   -0.12    3.92   -0.12    3.85  -17.48  -85.09
   1.236  -17.86  -85.35   -0.11    3.49   -0.11    3.48  -17.81  -85.38
   1.280  -18.21  -85.68   -0.11    2.98   -0.11    2.98  -18.17  -86.03
   1.324  -18.58  -85.98   -0.11    2.61   -0.10    2.61  -18.53  -86.02
   1.368  -18.90  -86.16   -0.10    2.17   -0.10    2.18  -18.86  -86.58
   1.412  -19.23  -86.63   -0.09    1.79   -0.09    1.78  -19.17  -86.92
   1.456  -19.54  -86.74   -0.09    1.42   -0.09    1.46  -19.50  -87.39
   1.500  -19.88  -87.09   -0.09    1.05   -0.08    1.03  -19.82  -87.39
   1.544  -20.19  -86.96   -0.09    0.68   -0.08    0.73  -20.14  -87.97
   1.588  -20.51  -87.45   -0.08    0.38   -0.08    0.36  -20.45  -88.26
   1.632  -20.78  -87.48   -0.08    0.01   -0.08    0.06  -20.76  -88.65
   1.676  -21.11  -87.81   -0.08   -0.30   -0.08   -0.32  -21.04  -88.82
   1.720  -21.36  -87.40   -0.07   -0.59   -0.08   -0.57  -21.33  -89.02
   1.764  -21.62  -87.96   -0.07   -0.89   -0.08   -0.91  -21.59  -89.61
   1.808  -21.91  -88.03   -0.07   -1.20   -0.07   -1.18  -21.89  -89.94
   1.852  -22.16  -88.38   -0.07   -1.50   -0.06   -1.50  -22.15  -90.44
   1.896  -22.46  -88.55   -0.06   -1.80   -0.07   -1.80  -22.43  -90.64
   1.940  -22.71  -88.50   -0.06   -2.10   -0.06   -2.05  -22.71  -91.15
   1.984  -22.98  -88.90   -0.06   -2.37   -0.06   -2.36  -23.00  -91.36
   2.028  -23.25  -89.15   -0.06   -2.65   -0.06   -2.62  -23.23  -91.82
   2.072  -23.52  -89.32   -0.06   -2.91   -0.06   -2.91  -23.47  -92.04
   2.116  -23.74  -89.13   -0.06   -3.22   -0.06   -3.16  -23.74  -92.39
   2.160  -24.05  -89.74   -0.06   -3.46   -0.06   -3.46  -24.00  -92.61
   2.204  -24.30  -89.47   -0.06   -3.69   -0.05   -3.68  -24.27  -93.07
   2.248  -24.50  -90.17   -0.06   -3.96   -0.05   -3.96  -24.46  -93.17
   2.292  -24.78  -89.65   -0.05   -4.20   -0.06   -4.19  -24.72  -93.55
   2.336  -25.03  -89.72   -0.06   -4.48   -0.06   -4.47  -25.00  -93.47
   2.380  -25.28  -90.04   -0.06   -4.73   -0.06   -4.71  -25.28  -93.60
   2.424  -25.54  -90.08   -0.06   -4.98   -0.05   -4.96  -25.44  -93.74
   2.468  -25.73  -89.73   -0.06   -5.22   -0.06   -5.19  -25.66  -93.69
   2.512  -25.99  -89.73   -0.06   -5.42   -0.06   -5.41  -25.89  -93.61
   2.556  -26.29  -89.58   -0.06   -5.69   -0.06   -5.67  -26.14  -93.80
   2.600  -26.43  -89.38   -0.06   -5.92   -0.06   -5.86  -26.33  -94.12
   2.644  -26.61  -89.85   -0.06   -6.14   -0.06   -6.11  -26.46  -94.20
   2.688  -26.83  -88.85   -0.06   -6.35   -0.06   -6.30  -26.71  -94.39
   2.732  -27.04  -89.29   -0.06   -6.58   -0.06   -6.54  -26.92  -94.02
   2.776  -27.25  -89.60   -0.06   -6.79   -0.06   -6.75  -27.12  -94.86
   2.820  -27.44  -89.72   -0.06   -7.02   -0.06   -7.00  -27.28  -94.92
   2.864  -27.61  -89.13   -0.06   -7.21   -0.06   -7.19  -27.47  -94.92
   2.908  -27.86  -89.61   -0.06   -7.45   -0.06   -7.41  -27.66  -94.82
   2.952  -28.08  -89.72   -0.06   -7.64   -0.06   -7.63  -27.88  -95.19
   2.996  -28.23  -90.01   -0.06   -7.87   -0.06   -7.84  -27.95  -94.95
   3.040  -28.21  -91.81   -0.06   -8.10   -0.06   -8.05  -27.90  -92.26
   3.084  -28.41  -91.61   -0.07   -8.28   -0.06   -8.23  -28.11  -92.38
   3.128  -28.62  -91.99   -0.06   -8.48   -0.06   -8.43  -28.26  -92.70
   3.172  -28.67  -92.17   -0.06   -8.65   -0.06   -8.61  -28.34  -94.12
   3.216  -28.82  -92.73   -0.06   -8.86   -0.06   -8.86  -28.64  -94.37
   3.260  -29.05  -92.44   -0.06   -9.11   -0.05   -9.05  -28.94  -94.37
   3.304  -29.30  -92.99   -0.06   -9.30   -0.06   -9.27  -29.14  -93.96
   3.348  -29.42  -92.86   -0.06   -9.50   -0.06   -9.45  -29.26  -94.62
   3.392  -29.46  -93.45   -0.06   -9.70   -0.06   -9.67  -29.33  -95.00
   3.436  -29.61  -93.97   -0.06   -9.88   -0.06   -9.85  -29.55  -95.66
   3.480  -29.89  -94.93   -0.06  -10.11   -0.06  -10.07  -29.79  -96.16
   3.524  -30.08  -95.85   -0.06  -10.30   -0.06  -10.23  -30.09  -97.79
   3.568  -30.40  -97.37   -0.06  -10.44   -0.06  -10.43  -30.34  -97.64
   3.612  -30.80  -96.79   -0.06  -10.64   -0.05  -10.60  -30.60  -97.79
   3.656  -31.19  -96.47   -0.05  -10.85   -0.05  -10.79  -30.90  -98.12
   3.700  -31.48  -95.86   -0.05  -11.07   -0.05  -11.03  -31.19  -98.12
   3.744  -31.70  -95.59   -0.05  -11.25   -0.05  -11.22  -31.37  -98.28
   3.788  -31.94  -95.19   -0.05  -11.49   -0.05  -11.44  -31.70  -98.55
   3.832  -32.24  -94.01   -0.05  -11.69   -0.05  -11.66  -31.96  -97.89
   3.876  -32.45  -93.65   -0.05  -11.92   -0.04  -11.87  -32.08  -98.36
   3.920  -32.64  -93.81   -0.05  -12.11   -0.04  -12.05  -32.45  -99.06
   3.964  -33.03  -93.41   -0.04  -12.31   -0.04  -12.29  -32.67  -98.62
   4.008  -33.12  -91.95   -0.05  -12.51   -0.04  -12.47  -32.97  -99.72
   4.052  -33.54  -92.41   -0.05  -12.71   -0.05  -12.65  -33.19  -98.94
   4.096  -33.76  -90.29   -0.05  -12.90   -0.05  -12.84  -33.45 -100.21
   4.140  -34.10  -91.30   -0.05  -13.09   -0.05  -13.04  -33.89  -99.95
   4.184  -34.40  -89.31   -0.05  -13.30   -0.05  -13.24  -34.32 -100.53
   4.228  -34.52  -88.74   -0.05  -13.51   -0.05  -13.44  -34.49  -99.93
   4.272  -34.83  -87.97   -0.05  -13.68   -0.05  -13.64  -34.77 -100.44
   4.316  -35.19  -87.07   -0.05  -13.88   -0.05  -13.83  -35.24  -99.93
   4.360  -35.41  -85.73   -0.05  -14.08   -0.04  -14.04  -35.51 -101.11
   4.404  -35.46  -86.29   -0.05  -14.28   -0.04  -14.22  -35.91 -101.20
   4.448  -35.91  -84.15   -0.05  -14.47   -0.05  -14.44  -35.95 -100.79
   4.492  -35.94  -82.08   -0.05  -14.65   -0.04  -14.60  -36.75 -102.10
   4.536  -36.45  -83.31   -0.05  -14.85   -0.05  -14.82  -37.06 -100.24
   4.580  -36.63  -81.45   -0.05  -15.08   -0.05  -15.02  -37.19 -103.49
   4.624  -36.82  -82.34   -0.05  -15.26   -0.05  -15.22  -37.50 -103.39
   4.668  -37.13  -78.57   -0.05  -15.48   -0.05  -15.42  -38.10 -103.32
   4.712  -37.53  -78.13   -0.05  -15.73   -0.05  -15.65  -38.65 -103.15
   4.756  -37.95  -77.43   -0.05  -15.91   -0.05  -15.85  -39.02 -108.40
   4.800  -38.13  -77.23   -0.05  -16.12   -0.05  -16.05  -39.65 -107.43
   4.844  -38.46  -73.10   -0.05  -16.32   -0.05  -16.26  -40.19 -106.40
   4.888  -39.00  -71.12   -0.05  -16.52   -0.05  -16.46  -41.45 -108.12
   4.932  -39.66  -69.30   -0.05  -16.72   -0.05  -16.65  -41.69 -108.92
   4.976  -39.59  -67.31   -0.06  -16.94   -0.05  -16.85  -42.08 -113.63
   5.020  -39.98  -65.18   -0.06  -17.15   -0.05  -17.07  -43.37 -109.72
   5.064  -40.38  -58.06   -0.06  -17.37   -0.05  -17.29  -44.21 -112.16
   5.108  -41.04  -56.56   -0.06  -17.60   -0.05  -17.52  -45.66 -117.67
   5.152  -41.06  -54.38   -0.06  -17.82   -0.06  -17.71  -46.43 -122.47
   5.196  -41.31  -52.52   -0.06  -18.03   -0.06  -17.95  -47.76 -122.50
   5.240  -41.49  -44.00   -0.06  -18.27   -0.06  -18.20  -49.32 -130.84
   5.284  -41.45  -42.56   -0.07  -18.52   -0.07  -18.47  -51.14 -148.54
   5.328  -42.21  -44.21   -0.07  -18.76   -0.06  -18.71  -49.84 -162.53
   5.372  -42.07  -46.12   -0.08  -19.04   -0.08  -18.98  -47.88 -178.80
   5.416  -42.50  -54.18   -0.10  -19.35   -0.10  -19.26  -45.28  162.78
   5.460  -44.99  -82.16   -0.14  -19.59   -0.13  -19.48  -40.28  146.07
   5.504  -45.21  179.46   -0.19  -19.53   -0.19  -19.43  -35.89  121.04
   5.548  -39.47  105.64   -0.17  -19.27   -0.17  -19.22  -34.31   92.44
   5.592  -37.08   74.52   -0.12  -19.40   -0.12  -19.34  -34.37   72.60
   5.636  -35.77   60.69   -0.10  -19.73   -0.10  -19.67  -34.67   63.94
   5.680  -35.03   55.64   -0.09  -20.05   -0.09  -20.00  -34.44   61.20
   5.724  -34.16   53.18   -0.09  -20.39   -0.08  -20.31  -34.03   59.34
   5.768  -33.41   51.12   -0.09  -20.71   -0.09  -20.61  -33.32   57.41
   5.812  -32.46   51.51   -0.09  -21.03   -0.09  -20.93  -32.55   55.72
   5.856  -31.40   50.95   -0.10  -21.35   -0.09  -21.29  -31.68   55.01
   5.900  -30.46   51.20   -0.11  -21.74   -0.10  -21.66  -30.64   53.69
   5.944  -29.36   51.35   -0.12  -22.13   -0.11  -22.04  -29.53   52.08
   5.988  -28.17   51.23   -0.14  -22.52   -0.14  -22.42  -28.41   49.84
   6.032  -26.84   49.92   -0.16  -23.02   -0.16  -22.95  -27.11   47.16
   6.076  -25.40   48.88   -0.20  -23.56   -0.20  -23.50  -25.63   43.50
   6.120  -23.77   46.46   -0.26  -24.22   -0.27  -24.14  -24.12   39.17
   6.164  -21.98   42.15   -0.37  -24.97   -0.36  -24.89  -22.44   32.85
   6.208  -19.94   34.64   -0.56  -25.76   -0.56  -25.65  -20.41   23.33
   6.252  -17.77   22.27   -0.91  -26.12   -0.91  -25.89  -18.36    8.41
   6.296  -16.05    2.13   -1.38  -24.14   -1.36  -23.94  -16.79  -13.37
   6.340  -15.96  -23.49   -1.43  -19.57   -1.41  -19.54  -16.80  -41.27
   6.384  -17.48  -44.61   -0.96  -17.17   -0.95  -17.16  -18.48  -64.78
   6.428  -19.59  -57.22   -0.58  -17.33   -0.57  -17.28  -20.72  -80.19
   6.472  -21.57  -63.29   -0.35  -18.06   -0.35  -18.02  -23.13  -89.99
   6.516  -23.25  -66.29   -0.21  -18.80   -0.22  -18.74  -25.39  -95.85
   6.560  -24.28  -67.75   -0.10  -19.54   -0.11  -19.45  -27.62  -97.40
   6.604  -24.95  -72.51   -0.03  -20.61   -0.03  -20.45  -28.70  -92.16
   6.648  -26.38  -78.60   -0.06  -21.51   -0.04  -21.39  -29.05  -94.45
   6.692  -28.38  -81.32   -0.09  -21.93   -0.08  -21.85  -29.99 -100.54
   6.736  -30.18  -81.27   -0.10  -22.23   -0.10  -22.14  -30.99 -108.35
   6.780  -31.88  -78.46   -0.11  -22.44   -0.11  -22.34  -32.40 -112.77
   6.824  -33.19  -69.16   -0.11  -22.62   -0.11  -22.52  -34.18 -115.72
   6.868  -34.04  -62.89   -0.11  -22.88   -0.10  -22.81  -36.32 -120.83
   6.912  -34.93  -57.75   -0.09  -23.13   -0.09  -23.05  -38.11 -125.00
   6.956  -35.21  -53.97   -0.09  -23.38   -0.09  -23.31  -39.83 -125.65
   7.000  -35.62  -48.39   -0.08  -23.65   -0.08  -23.56  -42.08 -123.63
   7.044  -36.24  -41.95   -0.08  -23.90   -0.08  -23.82  -45.29 -133.84
   7.088  -37.10  -34.12   -0.08  -24.14   -0.07  -24.02  -48.83 -144.38
   7.132  -37.02  -31.82   -0.08  -24.40   -0.07  -24.27  -50.60 -160.47
   7.176  -37.30  -25.54   -0.08  -24.66   -0.07  -24.52  -58.90  155.32
   7.220  -36.91  -17.28   -0.08  -24.81   -0.07  -24.74  -54.15   96.23
   7.264  -37.40  -11.07   -0.08  -25.07   -0.08  -24.97  -47.88   88.96
   7.308  -37.47   -5.04   -0.08  -25.30   -0.07  -25.21  -46.07   82.08
   7.352  -37.11   -0.79   -0.08  -25.54   -0.07  -25.42  -44.14   74.84
   7.396  -36.39    4.32   -0.07  -25.75   -0.07  -25.68  -42.14   68.40
   7.440  -36.31   10.21   -0.07  -25.98   -0.06  -25.87  -40.47   69.70
   7.484  -35.89   16.36   -0.07  -26.17   -0.06  -26.06  -39.24   69.61
   7.528  -35.57   17.24   -0.07  -26.40   -0.06  -26.30  -38.15   66.37
   7.572  -34.84   21.89   -0.07  -26.61   -0.06  -26.53  -37.07   62.84
   7.616  -34.22   23.68   -0.07  -26.83   -0.07  -26.70  -36.07   63.72
   7.660  -34.07   28.67   -0.07  -27.06   -0.07  -26.94  -35.05   62.62
   7.704  -33.45   30.38   -0.08  -27.29   -0.07  -27.17  -34.56   61.02
   7.748  -32.96   29.99   -0.07  -27.49   -0.07  -27.39  -33.61   59.48
   7.792  -32.49   31.88   -0.07  -27.70   -0.07  -27.63  -33.04   57.59
   7.836  -32.05   34.71   -0.07  -27.94   -0.07  -27.87  -32.31   58.09
   7.880  -31.53   35.59   -0.08  -28.13   -0.06  -28.00  -31.66   55.62
   7.924  -31.33   35.43   -0.08  -28.34   -0.07  -28.24  -31.24   53.95
   7.968  -30.79   36.84   -0.08  -28.58   -0.07  -28.45  -30.71   52.22
   8.012  -30.56   36.06   -0.08  -28.78   -0.07  -28.68  -30.26   50.74
   8.056  -30.44   38.59   -0.08  -29.02   -0.07  -28.84  -29.87   49.23
   8.100  -30.16   38.70   -0.08  -29.22   -0.08  -29.11  -29.56   48.52
   8.144  -30.04   40.78   -0.08  -29.45   -0.07  -29.38  -29.26   47.83
   8.188  -29.61   43.43   -0.08  -29.69   -0.07  -29.59  -28.94   47.25
   8.232  -29.06   44.71   -0.08  -29.94   -0.08  -29.83  -28.47   47.52
   8.276  -28.69   45.98   -0.08  -30.20   -0.08  -30.02  -28.05   46.73
   8.320  -28.29   46.56   -0.09  -30.44   -0.08  -30.36  -27.81   46.25
   8.364  -30.65   67.14   -0.09  -30.70   -0.08  -30.53  -28.32   19.49
   8.408  -29.67   67.13   -0.09  -30.95   -0.08  -30.83  -27.73   20.70
   8.452  -28.52   67.87   -0.10  -31.22   -0.09  -31.01  -27.04   22.59
   8.496  -27.79   65.83   -0.10  -31.47   -0.10  -31.34  -26.44   23.52
   8.540  -27.13   66.27   -0.10  -31.74   -0.09  -31.55  -25.94   24.57
   8.584  -26.26   64.65   -0.11  -32.01   -0.11  -31.90  -25.21   25.35
   8.628  -25.57   63.79   -0.11  -32.31   -0.11  -32.13  -24.58   25.83
   8.672  -24.97   63.96   -0.13  -32.59   -0.11  -32.43  -24.08   26.51
   8.716  -24.29   63.06   -0.14  -32.87   -0.13  -32.74  -23.59   26.52
   8.760  -23.84   61.78   -0.14  -33.18   -0.15  -33.03  -23.03   26.36
   8.804  -23.19   61.63   -0.16  -33.45   -0.16  -33.33  -22.54   26.70
   8.848  -22.58   60.75   -0.17  -33.75   -0.17  -33.61  -22.02   27.07
   8.892  -22.11   59.93   -0.19  -34.03   -0.19  -33.94  -21.71   26.86
   8.936  -21.62   59.26   -0.21  -34.33   -0.20  -34.21  -21.22   27.33
   8.980  -21.08   57.94   -0.22  -34.56   -0.23  -34.45  -20.70   27.77
   9.024  -20.61   57.84   -0.23  -34.91   -0.23  -34.75  -20.22   28.52
   9.068  -20.10   57.41   -0.24  -35.27   -0.24  -35.17  -19.68   29.12
   9.112  -19.57   56.70   -0.26  -35.63   -0.25  -35.52  -19.12   28.63
   9.156  -19.02   55.44   -0.27  -36.09   -0.27  -35.99  -18.50   28.39
   9.200  -18.35   55.39   -0.30  -36.61   -0.29  -36.48  -17.89   28.40
   9.244  -17.82   53.58   -0.33  -37.08   -0.31  -36.99  -17.29   27.88
   9.288  -17.24   52.52   -0.38  -37.65   -0.36  -37.51  -16.69   26.73
   9.332  -16.56   50.46   -0.42  -38.32   -0.41  -38.15  -15.98   25.80
   9.376  -15.89   48.54   -0.49  -38.98   -0.49  -38.89  -15.31   24.28
   9.420  -15.20   46.41   -0.57  -39.81   -0.56  -39.61  -14.59   22.67
   9.464  -14.45   43.33   -0.69  -40.60   -0.69  -40.51  -13.88   20.09
   9.508  -13.69   39.72   -0.86  -41.57   -0.84  -41.30  -13.05   17.15
   9.552  -12.81   34.81   -1.08  -42.47   -1.08  -42.37  -12.25   13.28
   9.596  -11.99   28.77   -1.41  -43.29   -1.40  -43.01  -11.36    8.05
   9.640  -11.11   20.77   -1.86  -43.54   -1.86  -43.32  -10.52    1.25
   9.684  -10.45   10.51   -2.46  -42.58   -2.44  -42.29   -9.79   -8.12
   9.728  -10.02   -2.63   -3.08  -38.94   -3.05  -38.70   -9.36  -19.21
   9.772  -10.15  -17.12   -3.33  -32.84   -3.30  -32.73   -9.42  -32.41
   9.816  -10.93  -32.09   -2.96  -26.84   -2.93  -26.78  -10.08  -44.96
   9.860  -12.24  -45.11   -2.29  -23.80   -2.27  -23.75  -11.30  -56.05
   9.904  -13.92  -55.78   -1.66  -23.13   -1.64  -23.13  -12.76  -63.90
   9.948  -15.76  -64.26   -1.20  -23.85   -1.19  -23.72  -14.47  -69.57
   9.992  -17.84  -70.84   -0.88  -24.94   -0.87  -24.83  -16.08  -72.57
  10.036  -19.81  -75.72   -0.66  -26.05   -0.66  -25.94  -17.77  -73.83
  10.080  -22.18  -80.36   -0.52  -27.15   -0.51  -27.04  -19.39  -72.96
  10.124  -24.47  -82.93   -0.40  -28.12   -0.40  -27.97  -20.97  -71.12
  10.168  -27.11  -86.18   -0.33  -29.03   -0.33  -28.91  -22.48  -67.14
  10.212  -30.32  -87.75   -0.27  -29.79   -0.27  -29.66  -23.75  -60.29
  10.256  -34.48  -90.12   -0.24  -30.52   -0.23  -30.37  -24.96  -52.58
  10.300  -41.41  -99.82   -0.20  -31.14   -0.20  -31.01  -25.78  -43.03
  10.344  -56.47  151.73   -0.18  -31.69   -0.17  -31.57  -26.16  -34.55
  10.388  -40.96   94.37   -0.15  -32.22   -0.15  -32.06  -26.06  -24.99
  10.432  -35.22   91.99   -0.14  -32.77   -0.14  -32.63  -25.93  -17.89
  10.476  -31.97   89.60   -0.13  -33.26   -0.13  -33.10  -25.68  -10.90
  10.520  -29.96   86.07   -0.12  -33.70   -0.12  -33.61  -25.30   -6.92
  10.564  -28.47   82.74   -0.13  -34.14   -0.12  -33.97  -24.87   -2.39
  10.608  -27.24   79.93   -0.13  -34.49   -0.13  -34.37  -24.40    1.32
  10.652  -26.33   78.98   -0.13  -34.86   -0.12  -34.73  -24.11    4.59
  10.696  -25.66   77.62   -0.13  -35.16   -0.12  -35.04  -23.70    6.65
  10.740  -25.15   75.40   -0.13  -35.44   -0.13  -35.30  -23.32    7.85
  10.784  -24.67   73.89   -0.13  -35.74   -0.12  -35.60  -22.90    9.97
  10.828  -24.21   73.41   -0.13  -36.04   -0.13  -35.87  -22.65   11.29
  10.872  -23.99   72.59   -0.13  -36.32   -0.12  -36.14  -22.41   12.51
  10.916  -23.76   72.37   -0.13  -36.55   -0.12  -36.44  -22.17   12.53
  10.960  -23.50   71.40   -0.13  -36.81   -0.12  -36.67  -21.92   13.95
  11.004  -23.25   72.21   -0.13  -37.05   -0.13  -36.88  -21.70   14.91
  11.048  -23.10   72.90   -0.13  -37.27   -0.12  -37.11  -21.59   15.57
  11.092  -22.91   73.37   -0.12  -37.47   -0.12  -37.36  -21.41   15.64
  11.136  -22.64   73.49   -0.11  -37.72   -0.11  -37.52  -21.26   16.26
  11.180  -22.28   73.93   -0.11  -37.94   -0.10  -37.79  -21.10   17.76
  11.224  -22.04   74.24   -0.10  -38.19   -0.09  -38.05  -20.96   18.34
  11.268  -21.84   74.19   -0.10  -38.43   -0.09  -38.25  -20.85   18.96
  11.312  -21.62   73.78   -0.09  -38.65   -0.08  -38.51  -20.60   19.36
  11.356  -21.35   73.34   -0.08  -38.91   -0.08  -38.72  -20.47   20.20
  11.400  -21.16   73.39   -0.08  -39.15   -0.07  -39.00  -20.36   20.82
  11.444  -21.00   73.05   -0.08  -39.39   -0.07  -39.22  -20.18   21.03
  11.488  -20.85   72.55   -0.07  -39.65   -0.07  -39.50  -19.98   20.73
  11.532  -20.72   72.26   -0.06  -39.88   -0.06  -39.72  -19.89   21.02
  11.576  -20.55   72.20   -0.06  -40.10   -0.06  -39.95  -19.82   21.34
  11.620  -20.41   71.66   -0.06  -40.38   -0.05  -40.25  -19.69   21.03
  11.664  -20.31   71.03   -0.06  -40.63   -0.05  -40.51  -19.62   20.87
  11.708  -20.27   70.68   -0.06  -40.90   -0.05  -40.75  -19.51   20.80
  11.752  -20.12   70.30   -0.06  -41.16   -0.05  -41.01  -19.55   20.81
  11.796  -20.08   69.49   -0.06  -41.43   -0.05  -41.24  -19.44   21.00
  11.840  -20.02   69.08   -0.06  -41.65   -0.06  -41.54  -19.34   20.17
  11.884  -19.96   68.74   -0.06  -41.94   -0.06  -41.74  -19.39   20.20
