!  American Technical Ceramics  Date:   10/27/06
!  One Norden Lane
!  Huntington Station,  NY.   11746-2102
!  Tel:  (631) 622-4700               Fax:  (631) 622-4748
!  Part Number  600S3R3         Mounting Orientation: Horizontal
!  Description: Ultra Low ESR Microwave capacitors
!  Application: Coupling, Bypass, Tuning, DC Block
!               Filters, Matching
# GHZ S DB R 50
! Freq   |S11|   S11 Ph  |S21|   S21 Ph  |S12|   S12 Ph  |S22|   S22 Ph
   0.000   0.00    0.00	  -999.00  90.00  -999.00  90.00    0.00    0.00
   0.400   -2.25  -40.62   -3.97   49.10   -3.97   48.90   -2.27  -40.32
   0.465   -2.83  -45.11   -3.24   44.63   -3.22   44.54   -2.87  -44.83
   0.530   -3.41  -49.08   -2.68   40.68   -2.66   40.75   -3.45  -48.90
   0.595   -3.99  -52.61   -2.25   37.19   -2.25   37.31   -4.00  -52.50
   0.660   -4.55  -55.73   -1.90   34.10   -1.92   34.15   -4.54  -55.49
   0.725   -5.10  -58.47   -1.63   31.34   -1.64   31.25   -5.09  -57.94
   0.790   -5.64  -60.96   -1.41   28.87   -1.41   28.75   -5.67  -60.22
   0.855   -6.15  -63.21   -1.23   26.65   -1.21   26.60   -6.23  -62.61
   0.920   -6.65  -65.20   -1.08   24.67   -1.07   24.73   -6.74  -65.02
   0.985   -7.13  -67.03   -0.96   22.83   -0.96   22.93   -7.16  -66.98
   1.050   -7.59  -68.70   -0.85   21.18   -0.87   21.20   -7.57  -68.36
   1.115   -8.04  -70.24   -0.77   19.67   -0.77   19.59   -8.03  -69.36
   1.180   -8.47  -71.65   -0.69   18.26   -0.69   18.15   -8.54  -70.51
   1.245   -8.89  -72.95   -0.62   16.95   -0.61   16.91   -9.05  -72.17
   1.310   -9.28  -74.18   -0.56   15.76   -0.55   15.81   -9.43  -74.11
   1.375   -9.68  -75.29   -0.51   14.63   -0.52   14.70   -9.72  -75.40
   1.440  -10.06  -76.35   -0.47   13.55   -0.48   13.57  -10.02  -75.87
   1.505  -10.42  -77.36   -0.43   12.58   -0.44   12.49  -10.40  -76.07
   1.570  -10.79  -78.25   -0.41   11.66   -0.40   11.55  -10.89  -76.73
   1.635  -11.12  -79.12   -0.37   10.76   -0.36   10.72  -11.37  -78.24
   1.700  -11.44  -79.98   -0.35    9.93   -0.33    9.97  -11.67  -80.13
   1.765  -11.77  -80.87   -0.32    9.13   -0.32    9.19  -11.84  -81.16
   1.830  -12.11  -81.60   -0.30    8.37   -0.31    8.37  -12.05  -81.03
   1.895  -12.43  -82.34   -0.28    7.65   -0.29    7.56  -12.41  -80.59
   1.960  -12.73  -83.05   -0.26    6.94   -0.26    6.85  -12.91  -80.93
   2.025  -13.02  -83.70   -0.24    6.25   -0.23    6.23  -13.36  -82.53
   2.090  -13.32  -84.35   -0.23    5.61   -0.22    5.65  -13.59  -84.57
   2.155  -13.60  -84.95   -0.22    4.98   -0.22    5.03  -13.66  -85.49
   2.220  -13.88  -85.54   -0.20    4.36   -0.22    4.37  -13.81  -84.90
   2.285  -14.16  -86.14   -0.20    3.79   -0.20    3.71  -14.17  -83.98
   2.350  -14.43  -86.75   -0.19    3.22   -0.18    3.14  -14.69  -84.17
   2.415  -14.70  -87.28   -0.18    2.66   -0.17    2.63  -15.15  -86.03
   2.480  -14.97  -87.75   -0.18    2.13   -0.17    2.16  -15.30  -88.17
   2.545  -15.22  -88.09   -0.18    1.62   -0.18    1.65  -15.25  -88.88
   2.610  -15.43  -88.48   -0.16    1.16   -0.17    1.16  -15.36  -88.06
   2.675  -15.66  -89.18   -0.15    0.72   -0.16    0.62  -15.75  -86.82
   2.740  -15.91  -89.92   -0.15    0.21   -0.14    0.16  -16.32  -86.87
   2.805  -16.13  -90.45   -0.14   -0.27   -0.13   -0.30  -16.75  -88.97
   2.870  -16.36  -91.00   -0.14   -0.72   -0.13   -0.70  -16.81  -91.25
   2.935  -16.59  -91.68   -0.13   -1.17   -0.13   -1.16  -16.67  -91.63
   3.000  -16.83  -91.98   -0.11   -1.59   -0.12   -1.61  -16.72  -90.28
   3.065  -17.09  -92.38   -0.11   -2.02   -0.11   -2.12  -17.11  -88.70
   3.130  -17.32  -92.89   -0.11   -2.46   -0.10   -2.52  -17.70  -89.13
   3.195  -17.52  -93.39   -0.10   -2.91   -0.09   -2.93  -18.11  -92.06
   3.260  -17.75  -93.66   -0.10   -3.31   -0.10   -3.33  -18.12  -94.59
   3.325  -17.97  -93.92   -0.10   -3.76   -0.10   -3.77  -17.95  -94.55
   3.390  -18.16  -94.37   -0.09   -4.16   -0.10   -4.20  -18.03  -92.68
   3.455  -18.38  -94.98   -0.10   -4.52   -0.09   -4.62  -18.45  -90.66
   3.520  -18.61  -95.52   -0.09   -4.92   -0.09   -4.98  -19.07  -91.61
   3.585  -18.81  -95.94   -0.09   -5.30   -0.08   -5.32  -19.44  -94.97
   3.650  -19.03  -96.24   -0.09   -5.65   -0.09   -5.66  -19.33  -97.55
   3.715  -19.25  -96.67   -0.09   -6.03   -0.09   -6.05  -19.07  -97.35
   3.780  -19.46  -97.05   -0.08   -6.39   -0.09   -6.45  -19.14  -95.10
   3.845  -19.70  -97.35   -0.08   -6.70   -0.08   -6.79  -19.65  -93.59
   3.910  -19.92  -97.67   -0.08   -7.07   -0.07   -7.14  -20.41  -95.24
   3.975  -20.09  -98.03   -0.07   -7.44   -0.07   -7.46  -20.77  -99.43
   4.040  -20.30  -98.28   -0.07   -7.79   -0.07   -7.82  -20.58 -101.92
   4.105  -20.51  -98.54   -0.07   -8.18   -0.07   -8.18  -20.35 -100.79
   4.170  -20.71  -98.87   -0.06   -8.51   -0.07   -8.57  -20.50  -97.70
   4.235  -20.94  -99.15   -0.07   -8.84   -0.07   -8.93  -21.14  -95.65
   4.300  -21.15  -99.47   -0.07   -9.20   -0.06   -9.26  -21.90  -97.34
   4.365  -21.35  -99.81   -0.06   -9.54   -0.06   -9.55  -22.15 -101.85
   4.430  -21.54 -100.03   -0.06   -9.87   -0.06   -9.90  -21.81 -104.24
   4.495  -21.73 -100.18   -0.06  -10.22   -0.07  -10.24  -21.52 -102.48
   4.560  -21.97 -100.51   -0.06  -10.53   -0.06  -10.59  -21.74  -98.54
   4.625  -22.21 -100.74   -0.06  -10.82   -0.06  -10.90  -22.46  -96.13
   4.690  -22.38 -101.16   -0.06  -11.19   -0.05  -11.23  -23.18  -99.05
   4.755  -22.66 -101.35   -0.06  -11.48   -0.06  -11.50  -23.37 -104.28
   4.820  -22.87 -101.30   -0.05  -11.80   -0.05  -11.84  -22.90 -106.32
   4.885  -23.06 -101.33   -0.05  -12.17   -0.06  -12.19  -22.57 -103.83
   4.950  -23.28 -101.28   -0.05  -12.48   -0.05  -12.53  -22.87  -99.77
   5.015  -23.51 -101.53   -0.05  -12.79   -0.05  -12.87  -23.74  -98.19
   5.080  -23.73 -101.76   -0.05  -13.13   -0.04  -13.16  -24.64 -101.76
   5.145  -23.95 -101.96   -0.05  -13.43   -0.05  -13.48  -24.69 -107.58
   5.210  -24.17 -102.05   -0.05  -13.75   -0.05  -13.78  -24.06 -109.06
   5.275  -24.38 -102.05   -0.05  -14.08   -0.06  -14.12  -23.74 -105.25
   5.340  -24.63 -102.18   -0.05  -14.37   -0.05  -14.42  -24.18 -100.45
   5.405  -24.88 -102.28   -0.05  -14.64   -0.05  -14.75  -25.22  -99.11
   5.470  -25.14 -102.45   -0.05  -14.98   -0.05  -15.02  -26.14 -104.33
   5.535  -25.41 -102.49   -0.05  -15.28   -0.05  -15.32  -25.99 -110.78
   5.600  -25.66 -102.55   -0.05  -15.57   -0.05  -15.62  -25.26 -111.55
   5.665  -25.89 -102.54   -0.05  -15.91   -0.05  -15.95  -24.96 -106.90
   5.730  -26.17 -102.28   -0.05  -16.17   -0.05  -16.26  -25.56 -101.40
   5.795  -26.46 -102.23   -0.05  -16.46   -0.05  -16.55  -26.88 -100.38
   5.860  -26.73 -102.67   -0.05  -16.75   -0.05  -16.81  -27.88 -106.91
   5.925  -27.04 -103.04   -0.05  -17.03   -0.05  -17.08  -27.51 -113.96
   5.990  -27.43 -103.10   -0.05  -17.34   -0.05  -17.40  -26.64 -113.60
   6.055  -27.81 -102.74   -0.04  -17.68   -0.04  -17.72  -26.48 -107.27
   6.120  -28.13 -102.07   -0.04  -17.98   -0.04  -18.05  -27.34 -100.92
   6.185  -28.51 -101.37   -0.05  -18.25   -0.04  -18.34  -28.97 -100.23
   6.250  -28.88 -101.05   -0.05  -18.57   -0.04  -18.64  -30.04 -109.06
   6.315  -29.23 -101.00   -0.05  -18.85   -0.05  -18.92  -29.40 -116.90
   6.380  -29.54 -100.97   -0.05  -19.15   -0.05  -19.24  -28.39 -115.15
   6.445  -29.95 -100.63   -0.05  -19.47   -0.05  -19.52  -28.32 -107.38
   6.510  -30.40 -100.13   -0.04  -19.75   -0.05  -19.83  -29.49  -99.51
   6.575  -30.94  -99.87   -0.05  -20.03   -0.05  -20.09  -31.64  -99.28
   6.640  -31.55  -99.49   -0.05  -20.34   -0.04  -20.40  -32.98 -112.25
   6.705  -32.16  -98.67   -0.04  -20.61   -0.05  -20.69  -31.93 -121.25
   6.770  -32.76  -97.92   -0.05  -20.91   -0.04  -21.02  -30.71 -116.65
   6.835  -33.39  -96.38   -0.05  -21.26   -0.05  -21.31  -30.91 -105.51
   6.900  -34.05  -94.17   -0.04  -21.55   -0.04  -21.61  -32.63  -94.71
   6.965  -34.89  -92.05   -0.05  -21.84   -0.05  -21.91  -36.03  -93.72
   7.030  -35.73  -89.86   -0.05  -22.14   -0.05  -22.21  -38.24 -114.88
   7.095  -36.62  -87.27   -0.05  -22.41   -0.05  -22.52  -36.13 -126.22
   7.160  -37.57  -83.66   -0.05  -22.71   -0.05  -22.81  -34.56 -116.37
   7.225  -38.57  -78.09   -0.05  -23.05   -0.05  -23.12  -35.01  -97.70
   7.290  -39.55  -71.50   -0.05  -23.35   -0.05  -23.41  -37.38  -76.03
   7.355  -40.65  -62.09   -0.06  -23.64   -0.06  -23.73  -43.52  -55.17
   7.420  -41.37  -49.96   -0.06  -23.96   -0.05  -24.01  -57.14 -105.13
   7.485  -42.09  -37.11   -0.06  -24.22   -0.06  -24.34  -46.40 -136.01
   7.550  -42.19  -25.29   -0.06  -24.50   -0.06  -24.59  -42.47  -99.29
   7.615  -41.82  -13.26   -0.06  -24.84   -0.06  -24.91  -40.49  -55.04
   7.680  -41.06    1.25   -0.06  -25.13   -0.06  -25.20  -38.78  -13.05
   7.745  -39.74   14.04   -0.06  -25.48   -0.06  -25.56  -38.10   22.56
   7.810  -38.21   22.31   -0.06  -25.80   -0.06  -25.86  -39.19   47.74
   7.875  -36.60   28.18   -0.06  -26.08   -0.07  -26.20  -42.60   52.58
   7.940  -35.22   30.54   -0.07  -26.39   -0.07  -26.49  -42.37   18.25
   8.005  -34.25   30.03   -0.07  -26.74   -0.07  -26.81  -36.54   11.60
   8.070  -33.55   30.22   -0.06  -27.07   -0.07  -27.16  -32.98   22.71
   8.135  -32.89   32.74   -0.07  -27.43   -0.07  -27.51  -31.70   36.88
   8.200  -32.18   36.11   -0.08  -27.79   -0.08  -27.86  -32.11   48.39
   8.265  -31.34   39.73   -0.08  -28.11   -0.08  -28.23  -33.27   49.18
   8.330  -30.75   36.26   -0.09  -28.47   -0.09  -28.57  -33.34   39.62
   8.395  -29.92   38.23   -0.09  -28.84   -0.09  -28.91  -30.94   32.80
   8.460  -28.98   39.41   -0.10  -29.20   -0.10  -29.28  -28.44   36.96
   8.525  -28.11   39.97   -0.11  -29.58   -0.11  -29.68  -27.14   43.28
   8.590  -27.34   40.36   -0.11  -30.00   -0.12  -30.10  -26.99   46.70
   8.655  -26.61   40.92   -0.13  -30.37   -0.13  -30.49  -27.32   43.81
   8.720  -25.86   41.51   -0.14  -30.78   -0.14  -30.90  -27.02   35.69
   8.785  -25.06   41.73   -0.16  -31.22   -0.15  -31.27  -25.68   32.24
   8.850  -24.15   41.60   -0.16  -31.61   -0.17  -31.71  -24.33   35.88
   8.915  -23.20   40.75   -0.18  -32.12   -0.18  -32.19  -23.32   41.46
   8.980  -22.30   39.50   -0.18  -32.76   -0.18  -32.87  -22.78   44.18
   9.045  -21.40   38.00   -0.21  -33.45   -0.22  -33.56  -22.23   42.14
   9.110  -20.47   36.28   -0.27  -34.23   -0.26  -34.36  -21.10   36.68
   9.175  -19.45   33.99   -0.34  -35.06   -0.35  -35.10  -19.48   32.67
   9.240  -18.31   30.83   -0.45  -35.90   -0.45  -35.98  -17.97   30.69
   9.305  -17.05   26.35   -0.60  -36.87   -0.61  -36.95  -16.73   28.42
   9.370  -15.73   20.28   -0.83  -37.92   -0.83  -38.03  -15.61   23.18
   9.435  -14.33   11.55   -1.20  -38.65   -1.21  -38.78  -14.31   13.38
   9.500  -13.02   -1.03   -1.77  -38.16   -1.76  -38.30  -12.83   -0.31
   9.565  -12.19  -18.35   -2.34  -34.57   -2.34  -34.66  -11.81  -16.95
   9.630  -12.35  -38.07   -2.36  -28.45   -2.35  -28.51  -11.97  -35.31
   9.695  -13.53  -55.66   -1.79  -24.64   -1.79  -24.68  -13.30  -52.48
   9.760  -15.28  -68.64   -1.20  -24.04   -1.20  -24.08  -15.08  -66.19
   9.825  -17.15  -77.37   -0.80  -24.78   -0.81  -24.90  -16.69  -75.07
   9.890  -18.95  -83.33   -0.56  -25.89   -0.56  -26.01  -18.21  -78.50
   9.955  -20.63  -87.26   -0.40  -26.94   -0.40  -27.08  -19.95  -78.44
  10.020  -22.21  -89.91   -0.30  -27.87   -0.29  -27.99  -21.90  -78.30
  10.085  -23.77  -92.18   -0.23  -28.76   -0.23  -28.83  -23.73  -81.35
  10.150  -25.39  -93.78   -0.18  -29.53   -0.18  -29.58  -24.89  -85.80
  10.215  -27.06  -94.58   -0.15  -30.19   -0.15  -30.34  -25.54  -85.73
  10.280  -28.76  -94.50   -0.12  -30.85   -0.13  -30.96  -26.35  -78.87
  10.345  -30.46  -93.29   -0.11  -31.41   -0.11  -31.54  -27.78  -68.05
  10.410  -32.32  -90.56   -0.10  -31.91   -0.10  -32.04  -29.93  -58.44
  10.475  -34.35  -85.97   -0.09  -32.42   -0.09  -32.51  -32.33  -55.67
  10.540  -36.53  -79.52   -0.08  -32.86   -0.09  -32.93  -33.21  -59.92
  10.605  -39.20  -69.59   -0.08  -33.26   -0.08  -33.39  -32.34  -56.79
  10.670  -40.98  -52.04   -0.07  -33.67   -0.08  -33.79  -31.26  -44.69
  10.735  -42.10  -28.18   -0.07  -34.07   -0.07  -34.15  -30.87  -27.71
  10.800  -41.76   -4.68   -0.07  -34.39   -0.08  -34.52  -31.40  -11.11
  10.865  -40.02   11.31   -0.07  -34.78   -0.06  -34.86  -32.88   -2.16
  10.930  -38.08   22.75   -0.06  -35.10   -0.07  -35.20  -33.95   -6.23
  10.995  -36.63   30.46   -0.06  -35.39   -0.05  -35.52  -32.90  -13.58
  11.060  -35.16   32.62   -0.05  -35.73   -0.06  -35.85  -30.86  -10.18
  11.125  -34.23   33.77   -0.04  -36.08   -0.04  -36.19  -29.65   -0.24
  11.190  -33.39   35.80   -0.04  -36.44   -0.04  -36.59  -29.47   12.27
  11.255  -32.58   37.22   -0.04  -36.79   -0.03  -36.88  -30.33   21.21
  11.320  -31.96   38.26   -0.03  -37.14   -0.04  -37.26  -31.18   19.42
  11.385  -31.39   40.63   -0.03  -37.42   -0.03  -37.54  -30.76   11.91
  11.450  -30.80   40.96   -0.03  -37.77   -0.03  -37.92  -29.13   11.04
  11.515  -30.29   41.82   -0.02  -38.11   -0.02  -38.20  -27.83   16.74
  11.580  -29.88   42.59   -0.02  -38.43   -0.02  -38.61  -27.38   25.38
  11.645  -29.32   42.61   -0.02  -38.83   -0.02  -38.88  -27.96   31.38
  11.710  -28.81   43.85   -0.01  -39.13   -0.02  -39.27  -28.77   29.92
  11.775  -28.43   44.82   -0.01  -39.43   -0.02  -39.55  -28.60   23.82
  11.840  -28.01   44.81   -0.01  -39.79   -0.02  -39.95  -27.39   21.78
  11.905  -27.60   44.95   -0.01  -40.13   -0.01  -40.23  -26.25   26.67
  11.970  -27.22   44.85   -0.02  -40.45   -0.02  -40.59  -25.82   33.59
  12.035  -26.82   44.57   -0.02  -40.81   -0.03  -40.90  -26.19   38.90
  12.100  -26.46   44.53   -0.02  -41.13   -0.03  -41.26  -26.70   38.00
  12.165  -26.09   44.54   -0.03  -41.39   -0.03  -41.52  -26.52   32.53
  12.230  -25.80   44.41   -0.03  -41.74   -0.03  -41.85  -25.44   30.16
  12.295  -25.59   44.22   -0.03  -42.01   -0.04  -42.12  -24.50   32.74
  12.360  -25.32   43.98   -0.04  -42.31   -0.04  -42.42  -24.14   37.96
  12.425  -25.06   43.31   -0.04  -42.65   -0.04  -42.78  -24.45   41.15
  12.490  -24.82   43.57   -0.04  -42.96   -0.04  -43.08  -24.91   39.90
  12.555  -24.55   43.50   -0.04  -43.24   -0.04  -43.40  -24.78   35.13
  12.620  -24.33   43.41   -0.04  -43.57   -0.05  -43.64  -23.91   33.38
  12.685  -24.15   43.33   -0.04  -43.86   -0.05  -44.00  -23.18   35.75
  12.750  -23.89   43.08   -0.05  -44.16   -0.05  -44.31  -22.94   39.79
  12.815  -23.64   43.14   -0.05  -44.51   -0.04  -44.66  -23.18   42.64
  12.880  -23.42   42.98   -0.05  -44.80   -0.05  -44.95  -23.65   41.43
  12.945  -23.12   42.62   -0.06  -45.11   -0.05  -45.25  -23.46   37.02
  13.010  -22.86   42.63   -0.06  -45.45   -0.06  -45.53  -22.64   35.96
  13.075  -22.69   42.54   -0.05  -45.76   -0.06  -45.88  -22.04   38.14
  13.140  -22.44   41.67   -0.06  -46.06   -0.07  -46.23  -21.84   41.50
  13.205  -22.16   41.18   -0.07  -46.41   -0.06  -46.57  -22.05   43.43
  13.270  -21.97   40.66   -0.07  -46.72   -0.07  -46.85  -22.36   42.03
  13.335  -21.72   40.27   -0.08  -47.04   -0.07  -47.16  -22.15   37.98
  13.400  -21.52   39.73   -0.08  -47.40   -0.09  -47.48  -21.43   36.93
  13.465  -21.37   39.09   -0.09  -47.68   -0.09  -47.80  -20.90   38.83
  13.530  -21.14   38.55   -0.09  -48.00   -0.10  -48.19  -20.75   41.69
  13.595  -20.99   38.16   -0.10  -48.32   -0.10  -48.44  -21.02   43.18
  13.660  -20.77   37.65   -0.11  -48.60   -0.11  -48.76  -21.28   41.24
  13.725  -20.59   37.46   -0.12  -48.85   -0.11  -48.96  -21.00   37.66
  13.790  -20.36   37.30   -0.12  -49.14   -0.13  -49.27  -20.41   36.90
  13.855  -20.11   36.52   -0.11  -49.39   -0.11  -49.49  -20.00   38.36
  13.920  -19.89   35.78   -0.11  -49.66   -0.11  -49.87  -19.94   40.91
  13.985  -19.62   34.47   -0.09  -50.10   -0.09  -50.22  -20.19   42.20
  14.050  -19.44   33.45   -0.09  -50.47   -0.09  -50.68  -20.34   40.48
  14.115  -19.31   32.61   -0.10  -50.92   -0.10  -51.01  -20.00   37.88
  14.180  -19.19   31.83   -0.12  -51.34   -0.12  -51.45  -19.40   37.55
  14.245  -19.07   31.10   -0.13  -51.71   -0.13  -51.79  -18.90   39.22
  14.310  -18.96   30.39   -0.15  -52.06   -0.15  -52.21  -18.79   41.25
  14.375  -18.85   29.78   -0.16  -52.41   -0.16  -52.53  -18.94   41.36
  14.440  -18.69   29.53   -0.17  -52.69   -0.17  -52.84  -18.95   39.00
  14.505  -18.55   29.37   -0.18  -53.00   -0.18  -53.12  -18.59   36.19
  14.570  -18.39   29.07   -0.19  -53.37   -0.18  -53.44  -18.13   35.10
  14.635  -18.21   28.77   -0.19  -53.68   -0.20  -53.83  -17.80   35.99
  14.700  -18.02   28.20   -0.20  -54.08   -0.20  -54.22  -17.76   37.80
  14.765  -17.83   27.63   -0.20  -54.47   -0.21  -54.64  -17.96   37.29
  14.830  -17.63   27.31   -0.21  -54.83   -0.21  -54.97  -17.93   35.09
  14.895  -17.44   26.93   -0.23  -55.21   -0.22  -55.34  -17.60   33.03
  14.960  -17.24   26.49   -0.24  -55.64   -0.23  -55.74  -17.15   32.61
  15.025  -17.09   26.06   -0.25  -56.04   -0.26  -56.23  -16.81   33.57
  15.090  -16.88   25.35   -0.27  -56.46   -0.26  -56.62  -16.80   34.69
  15.155  -16.64   24.75   -0.28  -56.91   -0.28  -57.11  -16.84   33.71
  15.220  -16.42   24.36   -0.29  -57.29   -0.29  -57.44  -16.76   31.62
  15.285  -16.19   23.59   -0.32  -57.76   -0.31  -57.93  -16.42   29.66
  15.350  -15.98   23.00   -0.33  -58.24   -0.33  -58.33  -15.96   29.17
  15.415  -15.78   22.37   -0.35  -58.72   -0.36  -58.94  -15.67   30.09
  15.480  -15.57   21.62   -0.38  -59.21   -0.39  -59.37  -15.61   30.55
  15.545  -15.32   20.84   -0.41  -59.73   -0.41  -59.92  -15.59   29.39
  15.610  -15.07   20.24   -0.44  -60.18   -0.44  -60.34  -15.40   27.14
  15.675  -14.80   19.54   -0.48  -60.72   -0.47  -60.89  -14.97   25.37
  15.740  -14.51   18.96   -0.51  -61.23   -0.52  -61.34  -14.51   24.82
  15.805  -14.25   18.02   -0.55  -61.79   -0.56  -61.98  -14.21   25.08
  15.870  -13.95   17.09   -0.61  -62.37   -0.61  -62.60  -14.06   24.62
  15.935  -13.63   15.99   -0.66  -62.99   -0.65  -63.22  -13.92   22.92
  16.000  -13.31   14.83   -0.72  -63.58   -0.71  -63.77  -13.62   20.58
  16.065  -12.95   13.69   -0.79  -64.22   -0.78  -64.36  -13.12   18.48
  16.130  -12.58   12.34   -0.87  -64.89   -0.87  -65.05  -12.63   17.42
  16.195  -12.21   10.68   -0.97  -65.57   -0.97  -65.77  -12.27   16.45
  16.260  -11.82    8.73   -1.08  -66.30   -1.08  -66.58  -11.96   14.65
  16.325  -11.41    6.52   -1.20  -67.05   -1.19  -67.30  -11.64   11.68
  16.390  -10.98    4.01   -1.35  -67.80   -1.34  -68.04  -11.19    8.09
  16.455  -10.53    1.19   -1.54  -68.57   -1.53  -68.69  -10.65    4.69
  16.520  -10.11   -2.08   -1.77  -69.32   -1.77  -69.45  -10.16    1.56
  16.585   -9.68   -5.87   -2.05  -69.90   -2.06  -70.07   -9.74   -2.23
  16.650   -9.25  -10.33   -2.39  -70.23   -2.40  -70.55   -9.38   -6.97
  16.715   -8.85  -15.59   -2.80  -70.15   -2.80  -70.46   -9.03  -12.93
  16.780   -8.51  -21.50   -3.29  -69.27   -3.27  -69.53   -8.66  -19.70
  16.845   -8.27  -28.24   -3.79  -67.29   -3.78  -67.43   -8.36  -26.58
  16.910   -8.19  -35.68   -4.23  -63.86   -4.23  -63.97   -8.31  -34.21
  16.975   -8.28  -43.66   -4.48  -59.10   -4.50  -59.28   -8.44  -42.58
  17.040   -8.58  -51.87   -4.42  -53.89   -4.42  -54.17   -8.77  -51.37
  17.105   -9.09  -59.90   -4.06  -49.42   -4.06  -49.78   -9.27  -59.97
  17.170   -9.81  -67.21   -3.53  -46.40   -3.52  -46.70   -9.93  -67.38
  17.235  -10.70  -73.80   -2.98  -44.99   -2.97  -45.23  -10.88  -73.68
  17.300  -11.68  -79.40   -2.47  -44.62   -2.46  -44.85  -11.98  -79.80
  17.365  -12.81  -83.90   -2.06  -45.04   -2.06  -45.27  -13.12  -85.09
