!  American Technical Ceramics  Date:   10/26/00
!  One Norden Lane
!  Huntington Station,  NY.   11746-2102
!  Tel:  (631) 622-4700               Fax:  (631) 622-4748
!  Part Number  600S0R7AW      Mounting Orientation: Horizontal
!  Description: Ultra Low ESR Microwave capacitors
!  Application: Coupling, Bypass, Tuning, DC Block
!               Filters, Matching
# GHZ S DB R 50
! Freq   |S11|   S11 Ph  |S21|   S21 Ph  |S12|   S12 Ph  |S22|   S22 Ph
   0.000   0.00    0.00	  -999.00  90.00  -999.00  90.00    0.00    0.00
   0.400   -0.13  -11.36  -15.22   78.51  -15.23   78.43   -0.11  -11.03
   0.482   -0.19  -13.91  -13.66   75.74  -13.68   75.55   -0.25  -13.10
   0.563   -0.22  -15.86  -12.35   73.62  -12.39   73.29   -0.36  -15.66
   0.645   -0.32  -17.72  -11.24   71.65  -11.26   71.20   -0.35  -17.95
   0.726   -0.50  -19.84  -10.34   69.67  -10.32   69.18   -0.42  -19.92
   0.808   -0.49  -22.31   -9.47   67.23   -9.47   67.03   -0.54  -22.07
   0.889   -0.69  -24.09   -8.75   65.54   -8.72   65.11   -0.58  -24.06
   0.971   -0.71  -26.79   -8.10   62.98   -8.10   63.28   -0.82  -25.65
   1.052   -0.86  -28.31   -7.50   61.19   -7.50   61.14   -0.90  -28.20
   1.134   -0.95  -30.05   -6.93   59.40   -6.97   59.45   -1.02  -29.99
   1.215   -1.21  -32.10   -6.54   57.60   -6.52   57.36   -1.15  -31.82
   1.297   -1.27  -34.33   -6.05   55.34   -6.06   55.29   -1.30  -34.00
   1.378   -1.41  -35.96   -5.65   53.82   -5.61   53.77   -1.38  -35.41
   1.460   -1.56  -37.92   -5.32   51.83   -5.30   52.07   -1.61  -37.02
   1.541   -1.68  -39.49   -4.93   49.95   -4.95   49.95   -1.73  -39.52
   1.623   -1.82  -41.03   -4.61   48.48   -4.62   48.56   -1.86  -40.81
   1.704   -2.05  -42.46   -4.37   46.98   -4.37   46.76   -2.03  -42.59
   1.786   -2.18  -44.62   -4.12   44.98   -4.09   45.09   -2.21  -44.13
   1.867   -2.32  -45.85   -3.84   43.66   -3.83   43.67   -2.32  -45.67
   1.949   -2.49  -47.38   -3.65   42.01   -3.66   42.25   -2.58  -47.20
   2.030   -2.69  -49.02   -3.43   40.51   -3.42   40.36   -2.68  -48.99
   2.112   -2.83  -50.36   -3.24   39.00   -3.24   39.16   -2.88  -50.34
   2.193   -3.03  -51.77   -3.08   37.67   -3.08   37.64   -3.04  -51.77
   2.275   -3.18  -53.29   -2.91   36.12   -2.89   36.16   -3.20  -53.29
   2.356   -3.33  -54.58   -2.74   34.78   -2.73   35.02   -3.38  -54.50
   2.438   -3.53  -55.61   -2.59   33.57   -2.62   33.61   -3.55  -55.90
   2.519   -3.70  -56.98   -2.48   32.25   -2.49   32.29   -3.73  -57.25
   2.601   -3.89  -58.24   -2.38   31.08   -2.36   31.02   -3.89  -58.20
   2.682   -4.06  -59.30   -2.26   29.61   -2.28   29.77   -4.10  -59.68
   2.764   -4.21  -60.61   -2.15   28.54   -2.14   28.51   -4.23  -60.75
   2.845   -4.38  -61.49   -2.05   27.36   -2.06   27.49   -4.41  -61.87
   2.927   -4.52  -62.71   -1.97   26.24   -1.95   26.31   -4.56  -63.01
   3.008   -4.74  -63.29   -1.84   24.98   -1.86   25.01   -4.74  -65.11
   3.090   -4.89  -64.60   -1.79   24.02   -1.77   23.98   -4.90  -65.90
   3.171   -5.04  -65.44   -1.71   22.93   -1.72   23.09   -5.06  -66.94
   3.253   -5.19  -66.75   -1.62   22.04   -1.62   21.93   -5.18  -67.94
   3.334   -5.35  -67.65   -1.57   21.09   -1.56   21.08   -5.37  -68.71
   3.416   -5.50  -68.63   -1.52   20.10   -1.50   20.17   -5.51  -69.70
   3.497   -5.65  -69.73   -1.43   19.16   -1.46   19.19   -5.61  -70.56
   3.579   -5.77  -70.68   -1.38   18.48   -1.37   18.34   -5.78  -71.34
   3.660   -5.95  -71.62   -1.34   17.35   -1.35   17.44   -5.92  -72.49
   3.742   -6.06  -72.70   -1.26   16.60   -1.26   16.48   -6.05  -73.17
   3.823   -6.22  -73.37   -1.23   15.86   -1.23   15.78   -6.21  -73.88
   3.905   -6.38  -74.19   -1.21   14.97   -1.21   14.94   -6.38  -74.89
   3.986   -6.45  -75.24   -1.15   14.06   -1.15   14.02   -6.43  -75.63
   4.068   -6.63  -75.91   -1.10   13.45   -1.10   13.31   -6.65  -76.22
   4.149   -6.80  -76.72   -1.09   12.45   -1.09   12.44   -6.79  -77.29
   4.231   -6.90  -77.68   -1.01   11.73   -1.02   11.63   -6.88  -77.88
   4.312   -7.04  -78.14   -0.99   11.21   -0.98   11.16   -7.04  -78.43
   4.394   -7.18  -78.80   -0.98   10.35   -0.98   10.23   -7.19  -79.11
   4.475   -7.33  -79.76   -0.93    9.49   -0.93    9.49   -7.28  -80.11
   4.557   -7.43  -80.43   -0.89    8.99   -0.89    8.84   -7.44  -80.62
   4.638   -7.61  -81.13   -0.89    8.08   -0.88    7.98   -7.57  -81.84
   4.720   -7.70  -81.97   -0.81    7.33   -0.82    7.25   -7.67  -82.43
   4.801   -7.86  -82.48   -0.80    6.91   -0.81    6.92   -7.82  -82.78
   4.883   -7.97  -83.14   -0.80    6.22   -0.81    5.94   -8.02  -83.66
   4.964   -8.14  -83.64   -0.78    5.30   -0.75    5.34   -8.05  -84.52
   5.046   -8.23  -84.59   -0.73    4.82   -0.75    4.69   -8.24  -84.67
   5.127   -8.37  -84.82   -0.74    4.03   -0.72    3.92   -8.34  -85.99
   5.209   -8.50  -85.51   -0.68    3.38   -0.67    3.34   -8.43  -86.36
   5.290   -8.65  -86.17   -0.66    2.94   -0.68    2.97   -8.57  -86.43
   5.372   -8.72  -86.22   -0.67    2.30   -0.66    2.01   -8.76  -87.65
   5.453   -8.92  -86.98   -0.64    1.39   -0.63    1.50   -8.77  -88.04
   5.535   -8.95  -87.86   -0.62    0.90   -0.65    0.78   -8.95  -88.74
   5.616   -9.08  -88.14   -0.62    0.30   -0.60    0.10   -9.07  -89.82
   5.698   -9.25  -88.86   -0.58   -0.33   -0.58   -0.27   -9.15  -90.10
   5.779   -9.32  -89.36   -0.57   -0.71   -0.59   -0.87   -9.37  -90.65
   5.861   -9.51  -89.97   -0.58   -1.40   -0.58   -1.47   -9.44  -91.37
   5.942   -9.66  -90.50   -0.56   -1.99   -0.56   -2.00   -9.55  -91.88
   6.024   -9.71  -91.52   -0.52   -2.63   -0.56   -2.69   -9.75  -92.26
   6.105   -9.87  -91.24   -0.52   -3.06   -0.50   -3.23   -9.80  -93.29
   6.187   -9.97  -92.49   -0.49   -3.70   -0.50   -3.73   -9.96  -92.96
   6.268  -10.15  -92.26   -0.50   -4.17   -0.49   -4.31  -10.09  -94.21
   6.350  -10.31  -93.18   -0.49   -4.83   -0.48   -4.83  -10.16  -94.29
   6.431  -10.40  -94.16   -0.48   -5.45   -0.49   -5.41  -10.34  -94.46
   6.513  -10.48  -94.61   -0.44   -6.03   -0.45   -6.15  -10.47  -95.41
   6.594  -10.61  -95.07   -0.44   -6.47   -0.45   -6.63  -10.59  -95.77
   6.676  -10.77  -95.91   -0.44   -7.07   -0.44   -7.17  -10.67  -96.16
   6.757  -10.97  -96.49   -0.46   -7.50   -0.45   -7.76  -10.78  -97.21
   6.839  -11.42  -98.56   -0.51   -8.11   -0.50   -7.88  -10.78  -97.64
   6.920  -11.58  -96.63   -0.46   -8.09   -0.48   -8.22  -11.23  -99.41
   7.002  -11.53  -96.74   -0.37   -8.71   -0.40   -8.71  -11.44  -98.79
   7.083  -11.57  -96.58   -0.36   -9.16   -0.37   -9.39  -11.60  -99.23
   7.165  -11.71  -97.42   -0.35   -9.72   -0.35   -9.88  -11.71  -99.26
   7.246  -11.92  -97.99   -0.36  -10.28   -0.34  -10.36  -11.76  -99.58
   7.328  -12.02  -99.18   -0.35  -10.88   -0.35  -10.83  -11.95  -99.18
   7.409  -12.05 -100.21   -0.31  -11.47   -0.35  -11.43  -12.18  -99.83
   7.491  -12.22 -100.03   -0.30  -11.87   -0.32  -12.06  -12.30 -100.73
   7.572  -12.35 -100.62   -0.28  -12.36   -0.31  -12.53  -12.49 -101.17
   7.654  -12.66 -101.20   -0.30  -12.84   -0.28  -13.01  -12.50 -101.67
   7.735  -12.73 -102.00   -0.27  -13.37   -0.27  -13.45  -12.77 -101.55
   7.817  -12.99 -103.09   -0.28  -13.93   -0.27  -13.86  -12.89 -101.20
   7.898  -12.96 -103.25   -0.23  -14.44   -0.28  -14.54  -13.25 -102.05
   7.980  -13.22 -103.54   -0.23  -14.88   -0.25  -14.98  -13.32 -102.25
   8.061  -13.44 -103.59   -0.23  -15.29   -0.24  -15.57  -13.48 -102.98
   8.143  -13.62 -105.10   -0.22  -15.96   -0.22  -16.05  -13.57 -102.60
   8.224  -13.74 -106.10   -0.21  -16.43   -0.22  -16.51  -13.80 -102.82
   8.306  -13.92 -106.72   -0.21  -16.99   -0.24  -17.04  -14.01 -103.11
   8.387  -13.81 -109.96   -0.22  -17.80   -0.23  -17.89  -13.78 -101.69
   8.469  -14.08 -109.91   -0.20  -18.12   -0.23  -18.27  -14.01 -102.15
   8.550  -14.44 -110.55   -0.21  -18.55   -0.22  -18.65  -14.22 -102.20
   8.632  -14.75 -111.32   -0.20  -18.97   -0.20  -19.09  -14.40 -102.29
   8.713  -14.91 -111.69   -0.18  -19.43   -0.20  -19.33  -14.85 -102.11
   8.795  -15.27 -112.07   -0.17  -19.74   -0.18  -19.91  -15.07 -102.43
   8.876  -15.57 -112.46   -0.15  -20.17   -0.18  -20.29  -15.39 -102.26
   8.958  -15.85 -112.71   -0.15  -20.58   -0.16  -20.63  -15.68 -102.12
   9.039  -16.16 -112.94   -0.14  -21.03   -0.16  -21.22  -15.99 -102.13
   9.121  -16.40 -114.22   -0.12  -21.52   -0.13  -21.60  -16.35 -101.90
   9.202  -16.74 -114.91   -0.12  -21.93   -0.14  -22.05  -16.67 -101.72
   9.284  -17.15 -115.93   -0.12  -22.31   -0.12  -22.37  -17.10 -101.19
   9.365  -17.47 -117.08   -0.12  -22.78   -0.12  -22.86  -17.44 -100.52
   9.447  -17.84 -117.92   -0.11  -23.18   -0.12  -23.24  -17.84 -100.02
   9.528  -18.22 -119.06   -0.10  -23.57   -0.12  -23.71  -18.19  -99.74
   9.610  -18.67 -120.21   -0.09  -23.94   -0.10  -24.08  -18.53  -98.78
   9.691  -19.12 -121.80   -0.08  -24.35   -0.09  -24.47  -18.90  -98.42
   9.773  -19.59 -123.41   -0.06  -24.79   -0.07  -24.92  -19.31  -97.56
   9.854  -20.10 -125.40   -0.04  -25.29   -0.04  -25.39  -19.79  -96.72
   9.936  -20.59 -126.75   -0.02  -25.88   -0.04  -25.92  -20.30  -96.25
  10.017  -21.26 -128.07   -0.01  -26.34   -0.03  -26.46  -20.70  -95.52
  10.099  -21.92 -129.37   -0.01  -26.81   -0.02  -26.98  -21.15  -94.01
  10.180  -22.47 -131.02   -0.01  -27.38   -0.02  -27.49  -21.68  -92.76
  10.262  -22.89 -132.76    0.00  -27.96   -0.01  -28.00  -22.28  -91.43
  10.343  -23.43 -135.58   -0.01  -28.44   -0.02  -28.55  -22.95  -89.29
  10.425  -24.08 -139.05   -0.02  -28.95   -0.03  -29.03  -23.52  -87.00
  10.506  -25.07 -141.98   -0.02  -29.36   -0.04  -29.57  -23.85  -83.75
  10.588  -25.86 -144.03   -0.04  -29.76   -0.05  -29.90  -24.25  -80.97
  10.669  -26.70 -145.88   -0.05  -30.24   -0.05  -30.40  -24.64  -78.02
  10.751  -27.17 -147.68   -0.03  -30.69   -0.04  -30.72  -25.17  -76.08
  10.832  -27.94 -149.79   -0.03  -31.10   -0.04  -31.26  -25.45  -73.22
  10.914  -28.58 -152.22   -0.04  -31.57   -0.06  -31.79  -25.93  -70.77
  10.995  -29.07 -154.33   -0.04  -31.98   -0.04  -32.07  -26.22  -67.31
  11.077  -29.45 -157.20   -0.04  -32.37   -0.06  -32.50  -26.46  -63.85
  11.158  -29.56 -161.68   -0.04  -32.84   -0.04  -32.90  -26.82  -61.63
  11.240  -30.00 -166.60   -0.02  -33.20   -0.03  -33.32  -27.09  -59.70
  11.321  -30.29 -171.49   -0.01  -33.64   -0.03  -33.79  -27.49  -57.53
  11.403  -30.59 -176.85    0.00  -34.10    0.00  -34.24  -27.74  -53.51
  11.484  -30.76  178.23    0.01  -34.56   -0.01  -34.72  -28.00  -50.83
  11.566  -31.02  172.44    0.01  -35.05    0.00  -35.15  -28.17  -47.73
  11.647  -31.17  166.79    0.01  -35.54    0.00  -35.67  -28.38  -45.68
  11.729  -31.61  162.59    0.02  -36.01    0.01  -36.09  -28.50  -44.54
  11.810  -31.89  158.59    0.02  -36.47    0.02  -36.60  -28.56  -41.71
  11.892  -32.08  156.29    0.02  -37.07    0.02  -37.11  -29.00  -41.38
  11.973  -32.28  154.72    0.02  -37.49    0.01  -37.63  -29.16  -40.31
  12.055  -32.28  153.27    0.02  -37.94    0.02  -38.05  -29.45  -39.16
  12.136  -32.34  151.89    0.01  -38.42    0.01  -38.48  -29.75  -38.09
  12.218  -32.54  150.87    0.02  -38.91    0.00  -39.08  -29.87  -38.39
  12.299  -32.53  149.40    0.01  -39.30    0.01  -39.39  -30.14  -37.03
  12.381  -32.60  150.07    0.01  -39.80    0.00  -39.88  -30.51  -37.12
  12.462  -32.95  149.51    0.01  -40.27   -0.01  -40.36  -30.63  -38.45
  12.544  -33.12  150.71    0.01  -40.66    0.00  -40.70  -30.95  -40.06
  12.625  -33.29  151.71    0.01  -41.07   -0.02  -41.17  -31.08  -41.83
  12.707  -33.31  153.85    0.01  -41.53   -0.02  -41.65  -31.58  -42.91
  12.788  -33.67  156.26    0.00  -41.85   -0.01  -41.93  -31.83  -45.90
  12.870  -33.36  160.14    0.00  -42.33   -0.01  -42.39  -32.41  -49.36
  12.951  -33.43  163.82    0.01  -42.84   -0.01  -42.99  -32.59  -54.18
  13.033  -33.24  165.15    0.01  -43.19   -0.01  -43.29  -33.04  -57.44
  13.114  -32.92  169.38    0.00  -43.71   -0.01  -43.80  -33.40  -63.42
  13.196  -32.67  169.10    0.01  -44.18    0.01  -44.40  -33.54  -68.08
  13.277  -32.63  168.33   -0.01  -44.59   -0.02  -44.71  -33.98  -76.62
  13.359  -33.59  171.61   -0.01  -45.07   -0.02  -45.08  -34.04  -82.67
  13.440  -33.64 -179.81    0.01  -45.63   -0.01  -45.74  -34.68  -92.38
  13.522  -33.17 -172.93    0.00  -45.82   -0.03  -45.96  -34.12  -96.45
  13.603  -32.65 -169.83   -0.03  -46.40   -0.03  -46.31  -34.33 -102.46
  13.685  -32.16 -165.33    0.00  -46.84   -0.02  -46.94  -33.72 -108.46
  13.766  -31.78 -164.09   -0.01  -47.25   -0.04  -47.38  -33.62 -113.48
  13.848  -31.25 -160.73   -0.05  -47.66   -0.06  -47.70  -33.03 -118.60
  13.929  -31.14 -160.00   -0.02  -48.18   -0.04  -48.32  -33.14 -124.07
  14.011  -31.02 -157.66   -0.03  -48.49   -0.05  -48.54  -32.57 -129.02
  14.092  -30.83 -153.63   -0.04  -48.83   -0.06  -49.00  -32.74 -129.95
  14.174  -30.54 -150.82   -0.04  -49.32   -0.05  -49.35  -32.20 -133.45
  14.255  -30.37 -148.55   -0.04  -49.70   -0.06  -49.78  -31.83 -132.91
  14.337  -30.07 -146.01   -0.05  -50.06   -0.06  -50.15  -31.70 -134.44
  14.418  -29.87 -143.87   -0.04  -50.52   -0.05  -50.57  -31.00 -134.32
  14.500  -29.91 -142.55   -0.03  -50.95   -0.05  -51.00  -30.36 -134.83
  14.581  -29.76 -135.37   -0.02  -51.32   -0.04  -51.42  -29.51 -138.23
  14.663  -29.15 -131.24   -0.01  -51.86    0.00  -51.99  -29.11 -145.90
  14.744  -28.23 -131.36    0.00  -52.52   -0.01  -52.51  -29.26 -149.96
  14.826  -27.81 -132.64   -0.01  -53.04   -0.02  -53.14  -29.79 -152.83
  14.907  -27.63 -133.25   -0.03  -53.59   -0.05  -53.66  -30.19 -153.50
  14.989  -27.41 -134.67   -0.05  -54.05   -0.07  -54.06  -30.54 -151.27
  15.070  -27.27 -137.72   -0.08  -54.45   -0.08  -54.44  -30.00 -151.00
  15.152  -27.96 -140.37   -0.10  -54.82   -0.10  -54.88  -29.88 -153.12
  15.233  -28.39 -141.17   -0.10  -55.14   -0.11  -55.28  -29.90 -157.53
  15.315  -29.00 -140.05   -0.11  -55.54   -0.12  -55.59  -30.38 -159.13
  15.396  -29.79 -140.46   -0.11  -55.94   -0.12  -56.04  -30.72 -162.10
  15.478  -30.73 -138.37   -0.11  -56.30   -0.12  -56.35  -31.03 -162.68
  15.559  -31.70 -136.48   -0.12  -56.72   -0.12  -56.88  -31.42 -165.19
  15.641  -32.62 -131.33   -0.12  -57.18   -0.13  -57.31  -31.71 -168.20
  15.722  -33.70 -127.02   -0.12  -57.63   -0.12  -57.64  -32.51 -171.55
  15.804  -34.84 -122.28   -0.13  -58.08   -0.13  -58.06  -32.89 -177.92
  15.885  -36.48 -114.17   -0.13  -58.47   -0.14  -58.44  -34.10  175.28
  15.967  -37.84 -105.78   -0.14  -58.87   -0.14  -58.90  -34.73  166.32
  16.048  -39.11  -86.14   -0.15  -59.28   -0.16  -59.27  -35.79  155.54
  16.130  -40.41  -64.26   -0.16  -59.71   -0.16  -59.71  -36.30  138.37
  16.211  -39.35  -36.38   -0.16  -60.07   -0.17  -60.17  -36.71  120.23
  16.293  -37.49  -17.18   -0.16  -60.43   -0.17  -60.46  -35.85  100.82
  16.374  -34.65   -6.86   -0.16  -60.82   -0.17  -60.87  -35.00   83.46
  16.456  -32.69   -0.37   -0.16  -61.25   -0.16  -61.28  -33.35   69.93
  16.537  -31.02    2.31   -0.16  -61.66   -0.16  -61.68  -31.98   59.89
  16.619  -29.62    6.62   -0.17  -62.11   -0.17  -62.19  -30.41   54.01
  16.700  -28.37    9.13   -0.16  -62.56   -0.18  -62.46  -29.17   48.19
  16.782  -27.10   11.25   -0.19  -62.90   -0.17  -62.93  -27.63   44.83
  16.863  -26.06   13.01   -0.19  -63.45   -0.18  -63.31  -26.59   41.19
  16.945  -24.91   14.97   -0.18  -63.84   -0.17  -63.83  -25.34   37.90
  17.026  -24.10   15.94   -0.17  -64.37   -0.20  -64.37  -24.26   36.51
  17.108  -23.08   16.84   -0.20  -64.72   -0.20  -64.81  -23.46   34.18
  17.189  -22.35   18.15   -0.20  -65.13   -0.21  -65.25  -22.56   32.86
  17.271  -21.43   18.63   -0.23  -65.61   -0.23  -65.50  -21.77   30.70
  17.352  -20.62   19.58   -0.23  -66.03   -0.22  -66.08  -20.95   29.70
  17.434  -19.98   19.10   -0.24  -66.56   -0.26  -66.36  -20.19   28.09
  17.515  -19.20   19.04   -0.25  -66.82   -0.25  -66.96  -19.38   27.26
  17.597  -18.65   18.47   -0.26  -67.29   -0.26  -67.35  -18.82   25.76
  17.678  -18.03   18.67   -0.29  -67.59   -0.27  -67.57  -18.13   23.55
  17.760  -17.63   18.77   -0.30  -67.91   -0.31  -68.07  -17.63   22.83
  17.841  -17.17   19.33   -0.32  -68.49   -0.29  -68.29  -17.09   21.16
  17.923  -16.73   19.05   -0.30  -68.85   -0.34  -68.75  -16.61   21.06
  18.004  -16.17   19.29   -0.30  -69.13   -0.31  -69.28  -16.18   19.85
  18.086  -15.69   20.00   -0.32  -69.56   -0.31  -69.80  -15.79   19.23
  18.167  -15.29   19.63   -0.33  -70.18   -0.32  -69.98  -15.28   18.23
  18.249  -14.82   20.19   -0.34  -70.50   -0.31  -70.58  -14.88   17.31
  18.330  -14.50   19.99   -0.35  -71.16   -0.34  -71.02  -14.51   16.68
  18.412  -14.08   19.47   -0.34  -71.62   -0.38  -71.47  -14.13   16.44
  18.493  -13.69   19.65   -0.36  -71.90   -0.37  -72.11  -13.87   15.78
  18.575  -13.37   19.86   -0.41  -72.48   -0.37  -72.51  -13.45   14.65
  18.656  -13.07   19.53   -0.41  -72.95   -0.41  -72.98  -13.11   14.26
  18.738  -12.72   19.25   -0.43  -73.37   -0.43  -73.39  -12.81   13.58
  18.819  -12.46   19.03   -0.44  -73.79   -0.44  -73.78  -12.47   12.98
  18.901  -12.15   18.61   -0.46  -74.17   -0.49  -74.32  -12.22   12.33
  18.982  -11.90   19.00   -0.50  -74.63   -0.48  -74.81  -11.95   11.02
  19.064  -11.72   18.33   -0.52  -75.23   -0.50  -75.14  -11.62   10.39
  19.145  -11.46   17.87   -0.50  -75.65   -0.52  -75.58  -11.39    9.99
  19.227  -11.22   17.55   -0.52  -76.11   -0.52  -76.08  -11.20    9.00
  19.308  -11.03   17.88   -0.54  -76.44   -0.53  -76.47  -10.95    8.38
  19.390  -10.84   17.43   -0.56  -76.99   -0.58  -77.06  -10.82    7.59
  19.471  -10.71   18.04   -0.60  -77.46   -0.55  -77.50  -10.53    6.44
  19.553  -10.61   17.08   -0.61  -78.16   -0.61  -77.90  -10.40    6.44
  19.634  -10.37   17.01   -0.60  -78.61   -0.61  -78.38  -10.20    5.77
  19.716  -10.11   17.04   -0.60  -78.86   -0.64  -78.99  -10.15    5.18
  19.797  -10.06   17.09   -0.65  -79.32   -0.64  -79.16   -9.90    4.52
  19.879   -9.88   17.13   -0.67  -79.66   -0.69  -79.95   -9.84    3.66
  19.960   -9.86   16.46   -0.70  -80.36   -0.64  -80.32   -9.57    3.15
  20.042   -9.74   16.00   -0.72  -80.77   -0.68  -80.57   -9.47    3.32
  20.123   -9.56   15.42   -0.71  -81.45   -0.73  -81.43   -9.43    2.43
  20.205   -9.48   16.11   -0.74  -81.64   -0.73  -81.72   -9.30    1.83
  20.286   -9.39   15.71   -0.77  -82.11   -0.77  -82.10   -9.21    1.52
  20.368   -9.34   15.54   -0.82  -82.58   -0.81  -82.82   -9.07    0.45
  20.449   -9.30   15.13   -0.81  -83.25   -0.75  -83.36   -8.87   -0.02
  20.531   -9.19   14.13   -0.82  -83.62   -0.81  -83.32   -8.89    0.34
  20.612   -9.05   14.42   -0.81  -84.10   -0.83  -84.00   -8.87   -0.75
  20.694   -9.04   14.25   -0.83  -84.39   -0.82  -84.44   -8.71   -1.31
  20.775   -8.99   13.70   -0.86  -84.83   -0.87  -84.81   -8.73   -1.62
  20.857   -9.00   13.34   -0.89  -85.34   -0.89  -85.55   -8.62   -2.62
  20.938   -9.00   12.73   -0.89  -85.89   -0.83  -85.93   -8.45   -2.53
  21.020   -8.94   11.57   -0.88  -86.32   -0.88  -86.15   -8.54   -2.69
  21.101   -8.86   12.31   -0.85  -86.56   -0.90  -86.64   -8.55   -3.84
  21.183   -8.96   11.31   -0.88  -86.98   -0.85  -86.98   -8.42   -3.83
  21.264   -8.89   11.30   -0.89  -87.30   -0.92  -87.41   -8.52   -4.78
  21.346   -8.95   10.52   -0.89  -88.17   -0.89  -88.41   -8.44   -5.29
  21.427   -9.00   10.05   -0.88  -88.54   -0.84  -88.69   -8.36   -5.07
  21.509   -8.85    9.48   -0.87  -89.35   -0.88  -89.12   -8.52   -5.16
  21.590   -8.94    9.35   -0.87  -89.70   -0.86  -89.87   -8.39   -5.84
  21.672   -8.88    8.59   -0.88  -90.10   -0.87  -90.10   -8.46   -5.68
