!  American Technical Ceramics  Date:   4/26/2005
!  One Norden Lane
!  Huntington Station,  NY.   11746-2102
!  Tel:  (631) 622-4700               Fax:  (631) 622-4748
!  Part Number  600S6R8         Mounting Orientation: Horizontal
!  Description: Ultra Low ESR Microwave capacitors
!  Application: Coupling, Bypass, Tuning, DC Block
!               Filters, Matching
# GHZ S DB R 50
! Freq   |S11|   S11 Ph  |S21|   S21 Ph  |S12|   S12 Ph  |S22|   S22 Ph
   0.000   0.00    0.00	  -999.00  90.00  -999.00  90.00    0.00    0.00
   0.400   -5.83  -59.29   -1.37   29.61   -1.37   29.58   -5.82  -60.26
   0.445   -6.53  -62.16   -1.13   26.88   -1.14   26.54   -6.51  -63.21
   0.490   -7.20  -64.57   -0.96   24.45   -0.96   24.50   -7.20  -65.27
   0.535   -7.85  -66.44   -0.81   22.36   -0.82   22.02   -7.83  -67.86
   0.580   -8.45  -68.42   -0.71   20.53   -0.71   20.59   -8.44  -69.29
   0.625   -9.01  -69.83   -0.61   18.85   -0.62   18.64   -9.01  -71.51
   0.670   -9.54  -71.49   -0.53   17.44   -0.54   17.41   -9.56  -72.62
   0.715  -10.09  -72.49   -0.48   16.09   -0.48   15.91  -10.07  -74.28
   0.760  -10.58  -73.88   -0.42   14.94   -0.42   14.84  -10.56  -75.23
   0.805  -11.04  -74.61   -0.38   13.79   -0.37   13.71  -11.05  -76.65
   0.850  -11.51  -76.05   -0.35   12.79   -0.34   12.70  -11.52  -77.37
   0.895  -11.96  -76.61   -0.31   11.88   -0.30   11.82  -11.94  -78.65
   0.940  -12.38  -77.61   -0.28   11.03   -0.28   10.86  -12.37  -79.48
   0.985  -12.77  -78.27   -0.26   10.21   -0.25   10.19  -12.80  -80.27
   1.030  -13.20  -79.09   -0.23    9.50   -0.23    9.28  -13.18  -81.06
   1.075  -13.55  -79.70   -0.21    8.76   -0.21    8.74  -13.58  -81.78
   1.120  -13.95  -80.33   -0.19    8.13   -0.19    7.97  -13.93  -82.63
   1.165  -14.29  -80.89   -0.18    7.46   -0.18    7.43  -14.31  -83.18
   1.210  -14.65  -81.58   -0.17    6.88   -0.17    6.76  -14.65  -83.95
   1.255  -15.00  -82.13   -0.15    6.33   -0.15    6.24  -14.98  -84.38
   1.300  -15.33  -82.54   -0.14    5.73   -0.14    5.68  -15.35  -85.17
   1.345  -15.66  -83.21   -0.14    5.29   -0.13    5.17  -15.66  -85.49
   1.390  -15.97  -83.51   -0.12    4.75   -0.12    4.73  -15.97  -86.13
   1.435  -16.29  -84.08   -0.11    4.30   -0.11    4.16  -16.26  -86.55
   1.480  -16.58  -84.42   -0.11    3.86   -0.11    3.83  -16.60  -87.04
   1.525  -16.91  -84.86   -0.10    3.42   -0.10    3.29  -16.88  -87.43
   1.570  -17.16  -85.27   -0.10    2.97   -0.10    2.92  -17.18  -88.00
   1.615  -17.48  -85.45   -0.09    2.58   -0.09    2.46  -17.44  -88.54
   1.660  -17.72  -85.96   -0.09    2.15   -0.09    2.10  -17.78  -88.91
   1.705  -18.03  -86.45   -0.08    1.80   -0.08    1.70  -18.04  -89.43
   1.750  -18.29  -86.99   -0.08    1.45   -0.08    1.36  -18.31  -89.54
   1.795  -18.59  -87.06   -0.07    1.08   -0.07    0.99  -18.60  -90.11
   1.840  -18.83  -87.59   -0.07    0.78   -0.06    0.63  -18.85  -90.16
   1.885  -19.12  -87.72   -0.06    0.36   -0.06    0.29  -19.11  -90.73
   1.930  -19.37  -88.17   -0.06    0.05   -0.06   -0.10  -19.36  -90.91
   1.975  -19.63  -88.25   -0.06   -0.27   -0.05   -0.34  -19.62  -91.46
   2.020  -19.87  -88.62   -0.06   -0.63   -0.05   -0.76  -19.88  -91.62
   2.065  -20.14  -88.96   -0.05   -0.98   -0.05   -1.04  -20.12  -92.03
   2.110  -20.36  -89.12   -0.05   -1.26   -0.05   -1.40  -20.37  -92.24
   2.155  -20.61  -89.44   -0.05   -1.54   -0.04   -1.65  -20.61  -92.66
   2.200  -20.84  -89.60   -0.05   -1.85   -0.05   -1.97  -20.89  -93.04
   2.245  -21.08  -90.14   -0.05   -2.13   -0.04   -2.24  -21.11  -93.11
   2.290  -21.32  -90.15   -0.04   -2.43   -0.04   -2.56  -21.34  -93.58
   2.335  -21.55  -90.66   -0.04   -2.71   -0.04   -2.86  -21.57  -93.58
   2.380  -21.78  -90.43   -0.04   -3.02   -0.03   -3.12  -21.81  -94.29
   2.425  -22.00  -91.13   -0.04   -3.30   -0.05   -3.43  -22.05  -94.18
   2.470  -22.24  -90.77   -0.04   -3.59   -0.03   -3.68  -22.25  -94.77
   2.515  -22.41  -91.41   -0.04   -3.85   -0.04   -3.97  -22.49  -94.59
   2.560  -22.67  -91.27   -0.04   -4.13   -0.04   -4.20  -22.68  -95.32
   2.605  -22.83  -91.62   -0.04   -4.39   -0.04   -4.50  -22.92  -95.33
   2.650  -23.05  -91.72   -0.04   -4.63   -0.04   -4.71  -23.12  -95.76
   2.695  -23.25  -92.10   -0.04   -4.90   -0.04   -4.98  -23.35  -95.89
   2.740  -23.47  -92.03   -0.04   -5.16   -0.03   -5.24  -23.54  -96.06
   2.785  -23.62  -92.26   -0.04   -5.38   -0.04   -5.49  -23.75  -96.24
   2.830  -23.79  -92.42   -0.04   -5.62   -0.04   -5.73  -23.92  -96.36
   2.875  -23.93  -92.73   -0.04   -5.86   -0.03   -5.96  -24.07  -96.74
   2.920  -24.14  -93.23   -0.03   -6.11   -0.03   -6.22  -24.22  -96.96
   2.965  -24.29  -93.33   -0.03   -6.37   -0.03   -6.46  -24.37  -97.87
   3.010  -24.50  -93.75   -0.03   -6.62   -0.03   -6.73  -24.56  -97.96
   3.055  -24.91  -93.73   -0.03   -6.81   -0.02   -6.92  -25.01  -97.41
   3.100  -25.18  -93.93   -0.03   -7.08   -0.03   -7.18  -25.24  -97.28
   3.145  -25.37  -93.77   -0.03   -7.30   -0.03   -7.40  -25.49  -97.66
   3.190  -25.61  -93.59   -0.03   -7.54   -0.03   -7.65  -25.67  -97.50
   3.235  -25.75  -93.27   -0.03   -7.78   -0.03   -7.87  -25.92  -97.81
   3.280  -25.96  -93.93   -0.03   -7.97   -0.04   -8.07  -26.16  -97.43
   3.325  -26.15  -94.00   -0.04   -8.20   -0.03   -8.31  -26.31  -97.63
   3.370  -26.36  -93.96   -0.03   -8.39   -0.03   -8.48  -26.52  -97.73
   3.415  -26.57  -94.30   -0.03   -8.63   -0.03   -8.74  -26.70  -97.81
   3.460  -26.85  -94.55   -0.03   -8.83   -0.02   -8.93  -26.93  -98.22
   3.505  -27.05  -94.54   -0.03   -9.06   -0.03   -9.18  -27.19  -98.32
   3.550  -27.28  -94.57   -0.02   -9.28   -0.03   -9.37  -27.39  -98.53
   3.595  -27.51  -94.47   -0.02   -9.51   -0.03   -9.61  -27.59  -98.61
   3.640  -27.75  -94.94   -0.02   -9.72   -0.03   -9.84  -27.89  -98.81
   3.685  -28.02  -94.92   -0.02   -9.96   -0.02  -10.05  -28.05  -98.68
   3.730  -28.26  -94.99   -0.02  -10.17   -0.03  -10.26  -28.27  -99.28
   3.775  -28.50  -94.61   -0.02  -10.39   -0.03  -10.47  -28.50  -99.24
   3.820  -28.73  -94.90   -0.02  -10.61   -0.03  -10.70  -28.72  -99.78
   3.865  -28.92  -94.70   -0.03  -10.81   -0.03  -10.89  -29.02 -100.09
   3.910  -29.20  -95.63   -0.02  -11.04   -0.03  -11.13  -29.27 -100.38
   3.955  -29.52  -95.43   -0.02  -11.26   -0.03  -11.33  -29.53 -100.59
   4.000  -29.79  -96.32   -0.02  -11.47   -0.03  -11.57  -29.80 -101.47
   4.045  -30.19  -96.23   -0.02  -11.69   -0.03  -11.77  -30.22 -101.82
   4.090  -30.50  -96.37   -0.03  -11.91   -0.03  -12.01  -30.51 -101.91
   4.135  -30.84  -95.72   -0.03  -12.11   -0.03  -12.20  -30.94 -102.08
   4.180  -31.16  -96.62   -0.03  -12.31   -0.04  -12.40  -31.26 -101.79
   4.225  -31.64  -96.08   -0.03  -12.49   -0.04  -12.57  -31.78 -101.96
   4.270  -31.95  -96.25   -0.03  -12.71   -0.03  -12.79  -32.15 -100.98
   4.315  -32.49  -95.73   -0.03  -12.92   -0.03  -13.00  -32.52 -100.56
   4.360  -32.92  -95.06   -0.03  -13.13   -0.03  -13.20  -32.92  -99.33
   4.405  -33.38  -94.16   -0.03  -13.34   -0.03  -13.43  -33.29  -98.65
   4.450  -33.70  -93.45   -0.02  -13.55   -0.03  -13.60  -33.56  -98.07
   4.495  -34.17  -92.40   -0.03  -13.76   -0.03  -13.84  -33.93  -97.75
   4.540  -34.41  -92.80   -0.03  -13.97   -0.03  -14.04  -34.37  -98.30
   4.585  -35.01  -95.19   -0.03  -14.16   -0.03  -14.24  -35.11  -99.60
   4.630  -36.08  -95.60   -0.03  -14.34   -0.03  -14.40  -36.23  -96.89
   4.675  -37.14  -90.43   -0.01  -14.57   -0.01  -14.66  -36.35  -92.55
   4.720  -37.35  -87.50   -0.01  -14.85   -0.02  -14.90  -36.79  -91.60
   4.765  -38.00  -87.95   -0.02  -15.06   -0.02  -15.13  -37.55  -90.73
   4.810  -38.76  -86.98   -0.02  -15.32   -0.02  -15.38  -38.38  -89.07
   4.855  -39.94  -84.96   -0.02  -15.52   -0.02  -15.57  -39.25  -86.25
   4.900  -41.10  -80.35   -0.02  -15.78   -0.02  -15.81  -40.21  -83.00
   4.945  -42.55  -77.09   -0.02  -15.98   -0.03  -16.07  -41.19  -77.46
   4.990  -44.04  -68.34   -0.02  -16.22   -0.03  -16.28  -42.42  -70.88
   5.035  -45.71  -58.70   -0.02  -16.46   -0.03  -16.48  -43.32  -61.99
   5.080  -46.83  -41.04   -0.02  -16.67   -0.03  -16.75  -44.25  -51.20
   5.125  -47.67  -21.39   -0.03  -16.94   -0.03  -17.00  -44.82  -35.05
   5.170  -47.15   -1.67   -0.03  -17.16   -0.03  -17.21  -44.90  -20.76
   5.215  -45.92   20.93   -0.03  -17.41   -0.03  -17.47  -44.61   -3.07
   5.260  -43.15   33.09   -0.03  -17.69   -0.04  -17.73  -42.76   11.73
   5.305  -41.26   41.78   -0.03  -17.95   -0.04  -18.00  -41.10   21.05
   5.350  -39.24   46.34   -0.04  -18.22   -0.05  -18.28  -39.26   28.44
   5.395  -37.52   49.86   -0.04  -18.49   -0.04  -18.54  -37.71   33.35
   5.440  -35.88   52.04   -0.05  -18.81   -0.05  -18.89  -36.17   36.83
   5.485  -34.28   53.78   -0.05  -19.12   -0.05  -19.18  -34.60   40.05
   5.530  -32.84   54.39   -0.06  -19.49   -0.06  -19.54  -33.07   41.45
   5.575  -31.37   54.61   -0.07  -19.84   -0.08  -19.90  -31.64   42.49
   5.620  -29.87   54.41   -0.08  -20.29   -0.08  -20.31  -30.13   42.94
   5.665  -28.43   53.53   -0.10  -20.72   -0.11  -20.77  -28.62   42.88
   5.710  -26.84   52.62   -0.13  -21.26   -0.13  -21.31  -27.05   42.22
   5.755  -25.20   49.99   -0.17  -21.90   -0.18  -21.99  -25.31   40.49
   5.800  -23.42   46.87   -0.25  -22.63   -0.25  -22.62  -23.51   37.40
   5.845  -21.44   41.35   -0.38  -23.53   -0.37  -23.57  -21.50   32.45
   5.890  -19.23   32.66   -0.61  -24.41   -0.61  -24.37  -19.32   24.02
   5.935  -17.03   18.10   -1.03  -24.69   -1.03  -24.62  -17.06    9.93
   5.980  -15.38   -4.53   -1.56  -22.12   -1.54  -22.09  -15.44  -11.63
   6.025  -15.44  -31.24   -1.53  -16.91   -1.52  -16.97  -15.37  -37.61
   6.070  -17.10  -52.83   -1.00  -14.61   -0.99  -14.79  -16.97  -58.89
   6.115  -19.20  -66.51   -0.60  -14.94   -0.60  -15.02  -19.01  -71.94
   6.160  -21.26  -74.98   -0.38  -15.80   -0.39  -15.90  -20.91  -79.61
   6.205  -23.15  -80.05   -0.26  -16.67   -0.27  -16.72  -22.71  -84.83
   6.250  -24.78  -83.23   -0.19  -17.34   -0.19  -17.43  -24.27  -87.31
   6.295  -26.25  -85.52   -0.14  -17.95   -0.15  -18.03  -25.64  -89.05
   6.340  -27.70  -87.34   -0.12  -18.47   -0.12  -18.53  -26.93  -89.89
   6.385  -28.99  -88.07   -0.10  -18.93   -0.10  -19.00  -28.12  -90.26
   6.430  -30.29  -88.69   -0.08  -19.33   -0.09  -19.37  -29.18  -90.17
   6.475  -31.55  -88.54   -0.07  -19.67   -0.07  -19.73  -30.38  -89.92
   6.520  -32.87  -88.51   -0.07  -20.02   -0.07  -20.07  -31.39  -88.83
   6.565  -34.18  -88.85   -0.06  -20.33   -0.06  -20.38  -32.44  -87.91
   6.610  -35.64  -88.45   -0.06  -20.63   -0.06  -20.70  -33.45  -86.38
   6.655  -37.38  -87.76   -0.06  -20.90   -0.06  -20.98  -34.48  -84.86
   6.700  -39.41  -85.21   -0.06  -21.16   -0.06  -21.27  -35.66  -83.06
   6.745  -42.12  -82.02   -0.06  -21.40   -0.06  -21.50  -37.00  -80.47
   6.790  -44.90  -66.70   -0.06  -21.62   -0.06  -21.74  -38.61  -77.74
   6.835  -46.85  -43.66   -0.05  -21.83   -0.05  -21.93  -40.31  -70.74
   6.880  -45.96  -19.48   -0.05  -22.02   -0.04  -22.13  -41.56  -60.39
   6.925  -46.12   -2.93   -0.04  -22.27   -0.05  -22.39  -42.90  -47.09
   6.970  -44.69   10.94   -0.04  -22.49   -0.05  -22.57  -43.44  -31.69
   7.015  -43.82   21.74   -0.04  -22.71   -0.04  -22.80  -43.31  -16.28
   7.060  -41.97   28.93   -0.04  -22.93   -0.04  -23.00  -42.77   -2.86
   7.105  -41.30   37.21   -0.03  -23.17   -0.04  -23.25  -41.79    8.16
   7.150  -39.72   40.75   -0.03  -23.40   -0.04  -23.46  -40.77   16.85
   7.195  -39.14   43.74   -0.02  -23.59   -0.03  -23.67  -39.61   24.43
   7.240  -37.89   44.96   -0.02  -23.82   -0.02  -23.91  -38.27   27.93
   7.285  -37.31   47.63   -0.02  -24.04   -0.02  -24.10  -37.43   30.15
   7.330  -36.60   49.44   -0.01  -24.27   -0.02  -24.34  -36.55   32.19
   7.375  -36.09   52.08   -0.01  -24.49   -0.01  -24.53  -36.02   32.70
   7.420  -35.15   52.68   -0.01  -24.73   -0.02  -24.76  -35.55   36.23
   7.465  -34.55   53.91   -0.02  -24.94   -0.03  -25.01  -34.92   37.35
   7.510  -33.88   54.12   -0.02  -25.16   -0.02  -25.22  -34.37   39.74
   7.555  -33.54   53.89   -0.01  -25.39   -0.02  -25.41  -33.75   40.70
   7.600  -33.11   54.53   -0.01  -25.60   -0.03  -25.62  -33.27   42.33
   7.645  -32.61   55.38   -0.02  -25.84   -0.03  -25.89  -32.74   43.12
   7.690  -32.11   56.74   -0.02  -26.01   -0.03  -26.06  -32.22   44.43
   7.735  -31.77   56.17   -0.02  -26.20   -0.04  -26.28  -31.75   44.72
   7.780  -31.26   55.85   -0.02  -26.41   -0.04  -26.45  -31.32   45.81
   7.825  -31.09   55.18   -0.03  -26.58   -0.03  -26.62  -30.70   46.60
   7.870  -30.78   56.30   -0.03  -26.77   -0.03  -26.74  -30.28   45.50
   7.915  -30.69   56.26   -0.03  -26.99   -0.04  -27.01  -29.92   45.30
   7.960  -30.46   58.55   -0.04  -27.16   -0.03  -27.20  -29.56   44.14
   8.005  -30.04   59.98   -0.03  -27.34   -0.04  -27.36  -29.42   44.74
   8.050  -29.49   60.64   -0.04  -27.55   -0.04  -27.55  -29.16   44.75
   8.095  -29.10   60.50   -0.04  -27.75   -0.05  -27.82  -28.98   45.31
   8.140  -28.68   60.83   -0.03  -27.93   -0.04  -27.99  -28.73   46.10
   8.185  -28.36   60.16   -0.04  -28.14   -0.04  -28.16  -28.40   46.53
   8.230  -28.02   60.20   -0.04  -28.32   -0.04  -28.36  -28.15   46.83
   8.275  -27.72   59.69   -0.04  -28.54   -0.04  -28.51  -27.88   47.22
   8.320  -27.40   59.33   -0.04  -28.72   -0.04  -28.70  -27.62   47.29
   8.365  -27.51   58.55   -0.04  -28.87   -0.04  -28.89  -27.72   49.42
   8.410  -27.23   58.14   -0.04  -29.07   -0.05  -29.13  -27.46   49.90
   8.455  -27.02   58.06   -0.04  -29.29   -0.05  -29.25  -27.16   49.20
   8.500  -26.76   57.79   -0.05  -29.46   -0.05  -29.49  -27.01   49.19
   8.545  -26.52   57.24   -0.05  -29.65   -0.05  -29.68  -26.74   49.05
   8.590  -26.33   56.58   -0.05  -29.85   -0.05  -29.88  -26.53   48.64
   8.635  -26.10   56.07   -0.05  -30.03   -0.05  -30.07  -26.33   48.58
   8.680  -25.92   55.57   -0.05  -30.22   -0.06  -30.20  -26.07   48.16
   8.725  -25.75   54.98   -0.05  -30.38   -0.06  -30.44  -25.96   47.19
   8.770  -25.68   54.67   -0.05  -30.59   -0.06  -30.56  -25.82   47.31
   8.815  -25.50   54.01   -0.06  -30.74   -0.06  -30.77  -25.76   46.76
   8.860  -25.44   53.29   -0.06  -30.90   -0.06  -30.91  -25.77   46.87
   8.905  -25.34   52.92   -0.06  -31.04   -0.07  -31.05  -25.71   48.11
   8.950  -25.39   52.91   -0.05  -31.21   -0.06  -31.17  -25.52   49.04
   8.995  -25.39   53.12   -0.04  -31.37   -0.05  -31.38  -25.21   50.18
   9.040  -25.27   54.30   -0.04  -31.57   -0.04  -31.52  -24.80   50.15
   9.085  -25.09   55.09   -0.02  -31.78   -0.03  -31.80  -24.50   49.36
   9.130  -24.88   56.39   -0.02  -32.13   -0.03  -32.11  -24.36   47.79
   9.175  -24.58   56.83   -0.03  -32.37   -0.03  -32.35  -24.27   46.71
   9.220  -24.17   56.62   -0.05  -32.58   -0.06  -32.64  -24.35   46.19
   9.265  -23.87   55.41   -0.05  -32.80   -0.07  -32.81  -24.32   46.99
   9.310  -23.71   54.27   -0.06  -32.88   -0.06  -32.86  -24.27   47.54
   9.355  -23.67   53.07   -0.07  -32.98   -0.07  -32.99  -24.11   48.31
   9.400  -23.61   52.72   -0.06  -33.12   -0.07  -33.16  -23.92   48.61
   9.445  -23.50   52.72   -0.06  -33.30   -0.07  -33.31  -23.73   48.47
   9.490  -23.39   52.55   -0.06  -33.43   -0.07  -33.49  -23.57   48.87
   9.535  -23.26   52.73   -0.06  -33.66   -0.06  -33.62  -23.37   48.44
   9.580  -23.12   52.01   -0.04  -33.82   -0.05  -33.86  -23.23   48.30
   9.625  -23.02   51.94   -0.04  -34.06   -0.05  -34.00  -23.04   48.20
   9.670  -22.88   51.67   -0.04  -34.23   -0.03  -34.24  -22.90   48.22
   9.715  -22.79   51.54   -0.03  -34.47   -0.03  -34.47  -22.74   47.88
   9.760  -22.67   51.20   -0.03  -34.70   -0.03  -34.63  -22.50   47.72
   9.805  -22.52   51.52   -0.03  -34.93   -0.03  -34.95  -22.34   47.37
   9.850  -22.43   51.35   -0.03  -35.19   -0.02  -35.17  -22.22   47.11
   9.895  -22.28   51.25   -0.02  -35.43   -0.02  -35.45  -22.04   46.87
   9.940  -22.12   51.17   -0.03  -35.67   -0.02  -35.67  -21.88   46.13
   9.985  -21.91   50.74   -0.03  -35.86   -0.02  -35.89  -21.82   46.02
  10.030  -21.82   50.70   -0.03  -36.15   -0.02  -36.13  -21.62   45.38
  10.075  -21.66   50.47   -0.04  -36.35   -0.04  -36.39  -21.59   45.14
  10.120  -21.54   49.89   -0.04  -36.62   -0.04  -36.60  -21.41   44.82
  10.165  -21.39   49.64   -0.05  -36.83   -0.04  -36.80  -21.31   44.39
  10.210  -21.24   49.50   -0.04  -37.09   -0.04  -37.08  -21.20   44.18
  10.255  -21.15   49.10   -0.05  -37.34   -0.05  -37.33  -21.06   44.16
  10.300  -20.99   48.91   -0.05  -37.56   -0.06  -37.56  -20.96   43.56
  10.345  -20.86   48.57   -0.06  -37.79   -0.06  -37.77  -20.81   43.39
  10.390  -20.72   48.57   -0.06  -38.06   -0.07  -38.07  -20.70   43.05
  10.435  -20.59   48.34   -0.07  -38.29   -0.05  -38.26  -20.55   42.84
  10.480  -20.37   48.05   -0.07  -38.53   -0.07  -38.52  -20.47   42.80
  10.525  -20.25   47.61   -0.08  -38.81   -0.08  -38.73  -20.26   42.69
  10.570  -20.04   47.57   -0.08  -39.05   -0.08  -39.07  -20.12   42.40
  10.615  -19.90   47.03   -0.08  -39.34   -0.09  -39.27  -19.88   42.37
  10.660  -19.71   46.77   -0.10  -39.57   -0.11  -39.55  -19.68   41.70
  10.705  -19.48   46.09   -0.10  -39.88   -0.11  -39.83  -19.45   41.32
  10.750  -19.32   45.89   -0.12  -40.13   -0.12  -40.10  -19.20   40.56
  10.795  -19.10   45.61   -0.13  -40.35   -0.13  -40.38  -19.09   39.36
  10.840  -18.90   44.58   -0.14  -40.67   -0.14  -40.64  -18.87   38.79
  10.885  -18.64   44.03   -0.14  -40.95   -0.15  -40.96  -18.70   37.68
  10.930  -18.46   43.24   -0.16  -41.21   -0.16  -41.12  -18.49   37.21
  10.975  -18.25   42.77   -0.17  -41.51   -0.17  -41.53  -18.35   35.92
  11.020  -18.06   41.75   -0.18  -41.81   -0.18  -41.82  -18.13   35.25
  11.065  -17.80   41.10   -0.20  -42.14   -0.20  -42.12  -17.93   34.35
  11.110  -17.58   40.11   -0.21  -42.51   -0.21  -42.46  -17.67   33.68
  11.155  -17.37   39.63   -0.24  -42.92   -0.23  -42.88  -17.42   32.56
  11.200  -17.05   38.85   -0.25  -43.31   -0.25  -43.30  -17.20   31.50
  11.245  -16.77   37.73   -0.28  -43.74   -0.28  -43.68  -16.86   30.39
  11.290  -16.40   36.99   -0.31  -44.21   -0.32  -44.20  -16.57   28.73
  11.335  -16.06   35.56   -0.36  -44.69   -0.35  -44.57  -16.20   27.54
  11.380  -15.67   34.29   -0.40  -45.21   -0.40  -45.21  -15.81   25.09
  11.425  -15.23   32.46   -0.47  -45.76   -0.47  -45.73  -15.42   23.23
  11.470  -14.73   30.49   -0.55  -46.34   -0.56  -46.34  -14.99   20.57
  11.515  -14.30   27.75   -0.66  -46.98   -0.66  -46.85  -14.52   17.67
  11.560  -13.78   25.02   -0.80  -47.49   -0.79  -47.45  -14.06   13.65
  11.605  -13.21   21.07   -0.96  -48.02   -0.97  -48.00  -13.58    9.32
  11.650  -12.68   16.52   -1.19  -48.39   -1.19  -48.25  -13.08    4.17
  11.695  -12.15   10.91   -1.46  -48.38   -1.46  -48.30  -12.66   -2.37
  11.740  -11.76    3.93   -1.79  -47.79   -1.77  -47.60  -12.28   -9.73
  11.785  -11.44   -3.62   -2.11  -46.22   -2.10  -46.22  -12.07  -19.08
  11.830  -11.33  -12.89   -2.33  -43.71   -2.32  -43.62  -12.08  -28.59
  11.875  -11.56  -22.39   -2.40  -40.57   -2.38  -40.52  -12.42  -39.13
  11.920  -12.10  -31.67   -2.24  -37.53   -2.23  -37.58  -12.99  -49.57
  11.965  -12.84  -40.11   -1.94  -35.48   -1.94  -35.42  -13.97  -59.44
  12.010  -13.89  -47.29   -1.60  -34.38   -1.59  -34.43  -15.09  -67.72
  12.055  -14.98  -52.86   -1.28  -34.16   -1.28  -34.17  -16.44  -75.23
  12.100  -16.19  -57.31   -1.03  -34.43   -1.02  -34.47  -17.87  -81.06
  12.145  -17.40  -60.31   -0.82  -34.91   -0.82  -34.92  -19.32  -85.85
