!  American Technical Ceramics  Date:   4/26/2005
!  One Norden Lane
!  Huntington Station,  NY.   11746-2102
!  Tel:  (631) 622-4700               Fax:  (631) 622-4748
!  Part Number  600S0R6         Mounting Orientation: Horizontal
!  Description: Ultra Low ESR Microwave capacitors
!  Application: Coupling, Bypass, Tuning, DC Block
!               Filters, Matching
# GHZ S DB R 50
! Freq   |S11|   S11 Ph  |S21|   S21 Ph  |S12|   S12 Ph  |S22|   S22 Ph
   0.000   0.00    0.00	  -999.00  90.00  -999.00  90.00    0.00    0.00
   0.400   -0.06   -9.22  -16.89   80.30  -16.84   80.07   -0.04   -9.63
   0.482   -0.07  -11.11  -15.29   77.77  -15.28   77.08   -0.20  -12.15
   0.563   -0.10  -12.55  -13.98   76.00  -13.99   74.99   -0.28  -14.67
   0.645   -0.20  -13.99  -12.87   74.41  -12.85   73.28   -0.26  -16.68
   0.726   -0.35  -16.10  -11.95   72.51  -11.89   71.44   -0.30  -18.35
   0.808   -0.30  -17.85  -11.03   70.64  -11.00   69.74   -0.37  -20.24
   0.889   -0.48  -19.69  -10.32   69.12  -10.23   68.16   -0.41  -21.71
   0.971   -0.43  -21.57   -9.59   67.08   -9.61   66.42   -0.62  -23.65
   1.052   -0.57  -23.09   -8.98   65.61   -8.96   64.58   -0.63  -25.53
   1.134   -0.67  -24.54   -8.43   64.14   -8.43   63.05   -0.74  -27.22
   1.215   -0.81  -27.05   -7.97   62.06   -7.94   61.11   -0.85  -28.79
   1.297   -0.82  -28.41   -7.42   60.49   -7.42   59.52   -0.93  -30.62
   1.378   -0.96  -30.08   -7.03   59.02   -7.01   58.21   -1.05  -31.77
   1.460   -1.04  -31.77   -6.61   57.17   -6.66   56.28   -1.22  -33.83
   1.541   -1.17  -33.27   -6.21   55.90   -6.21   54.72   -1.23  -35.32
   1.623   -1.31  -34.68   -5.89   54.60   -5.91   53.59   -1.36  -36.46
   1.704   -1.45  -36.28   -5.61   52.86   -5.59   51.81   -1.45  -37.29
   1.786   -1.50  -38.26   -5.25   51.39   -5.28   50.54   -1.61  -39.32
   1.867   -1.67  -39.65   -5.01   50.15   -5.04   49.17   -1.74  -40.57
   1.949   -1.80  -41.31   -4.75   48.51   -4.79   47.37   -1.86  -42.37
   2.030   -1.91  -43.01   -4.50   47.05   -4.50   46.16   -1.96  -43.25
   2.112   -2.07  -44.32   -4.28   45.75   -4.31   44.70   -2.11  -44.77
   2.193   -2.19  -46.04   -4.06   44.21   -4.07   43.34   -2.22  -45.89
   2.275   -2.31  -47.30   -3.83   43.00   -3.86   42.19   -2.35  -47.03
   2.356   -2.48  -48.63   -3.65   41.81   -3.72   40.92   -2.50  -48.33
   2.438   -2.65  -50.30   -3.50   40.43   -3.52   39.47   -2.63  -49.44
   2.519   -2.78  -51.79   -3.33   39.10   -3.36   38.21   -2.77  -50.62
   2.601   -2.91  -53.12   -3.16   37.65   -3.21   37.03   -2.91  -51.86
   2.682   -3.07  -54.46   -3.00   36.60   -3.04   35.63   -3.00  -52.91
   2.764   -3.22  -55.55   -2.87   35.27   -2.91   34.68   -3.19  -53.95
   2.845   -3.38  -56.94   -2.74   34.02   -2.78   33.24   -3.32  -55.21
   2.927   -3.55  -58.03   -2.61   32.76   -2.68   32.09   -3.48  -56.22
   3.008   -3.71  -59.52   -2.53   31.46   -2.54   30.81   -3.66  -57.23
   3.090   -3.78  -60.16   -2.43   30.50   -2.49   30.12   -3.80  -58.27
   3.171   -3.90  -61.23   -2.33   29.64   -2.37   28.97   -3.92  -58.96
   3.253   -4.05  -62.14   -2.27   28.55   -2.30   28.22   -4.09  -60.01
   3.334   -4.18  -63.14   -2.15   27.59   -2.22   27.20   -4.18  -60.99
   3.416   -4.31  -64.03   -2.06   26.72   -2.12   26.22   -4.30  -61.78
   3.497   -4.43  -64.98   -2.01   25.78   -2.01   25.39   -4.47  -62.77
   3.579   -4.60  -65.93   -1.90   24.60   -1.97   24.47   -4.58  -63.95
   3.660   -4.69  -66.81   -1.83   23.90   -1.85   23.50   -4.71  -64.59
   3.742   -4.86  -67.53   -1.80   22.85   -1.83   22.81   -4.88  -65.59
   3.823   -4.97  -68.63   -1.71   21.89   -1.75   21.77   -4.97  -66.58
   3.905   -5.08  -69.44   -1.64   21.20   -1.69   20.93   -5.10  -67.27
   3.986   -5.21  -70.07   -1.61   20.41   -1.63   20.31   -5.26  -68.16
   4.068   -5.35  -71.08   -1.54   19.38   -1.57   19.39   -5.37  -69.18
   4.149   -5.46  -71.73   -1.48   18.90   -1.51   18.77   -5.51  -69.64
   4.231   -5.63  -72.46   -1.47   17.92   -1.49   18.03   -5.70  -70.69
   4.312   -5.74  -73.65   -1.37   17.04   -1.40   17.04   -5.77  -71.43
   4.394   -5.85  -74.21   -1.30   16.42   -1.33   16.46   -5.88  -71.87
   4.475   -5.98  -74.75   -1.30   15.75   -1.30   15.72   -6.05  -72.58
   4.557   -6.12  -75.73   -1.23   14.76   -1.25   14.92   -6.12  -73.53
   4.638   -6.20  -76.46   -1.17   14.29   -1.19   14.30   -6.27  -73.92
   4.720   -6.41  -77.17   -1.19   13.24   -1.19   13.27   -6.45  -74.88
   4.801   -6.48  -78.09   -1.11   12.44   -1.11   12.55   -6.52  -75.64
   4.883   -6.62  -78.67   -1.07   11.91   -1.09   12.18   -6.63  -75.75
   4.964   -6.72  -79.38   -1.06   11.32   -1.06   11.24   -6.85  -76.65
   5.046   -6.90  -80.17   -1.02   10.38   -1.01   10.69   -6.87  -77.33
   5.127   -6.96  -80.88   -0.99    9.99   -1.00   10.04   -7.05  -77.51
   5.209   -7.15  -81.65   -0.98    9.05   -0.98    9.13   -7.19  -78.50
   5.290   -7.26  -82.27   -0.92    8.40   -0.90    8.63   -7.25  -79.06
   5.372   -7.37  -83.25   -0.88    7.97   -0.91    8.10   -7.42  -78.95
   5.453   -7.52  -83.40   -0.89    7.31   -0.86    7.33   -7.55  -80.28
   5.535   -7.70  -84.57   -0.85    6.55   -0.84    6.83   -7.62  -80.33
   5.616   -7.76  -85.30   -0.82    5.98   -0.84    6.08   -7.82  -80.78
   5.698   -7.94  -85.75   -0.81    5.25   -0.78    5.35   -7.89  -81.77
   5.779   -8.03  -86.73   -0.75    4.75   -0.75    4.88   -8.01  -81.81
   5.861   -8.19  -87.08   -0.75    4.22   -0.74    4.26   -8.15  -82.48
   5.942   -8.34  -87.60   -0.74    3.59   -0.71    3.62   -8.29  -83.12
   6.024   -8.55  -89.07   -0.71    2.75   -0.71    3.06   -8.37  -82.96
   6.105   -8.57  -88.99   -0.68    2.32   -0.67    2.18   -8.58  -83.93
   6.187   -8.79  -90.00   -0.66    1.58   -0.65    1.80   -8.65  -83.88
   6.268   -8.83  -90.00   -0.64    1.29   -0.62    1.14   -8.84  -84.61
   6.350   -9.04  -90.60   -0.65    0.64   -0.60    0.63   -8.89  -85.00
   6.431   -9.23  -91.47   -0.64   -0.01   -0.60    0.12   -9.00  -85.00
   6.513   -9.27  -92.45   -0.60   -0.64   -0.60   -0.76   -9.17  -85.83
   6.594   -9.38  -92.84   -0.56   -1.07   -0.56   -1.32   -9.31  -86.15
   6.676   -9.55  -93.36   -0.55   -1.60   -0.55   -1.82   -9.44  -86.73
   6.757   -9.62  -93.48   -0.53   -1.97   -0.55   -2.38   -9.64  -87.29
   6.839   -9.92  -94.49   -0.55   -2.71   -0.53   -2.69   -9.62  -87.22
   6.920   -9.88  -95.45   -0.51   -3.27   -0.57   -3.40   -9.90  -87.68
   7.002  -10.00  -96.32   -0.48   -3.95   -0.52   -3.92  -10.01  -87.95
   7.083  -10.07  -96.31   -0.46   -4.28   -0.51   -4.48  -10.19  -88.88
   7.165  -10.25  -97.02   -0.44   -4.78   -0.49   -4.93  -10.30  -89.18
   7.246  -10.50  -97.52   -0.46   -5.28   -0.46   -5.36  -10.36  -89.90
   7.328  -10.65  -98.80   -0.44   -5.94   -0.46   -5.79  -10.55  -89.51
   7.409  -10.69  -99.88   -0.40   -6.55   -0.47   -6.43  -10.83  -89.94
   7.491  -10.84  -99.65   -0.38   -6.91   -0.43   -7.06  -10.95  -91.03
   7.572  -10.96 -100.14   -0.36   -7.39   -0.42   -7.57  -11.14  -91.40
   7.654  -11.27 -100.86   -0.39   -7.94   -0.38   -8.06  -11.14  -92.05
   7.735  -11.34 -101.57   -0.35   -8.43   -0.39   -8.48  -11.40  -91.98
   7.817  -11.57 -102.78   -0.36   -9.14   -0.37   -8.91  -11.54  -91.66
   7.898  -11.56 -102.49   -0.31   -9.53   -0.38   -9.62  -11.83  -93.01
   7.980  -11.83 -102.94   -0.31   -9.97   -0.35  -10.07  -11.93  -93.30
   8.061  -12.10 -103.14   -0.32  -10.40   -0.35  -10.67  -12.08  -94.30
   8.143  -12.23 -104.63   -0.30  -11.09   -0.32  -11.09  -12.21  -93.83
   8.224  -12.37 -105.01   -0.29  -11.53   -0.32  -11.51  -12.43  -94.17
   8.306  -12.52 -105.21   -0.27  -12.02   -0.31  -12.13  -12.63  -94.96
   8.387  -12.62 -105.68   -0.27  -12.63   -0.32  -12.70  -12.76  -95.76
   8.469  -12.86 -105.67   -0.27  -12.98   -0.31  -13.20  -12.89  -96.41
   8.550  -13.06 -106.66   -0.26  -13.58   -0.28  -13.71  -13.02  -96.61
   8.632  -13.23 -107.52   -0.26  -14.10   -0.27  -14.10  -13.18  -96.48
   8.713  -13.33 -107.26   -0.23  -14.54   -0.28  -14.62  -13.44  -97.48
   8.795  -13.49 -108.12   -0.24  -14.97   -0.27  -15.06  -13.45  -97.89
   8.876  -13.74 -108.40   -0.23  -15.41   -0.26  -15.56  -13.75  -98.62
   8.958  -13.94 -108.70   -0.22  -15.86   -0.26  -15.98  -14.00  -98.95
   9.039  -14.13 -109.14   -0.21  -16.32   -0.24  -16.44  -14.19  -99.16
   9.121  -14.29 -109.39   -0.20  -16.73   -0.23  -16.80  -14.44  -99.11
   9.202  -14.48 -109.87   -0.18  -17.24   -0.21  -17.40  -14.60  -99.14
   9.284  -14.60 -110.11   -0.17  -17.70   -0.20  -17.86  -14.75  -98.99
   9.365  -14.75 -111.21   -0.16  -18.25   -0.19  -18.27  -14.90  -98.97
   9.447  -15.02 -111.68   -0.17  -18.66   -0.20  -18.81  -15.01  -99.61
   9.528  -15.31 -111.89   -0.16  -19.05   -0.18  -19.19  -15.10 -100.03
   9.610  -15.47 -112.19   -0.15  -19.48   -0.17  -19.54  -15.28 -100.36
   9.691  -15.64 -112.59   -0.13  -20.01   -0.15  -20.06  -15.49 -101.25
   9.773  -15.77 -112.64   -0.13  -20.48   -0.14  -20.51  -15.65 -101.57
   9.854  -15.95 -112.80   -0.11  -20.98   -0.14  -21.00  -15.91 -102.44
   9.936  -16.17 -112.84   -0.10  -21.32   -0.12  -21.43  -16.01 -102.66
  10.017  -16.35 -113.80   -0.11  -21.85   -0.12  -21.97  -16.22 -102.91
  10.099  -16.46 -114.44   -0.10  -22.35   -0.11  -22.37  -16.45 -103.08
  10.180  -16.59 -114.64   -0.08  -22.87   -0.10  -22.85  -16.67 -103.68
  10.262  -16.81 -114.83   -0.08  -23.28   -0.10  -23.27  -16.84 -104.12
  10.343  -17.01 -115.15   -0.07  -23.77   -0.09  -23.76  -16.99 -104.65
  10.425  -17.25 -115.64   -0.07  -24.18   -0.09  -24.17  -17.15 -104.90
  10.506  -17.39 -116.49   -0.08  -24.62   -0.08  -24.66  -17.40 -105.04
  10.588  -17.58 -116.76   -0.08  -25.16   -0.09  -25.11  -17.65 -105.88
  10.669  -17.78 -117.08   -0.06  -25.51   -0.07  -25.43  -17.82 -106.30
  10.751  -18.07 -117.37   -0.06  -25.87   -0.09  -25.91  -17.99 -106.63
  10.832  -18.26 -117.86   -0.07  -26.35   -0.07  -26.36  -18.19 -106.83
  10.914  -18.48 -118.07   -0.06  -26.74   -0.07  -26.73  -18.41 -106.73
  10.995  -18.66 -117.63   -0.05  -27.17   -0.07  -27.16  -18.59 -107.54
  11.077  -18.85 -117.91   -0.04  -27.63   -0.04  -27.61  -18.74 -107.76
  11.158  -19.04 -117.90   -0.03  -28.03   -0.04  -27.99  -18.84 -108.51
  11.240  -19.21 -118.29   -0.04  -28.45   -0.05  -28.45  -19.07 -108.69
  11.321  -19.36 -118.71   -0.03  -28.91   -0.03  -28.87  -19.28 -109.18
  11.403  -19.50 -118.63   -0.03  -29.31   -0.04  -29.29  -19.44 -109.99
  11.484  -19.66 -119.00   -0.03  -29.76   -0.03  -29.74  -19.68 -109.97
  11.566  -19.84 -119.13   -0.01  -30.20   -0.04  -30.16  -19.76 -110.96
  11.647  -19.98 -119.72   -0.02  -30.61   -0.02  -30.51  -19.97 -111.04
  11.729  -20.20 -120.56   -0.02  -31.02   -0.03  -31.01  -20.19 -111.85
  11.810  -20.34 -120.51    0.00  -31.52    0.00  -31.34  -20.42 -112.82
  11.892  -20.63 -121.13   -0.01  -31.88   -0.01  -31.87  -20.57 -112.86
  11.973  -20.73 -121.54    0.00  -32.38   -0.01  -32.33  -20.80 -113.66
  12.055  -20.97 -121.75    0.00  -32.81   -0.01  -32.76  -21.10 -114.50
  12.136  -21.19 -122.46   -0.01  -33.20   -0.01  -33.22  -21.27 -114.66
  12.218  -21.31 -122.50    0.00  -33.65   -0.01  -33.60  -21.59 -115.53
  12.299  -21.59 -122.78   -0.01  -34.08   -0.01  -34.03  -21.71 -116.09
  12.381  -21.86 -123.70   -0.01  -34.49   -0.01  -34.50  -21.94 -115.77
  12.462  -21.95 -123.89   -0.01  -34.89   -0.01  -34.86  -22.27 -116.86
  12.544  -22.28 -124.26    0.00  -35.32   -0.01  -35.31  -22.35 -117.21
  12.625  -22.46 -124.91    0.00  -35.73    0.00  -35.73  -22.65 -118.07
  12.707  -22.67 -125.28    0.00  -36.17   -0.01  -36.08  -22.87 -118.86
  12.788  -23.08 -126.01    0.00  -36.63   -0.02  -36.62  -23.04 -120.23
  12.870  -23.25 -126.81   -0.01  -36.94   -0.02  -36.98  -23.43 -119.74
  12.951  -23.61 -126.45    0.00  -37.36   -0.01  -37.32  -23.74 -121.16
  13.033  -23.95 -126.95   -0.01  -37.87   -0.01  -37.78  -24.01 -121.74
  13.114  -24.22 -127.45   -0.01  -38.21   -0.01  -38.18  -24.42 -121.49
  13.196  -24.58 -127.33   -0.01  -38.67   -0.02  -38.48  -24.71 -123.18
  13.277  -24.85 -128.19   -0.01  -39.04   -0.01  -39.01  -25.01 -121.79
  13.359  -25.22 -128.58   -0.01  -39.47   -0.01  -39.45  -25.35 -123.27
  13.440  -25.56 -128.04   -0.01  -39.93   -0.02  -39.79  -25.69 -123.12
  13.522  -26.03 -128.83   -0.01  -40.36   -0.01  -40.32  -25.99 -123.84
  13.603  -26.41 -128.67   -0.01  -40.90   -0.02  -40.88  -26.30 -124.73
  13.685  -26.93 -128.61   -0.01  -41.21   -0.01  -41.13  -26.76 -124.94
  13.766  -27.33 -128.90   -0.01  -41.45   -0.01  -41.43  -26.97 -126.43
  13.848  -27.71 -129.20   -0.01  -41.95    0.00  -41.92  -27.70 -127.02
  13.929  -28.45 -129.81   -0.02  -42.41   -0.01  -42.34  -28.23 -128.88
  14.011  -29.20 -129.74   -0.01  -42.77   -0.01  -42.67  -28.76 -129.56
  14.092  -30.02 -127.85   -0.01  -43.14    0.00  -43.13  -29.59 -129.57
  14.174  -30.73 -123.51   -0.01  -43.71   -0.01  -43.56  -30.45 -131.67
  14.255  -31.01 -120.61    0.00  -44.09   -0.01  -44.00  -31.39 -131.56
  14.337  -30.93 -120.05   -0.01  -44.52   -0.01  -44.42  -32.38 -130.71
  14.418  -31.42 -122.82   -0.03  -45.02   -0.02  -44.85  -33.75 -131.25
  14.500  -32.21 -127.73   -0.03  -45.36   -0.03  -45.21  -34.87 -128.94
  14.581  -33.85 -128.61   -0.03  -45.74   -0.03  -45.62  -36.32 -124.39
  14.663  -35.58 -127.49   -0.04  -46.20   -0.03  -46.06  -37.46 -127.29
  14.744  -36.99 -125.59   -0.04  -46.63   -0.05  -46.52  -39.33 -123.49
  14.826  -39.02 -123.75   -0.05  -46.94   -0.05  -46.99  -42.00 -123.64
  14.907  -42.03 -119.27   -0.06  -47.32   -0.06  -47.22  -45.78 -111.40
  14.989  -46.34 -110.47   -0.06  -47.66   -0.06  -47.54  -53.03  -91.70
  15.070  -50.23  -89.70   -0.05  -47.97   -0.05  -47.95  -51.06  -21.42
  15.152  -52.87  -18.37   -0.05  -48.45   -0.05  -48.31  -45.49   20.28
  15.233  -48.11   28.11   -0.05  -48.89   -0.05  -48.80  -43.19   20.88
  15.315  -41.98   32.77   -0.06  -49.30   -0.05  -49.31  -39.57   22.21
  15.396  -39.16   37.83   -0.06  -49.76   -0.05  -49.73  -38.53   31.89
  15.478  -36.86   39.31   -0.06  -50.21   -0.06  -50.15  -36.57   33.17
  15.559  -34.83   41.10   -0.07  -50.67   -0.06  -50.62  -35.13   39.55
  15.641  -33.23   44.48   -0.08  -51.05   -0.07  -50.99  -33.73   38.15
  15.722  -31.62   44.35   -0.10  -51.50   -0.08  -51.29  -32.15   41.39
  15.804  -30.49   45.34   -0.11  -51.87   -0.09  -51.83  -31.20   42.06
  15.885  -29.16   44.32   -0.11  -52.32   -0.09  -52.23  -29.75   41.64
  15.967  -28.19   44.09   -0.13  -52.69   -0.11  -52.65  -28.83   43.77
  16.048  -27.07   42.96   -0.14  -53.06   -0.11  -53.01  -27.92   42.14
  16.130  -26.28   42.51   -0.14  -53.45   -0.13  -53.37  -26.96   42.74
  16.211  -25.56   41.52   -0.15  -53.76   -0.13  -53.70  -26.13   41.56
  16.293  -24.71   41.28   -0.16  -54.19   -0.15  -54.04  -25.29   41.33
  16.374  -24.14   40.30   -0.16  -54.56   -0.13  -54.45  -24.69   40.20
  16.456  -23.53   39.55   -0.17  -54.85   -0.14  -54.82  -23.94   39.96
  16.537  -22.95   39.01   -0.18  -55.27   -0.15  -55.26  -23.52   38.92
  16.619  -22.35   37.66   -0.18  -55.67   -0.16  -55.74  -22.86   38.60
  16.700  -21.90   36.85   -0.19  -56.04   -0.17  -56.23  -22.37   38.25
  16.782  -21.36   35.71   -0.22  -56.45   -0.18  -56.43  -21.80   37.79
  16.863  -20.98   35.52   -0.20  -56.80   -0.19  -56.89  -21.22   37.65
  16.945  -20.56   34.64   -0.22  -57.21   -0.20  -57.08  -20.67   36.62
  17.026  -20.11   33.87   -0.23  -57.36   -0.20  -57.57  -20.17   37.36
  17.108  -19.72   33.41   -0.23  -57.92   -0.18  -58.00  -19.79   34.68
  17.189  -19.24   32.76   -0.23  -58.27   -0.18  -58.35  -19.29   34.28
  17.271  -18.92   31.83   -0.23  -58.77   -0.20  -58.98  -18.93   33.31
  17.352  -18.52   30.88   -0.24  -59.23   -0.21  -59.32  -18.44   31.61
  17.434  -18.10   29.08   -0.24  -59.51   -0.23  -59.73  -18.08   31.69
  17.515  -17.74   27.26   -0.28  -60.00   -0.25  -60.26  -17.85   28.79
  17.597  -17.57   25.94   -0.30  -60.29   -0.26  -60.56  -17.62   27.33
  17.678  -17.66   24.34   -0.31  -60.58   -0.28  -60.72  -17.42   25.40
  17.760  -17.60   24.57   -0.31  -60.83   -0.28  -61.12  -17.36   24.82
  17.841  -17.50   25.02   -0.28  -61.05   -0.28  -61.45  -17.38   25.16
  17.923  -17.13   25.58   -0.29  -61.37   -0.27  -61.76  -17.30   25.73
  18.004  -16.87   26.00   -0.27  -61.87   -0.25  -62.24  -17.04   26.13
  18.086  -16.62   25.79   -0.26  -62.35   -0.27  -62.57  -16.65   25.71
  18.167  -16.25   24.99   -0.26  -62.76   -0.27  -63.08  -16.40   26.56
  18.249  -16.05   24.28   -0.27  -63.34   -0.28  -63.67  -16.08   25.14
  18.330  -15.76   23.42   -0.28  -63.74   -0.28  -64.10  -15.85   24.72
  18.412  -15.55   22.97   -0.31  -64.16   -0.29  -64.61  -15.74   23.67
  18.493  -15.46   22.62   -0.29  -64.58   -0.29  -64.89  -15.45   22.69
  18.575  -15.30   21.53   -0.29  -64.94   -0.32  -65.29  -15.35   22.71
  18.656  -15.10   21.13   -0.30  -65.35   -0.33  -65.74  -15.18   22.02
  18.738  -14.91   21.02   -0.31  -65.77   -0.32  -66.06  -15.07   21.81
  18.819  -14.75   20.25   -0.30  -66.21   -0.34  -66.55  -14.94   21.30
  18.901  -14.57   20.43   -0.30  -66.65   -0.31  -66.83  -14.76   21.02
  18.982  -14.45   19.64   -0.29  -67.09   -0.33  -67.30  -14.58   20.88
  19.064  -14.17   19.52   -0.29  -67.47   -0.33  -67.83  -14.50   20.81
  19.145  -14.04   19.30   -0.30  -67.97   -0.33  -68.31  -14.35   20.07
  19.227  -13.89   18.73   -0.30  -68.49   -0.33  -68.76  -14.09   19.77
  19.308  -13.73   17.75   -0.29  -69.02   -0.35  -69.30  -14.01   19.80
  19.390  -13.55   17.44   -0.30  -69.50   -0.34  -69.71  -13.80   19.24
  19.471  -13.36   16.48   -0.30  -69.99   -0.37  -70.24  -13.72   19.59
  19.553  -13.19   16.78   -0.34  -70.36   -0.36  -70.73  -13.55   18.21
  19.634  -13.07   16.04   -0.35  -70.89   -0.38  -71.16  -13.35   18.45
  19.716  -12.99   14.89   -0.35  -71.49   -0.37  -71.55  -13.14   18.02
  19.797  -12.75   14.40   -0.34  -71.87   -0.38  -72.15  -13.01   17.53
  19.879  -12.67   13.24   -0.34  -72.47   -0.40  -72.54  -12.84   17.10
  19.960  -12.45   13.11   -0.35  -72.80   -0.41  -73.15  -12.76   16.25
  20.042  -12.39   12.35   -0.36  -73.48   -0.38  -73.82  -12.54   15.47
  20.123  -12.33   11.44   -0.39  -74.16   -0.40  -74.24  -12.33   15.33
  20.205  -12.14   10.66   -0.36  -74.84   -0.40  -74.89  -12.24   15.06
  20.286  -12.01   10.11   -0.38  -75.40   -0.40  -75.38  -12.03   14.49
  20.368  -11.86    9.56   -0.37  -75.97   -0.42  -76.09  -11.91   13.86
  20.449  -11.74    9.09   -0.42  -76.65   -0.47  -76.99  -11.81   12.87
  20.531  -11.64    8.46   -0.43  -77.44   -0.41  -77.65  -11.46   12.37
  20.612  -11.43    6.75   -0.45  -78.28   -0.48  -78.28  -11.40   12.35
  20.694  -11.22    6.46   -0.45  -78.94   -0.50  -79.10  -11.22   11.35
  20.775  -11.10    5.33   -0.49  -79.70   -0.52  -79.75  -11.00   10.84
  20.857  -10.92    4.67   -0.55  -80.31   -0.59  -80.29  -10.89   10.33
  20.938  -10.75    3.71   -0.60  -81.34   -0.62  -81.71  -10.66    8.69
  21.020  -10.60    2.31   -0.64  -82.21   -0.62  -82.21  -10.35    8.60
  21.101  -10.29    0.75   -0.67  -83.13   -0.72  -83.06  -10.31    7.77
  21.183  -10.16    0.24   -0.76  -83.93   -0.75  -84.24  -10.00    6.07
  21.264   -9.93   -1.44   -0.79  -84.78   -0.82  -84.76   -9.87    6.13
  21.346   -9.72   -2.50   -0.92  -85.81   -0.96  -85.91   -9.71    4.98
  21.427   -9.48   -3.25   -0.98  -86.83   -0.99  -87.07   -9.31    3.70
  21.509   -9.16   -5.84   -1.09  -88.04   -1.09  -87.84   -9.06    3.85
  21.590   -8.81   -6.17   -1.17  -89.00   -1.20  -89.18   -8.67    1.43
  21.672   -8.47   -8.54   -1.29  -90.15   -1.29  -90.17   -8.28    0.39
