!  American Technical Ceramics  Date:   12/2/2005
!  One Norden Lane
!  Huntington Station,  NY.   11746-2102
!  Tel:  (631) 622-4700               Fax:  (631) 622-4748
!  Part Number  600S300         Mounting Orientation: Horizontal
!  Description: Ultra Low ESR Microwave capacitors
!  Application: Coupling, Bypass, Tuning, DC Block
!               Filters, Matching
# GHZ S DB R 50
! Freq   |S11|   S11 Ph  |S21|   S21 Ph  |S12|   S12 Ph  |S22|   S22 Ph
   0.000    0.00    0.00 -999.00   90.00 -999.00   90.00    0.00    0.00
   0.400  -17.81  -83.31   -0.08    6.07   -0.09    6.08  -17.81  -83.47
   0.411  -18.04  -83.53   -0.08    5.83   -0.09    5.85  -18.05  -83.72
   0.422  -18.27  -83.74   -0.07    5.60   -0.09    5.62  -18.28  -83.95
   0.432  -18.50  -84.01   -0.07    5.39   -0.08    5.40  -18.51  -84.10
   0.443  -18.72  -84.23   -0.07    5.18   -0.08    5.19  -18.73  -84.39
   0.454  -18.93  -84.45   -0.06    4.98   -0.08    5.00  -18.95  -84.58
   0.465  -19.14  -84.67   -0.06    4.80   -0.07    4.80  -19.16  -84.76
   0.475  -19.35  -84.90   -0.06    4.60   -0.07    4.61  -19.36  -84.94
   0.486  -19.55  -85.09   -0.06    4.42   -0.07    4.43  -19.56  -85.09
   0.497  -19.75  -85.31   -0.06    4.25   -0.07    4.26  -19.76  -85.23
   0.508  -19.95  -85.51   -0.05    4.09   -0.06    4.09  -19.95  -85.34
   0.518  -20.14  -85.68   -0.05    3.93   -0.06    3.93  -20.14  -85.47
   0.529  -20.33  -85.86   -0.05    3.76   -0.06    3.77  -20.33  -85.61
   0.540  -20.52  -86.02   -0.05    3.61   -0.06    3.62  -20.51  -85.75
   0.551  -20.70  -86.17   -0.04    3.46   -0.06    3.47  -20.70  -85.87
   0.561  -20.89  -86.28   -0.04    3.31   -0.06    3.32  -20.88  -86.00
   0.572  -21.07  -86.38   -0.04    3.16   -0.05    3.18  -21.06  -86.14
   0.583  -21.24  -86.47   -0.04    3.02   -0.05    3.04  -21.24  -86.29
   0.594  -21.41  -86.56   -0.04    2.88   -0.05    2.90  -21.42  -86.45
   0.604  -21.58  -86.67   -0.04    2.75   -0.05    2.76  -21.59  -86.63
   0.615  -21.75  -86.78   -0.04    2.62   -0.05    2.63  -21.76  -86.82
   0.626  -21.91  -86.92   -0.04    2.49   -0.05    2.50  -21.93  -86.99
   0.637  -22.07  -87.03   -0.03    2.38   -0.05    2.38  -22.10  -87.15
   0.647  -22.23  -87.17   -0.03    2.26   -0.05    2.26  -22.26  -87.30
   0.658  -22.39  -87.33   -0.03    2.15   -0.04    2.14  -22.42  -87.43
   0.669  -22.55  -87.47   -0.03    2.04   -0.04    2.03  -22.58  -87.54
   0.680  -22.70  -87.64   -0.03    1.93   -0.04    1.92  -22.73  -87.62
   0.690  -22.86  -87.79   -0.03    1.82   -0.04    1.81  -22.88  -87.69
   0.701  -23.01  -87.97   -0.03    1.71   -0.04    1.70  -23.03  -87.75
   0.712  -23.17  -88.14   -0.03    1.61   -0.04    1.60  -23.18  -87.78
   0.723  -23.33  -88.29   -0.03    1.51   -0.04    1.49  -23.33  -87.82
   0.733  -23.48  -88.40   -0.03    1.41   -0.04    1.39  -23.48  -87.87
   0.744  -23.64  -88.52   -0.03    1.31   -0.04    1.29  -23.63  -87.90
   0.755  -23.79  -88.58   -0.02    1.21   -0.04    1.22  -23.78  -87.96
   0.766  -23.94  -88.63   -0.02    1.11   -0.04    1.12  -23.93  -88.05
   0.776  -24.09  -88.69   -0.02    1.01   -0.03    1.02  -24.08  -88.12
   0.787  -24.23  -88.74   -0.02    0.92   -0.03    0.92  -24.24  -88.23
   0.798  -24.37  -88.78   -0.02    0.81   -0.03    0.83  -24.38  -88.34
   0.809  -24.51  -88.84   -0.02    0.73   -0.03    0.74  -24.53  -88.51
   0.819  -24.65  -88.86   -0.02    0.64   -0.03    0.65  -24.68  -88.65
   0.830  -24.78  -88.94   -0.02    0.55   -0.03    0.56  -24.82  -88.80
   0.841  -24.91  -89.02   -0.02    0.46   -0.03    0.47  -24.96  -88.95
   0.852  -25.04  -89.10   -0.02    0.38   -0.03    0.38  -25.09  -89.07
   0.862  -25.17  -89.23   -0.02    0.29   -0.03    0.30  -25.21  -89.18
   0.873  -25.30  -89.38   -0.02    0.21   -0.03    0.22  -25.34  -89.28
   0.884  -25.43  -89.52   -0.02    0.13   -0.03    0.14  -25.47  -89.33
   0.895  -25.56  -89.67   -0.02    0.06   -0.03    0.07  -25.59  -89.40
   0.905  -25.70  -89.83   -0.02   -0.01   -0.03   -0.01  -25.71  -89.41
   0.916  -25.84  -89.97   -0.02   -0.09   -0.03   -0.08  -25.85  -89.43
   0.927  -25.98  -90.12   -0.02   -0.17   -0.03   -0.16  -25.98  -89.44
   0.938  -26.13  -90.22   -0.01   -0.25   -0.03   -0.25  -26.11  -89.42
   0.948  -26.27  -90.32   -0.01   -0.33   -0.03   -0.33  -26.24  -89.41
   0.959  -26.41  -90.36   -0.02   -0.41   -0.03   -0.41  -26.38  -89.41
   0.970  -26.54  -90.36   -0.02   -0.48   -0.03   -0.49  -26.52  -89.45
   0.981  -26.68  -90.40   -0.01   -0.56   -0.03   -0.57  -26.67  -89.51
   0.991  -26.81  -90.41   -0.01   -0.65   -0.03   -0.64  -26.81  -89.57
   1.002  -26.93  -90.46   -0.01   -0.72   -0.02   -0.72  -26.95  -89.68
   1.013  -27.05  -90.43   -0.01   -0.80   -0.02   -0.80  -27.09  -89.80
   1.024  -27.17  -90.47   -0.01   -0.87   -0.02   -0.87  -27.22  -89.90
   1.034  -27.28  -90.55   -0.01   -0.94   -0.02   -0.95  -27.34  -90.05
   1.045  -27.39  -90.63   -0.01   -1.03   -0.02   -1.02  -27.47  -90.19
   1.056  -27.51  -90.77   -0.01   -1.09   -0.02   -1.09  -27.59  -90.33
   1.067  -27.62  -90.93   -0.01   -1.15   -0.02   -1.16  -27.70  -90.38
   1.077  -27.74  -91.10   -0.01   -1.22   -0.02   -1.23  -27.81  -90.46
   1.088  -27.87  -91.30   -0.01   -1.28   -0.02   -1.30  -27.92  -90.51
   1.099  -28.00  -91.47   -0.01   -1.35   -0.02   -1.37  -28.03  -90.52
   1.110  -28.13  -91.66   -0.01   -1.42   -0.02   -1.43  -28.14  -90.48
   1.120  -28.26  -91.78   -0.01   -1.48   -0.02   -1.50  -28.26  -90.45
   1.131  -28.40  -91.87   -0.01   -1.55   -0.02   -1.57  -28.38  -90.39
   1.142  -28.53  -91.98   -0.01   -1.61   -0.02   -1.64  -28.51  -90.29
   1.153  -28.67  -92.03   -0.01   -1.69   -0.02   -1.70  -28.64  -90.28
   1.163  -28.81  -92.06   -0.01   -1.75   -0.02   -1.77  -28.78  -90.25
   1.174  -28.95  -92.01   -0.01   -1.82   -0.02   -1.83  -28.92  -90.26
   1.185  -29.07  -92.02   -0.01   -1.89   -0.02   -1.90  -29.07  -90.28
   1.196  -29.21  -91.91   -0.01   -1.95   -0.02   -1.97  -29.22  -90.38
   1.206  -29.33  -91.89   -0.01   -2.02   -0.02   -2.03  -29.37  -90.51
   1.217  -29.45  -91.83   -0.01   -2.08   -0.02   -2.09  -29.52  -90.62
   1.228  -29.56  -91.86   -0.01   -2.14   -0.02   -2.15  -29.65  -90.77
   1.239  -29.68  -91.95   -0.01   -2.20   -0.02   -2.21  -29.78  -90.87
   1.249  -29.79  -92.05   -0.01   -2.27   -0.02   -2.27  -29.90  -91.03
   1.260  -29.91  -92.18   -0.01   -2.33   -0.02   -2.33  -30.01  -91.17
   1.271  -30.03  -92.33   -0.01   -2.39   -0.02   -2.39  -30.13  -91.29
   1.282  -30.15  -92.49   -0.01   -2.45   -0.02   -2.45  -30.22  -91.34
   1.292  -30.28  -92.70   -0.01   -2.51   -0.02   -2.51  -30.32  -91.40
   1.303  -30.40  -92.83   -0.01   -2.57   -0.02   -2.57  -30.42  -91.36
   1.314  -30.53  -92.99   -0.01   -2.65   -0.02   -2.64  -30.53  -91.32
   1.325  -30.66  -93.17   -0.01   -2.70   -0.02   -2.70  -30.64  -91.22
   1.335  -30.79  -93.25   -0.01   -2.76   -0.02   -2.76  -30.77  -91.11
   1.346  -30.92  -93.31   -0.01   -2.82   -0.02   -2.83  -30.90  -91.00
   1.357  -31.06  -93.38   -0.01   -2.88   -0.02   -2.89  -31.03  -90.85
   1.368  -31.20  -93.35   -0.01   -2.94   -0.02   -2.94  -31.19  -90.75
   1.378  -31.33  -93.31   -0.01   -2.99   -0.02   -3.00  -31.33  -90.74
   1.389  -31.47  -93.26   -0.01   -3.04   -0.02   -3.06  -31.48  -90.69
   1.400  -31.60  -93.19   -0.01   -3.13   -0.02   -3.12  -31.64  -90.73
   1.411  -31.72  -93.14   -0.01   -3.18   -0.02   -3.18  -31.79  -90.91
   1.421  -31.85  -93.14   -0.01   -3.22   -0.02   -3.24  -31.95  -91.07
   1.432  -31.97  -93.22   -0.01   -3.28   -0.02   -3.30  -32.08  -91.26
   1.443  -32.09  -93.38   -0.01   -3.36   -0.02   -3.36  -32.22  -91.47
   1.454  -32.22  -93.49   -0.01   -3.41   -0.02   -3.41  -32.35  -91.55
   1.464  -32.35  -93.69   -0.01   -3.48   -0.02   -3.47  -32.46  -91.66
   1.475  -32.49  -93.94   -0.01   -3.54   -0.02   -3.53  -32.57  -91.72
   1.486  -32.62  -94.12   -0.01   -3.58   -0.02   -3.58  -32.68  -91.72
   1.497  -32.77  -94.24   -0.01   -3.63   -0.02   -3.64  -32.78  -91.54
   1.507  -32.91  -94.33   -0.01   -3.69   -0.02   -3.68  -32.88  -91.32
   1.518  -33.05  -94.43   -0.01   -3.73   -0.02   -3.73  -32.96  -91.00
   1.529  -33.21  -94.53   -0.01   -3.77   -0.02   -3.79  -33.03  -90.88
   1.540  -33.36  -94.59   -0.01   -3.85   -0.02   -3.85  -33.12  -90.87
   1.550  -33.53  -94.56   -0.01   -3.90   -0.02   -3.90  -33.23  -91.04
   1.561  -33.70  -94.37   -0.01   -3.93   -0.02   -3.95  -33.39  -91.25
   1.572  -33.85  -94.05   -0.01   -4.00   -0.02   -4.00  -33.60  -91.46
   1.583  -34.00  -93.88   -0.01   -4.07   -0.02   -4.06  -33.83  -91.48
   1.593  -34.14  -93.67   -0.01   -4.12   -0.02   -4.12  -34.03  -91.56
   1.604  -34.28  -93.52   -0.01   -4.17   -0.02   -4.18  -34.23  -91.68
   1.615  -34.43  -93.41   -0.01   -4.23   -0.02   -4.24  -34.42  -91.94
   1.626  -34.56  -93.21   -0.01   -4.31   -0.02   -4.30  -34.61  -92.19
   1.636  -34.69  -93.12   -0.01   -4.35   -0.02   -4.36  -34.79  -92.44
   1.647  -34.81  -93.18   -0.01   -4.41   -0.02   -4.42  -34.94  -92.68
   1.658  -34.92  -93.25   -0.01   -4.47   -0.02   -4.47  -35.07  -92.83
   1.669  -35.00  -93.49   -0.01   -4.53   -0.02   -4.53  -35.22  -92.85
   1.679  -35.09  -93.95   -0.01   -4.57   -0.02   -4.58  -35.34  -92.74
   1.690  -35.21  -94.47   -0.01   -4.63   -0.02   -4.63  -35.46  -92.47
   1.701  -35.34  -95.13   -0.01   -4.70   -0.02   -4.69  -35.58  -92.18
   1.712  -35.51  -95.73   -0.01   -4.74   -0.02   -4.74  -35.70  -91.65
   1.722  -35.69  -96.14   -0.01   -4.78   -0.02   -4.78  -35.83  -91.18
   1.733  -35.89  -96.49   -0.01   -4.84   -0.02   -4.83  -35.99  -90.70
   1.744  -36.09  -96.71   -0.01   -4.89   -0.02   -4.88  -36.14  -90.21
   1.755  -36.29  -96.78   -0.01   -4.92   -0.02   -4.92  -36.30  -89.99
   1.765  -36.49  -96.78   -0.01   -4.99   -0.02   -4.97  -36.50  -89.66
   1.776  -36.69  -96.58   -0.01   -5.04   -0.02   -5.02  -36.71  -89.49
   1.787  -36.87  -96.52   -0.01   -5.07   -0.02   -5.07  -36.93  -89.57
   1.798  -37.06  -96.38   -0.01   -5.11   -0.02   -5.12  -37.17  -89.73
   1.808  -37.26  -96.15   -0.01   -5.17   -0.02   -5.17  -37.41  -89.77
   1.819  -37.45  -95.94   -0.01   -5.23   -0.02   -5.22  -37.65  -89.80
   1.830  -37.62  -95.91   -0.01   -5.25   -0.02   -5.27  -37.88  -90.15
   1.841  -37.80  -95.76   -0.01   -5.30   -0.02   -5.32  -38.08  -90.24
   1.851  -37.96  -95.81   -0.01   -5.38   -0.02   -5.37  -38.28  -90.52
   1.862  -38.12  -96.01   -0.01   -5.43   -0.02   -5.43  -38.42  -90.69
   1.873  -38.26  -96.23   -0.01   -5.47   -0.02   -5.48  -38.59  -90.70
   1.884  -38.46  -96.74   -0.01   -5.54   -0.02   -5.53  -38.72  -90.60
   1.894  -38.63  -97.33   -0.01   -5.60   -0.02   -5.59  -38.84  -90.32
   1.905  -38.83  -97.77   -0.01   -5.65   -0.02   -5.63  -38.96  -89.98
   1.916  -39.06  -98.16   -0.01   -5.70   -0.02   -5.68  -39.14  -89.58
   1.927  -39.28  -98.67   -0.01   -5.72   -0.02   -5.73  -39.30  -88.92
   1.937  -39.55  -99.00   -0.01   -5.79   -0.02   -5.78  -39.52  -88.37
   1.948  -39.82  -99.30   -0.01   -5.84   -0.02   -5.84  -39.76  -87.36
   1.959  -40.09  -99.48   -0.01   -5.87   -0.02   -5.89  -40.03  -86.48
   1.970  -40.41  -99.50   -0.01   -5.93   -0.02   -5.95  -40.30  -85.89
   1.980  -40.69  -99.36   -0.01   -6.00   -0.02   -6.00  -40.62  -85.29
   1.991  -41.00  -99.13   -0.01   -6.06   -0.02   -6.05  -40.95  -84.75
   2.002  -41.29  -98.90   -0.01   -6.09   -0.02   -6.10  -41.27  -84.60
   2.013  -41.57  -98.56   -0.01   -6.17   -0.02   -6.16  -41.58  -84.49
   2.023  -41.83  -98.48   -0.01   -6.22   -0.02   -6.21  -41.91  -84.56
   2.034  -42.08  -98.49   -0.01   -6.26   -0.02   -6.26  -42.26  -84.55
   2.045  -42.33  -98.64   -0.01   -6.30   -0.02   -6.31  -42.51  -84.55
   2.056  -42.61  -99.21   -0.01   -6.38   -0.02   -6.36  -42.75  -84.64
   2.066  -42.90  -99.63   -0.01   -6.41   -0.02   -6.41  -42.96  -84.53
   2.077  -43.18 -100.29   -0.01   -6.46   -0.02   -6.46  -43.16  -83.87
   2.088  -43.51 -100.99   -0.01   -6.51   -0.02   -6.51  -43.34  -83.19
   2.099  -43.83 -101.61   -0.01   -6.56   -0.02   -6.55  -43.52  -82.15
   2.109  -44.17 -102.31   -0.01   -6.61   -0.02   -6.60  -43.70  -81.20
   2.120  -44.58 -103.00   -0.01   -6.64   -0.02   -6.65  -43.88  -79.82
   2.131  -44.92 -103.57   -0.01   -6.71   -0.02   -6.70  -44.14  -78.43
   2.142  -45.36 -104.28   -0.01   -6.75   -0.02   -6.75  -44.45  -77.03
   2.152  -45.80 -104.77   -0.01   -6.80   -0.02   -6.80  -44.82  -75.11
   2.163  -46.29 -105.00   -0.01   -6.85   -0.02   -6.85  -45.22  -73.53
   2.174  -46.82 -104.86   -0.01   -6.90   -0.02   -6.90  -45.67  -72.06
   2.185  -47.33 -104.74   -0.01   -6.95   -0.02   -6.95  -46.20  -70.33
   2.195  -47.96 -104.31   -0.01   -6.98   -0.02   -7.00  -46.78  -69.23
   2.206  -48.50 -102.92   -0.01   -7.06   -0.02   -7.05  -47.34  -67.85
   2.217  -49.05 -102.16   -0.01   -7.10   -0.02   -7.10  -48.01  -66.71
   2.228  -49.57 -101.39   -0.01   -7.13   -0.02   -7.15  -48.68  -66.01
   2.238  -50.18 -101.15   -0.01   -7.19   -0.03   -7.20  -49.22  -64.58
   2.249  -50.87 -101.11   -0.01   -7.24   -0.03   -7.25  -49.79  -63.57
   2.260  -51.54 -101.36   -0.01   -7.30   -0.03   -7.29  -50.27  -61.15
   2.271  -52.36 -101.77   -0.01   -7.34   -0.02   -7.34  -50.62  -58.76
   2.281  -53.29 -104.44   -0.01   -7.39   -0.03   -7.39  -50.86  -55.83
   2.292  -54.39 -106.65   -0.01   -7.45   -0.03   -7.45  -50.94  -52.07
   2.303  -55.77 -109.81   -0.01   -7.49   -0.03   -7.50  -50.86  -48.00
   2.314  -56.93 -114.49   -0.01   -7.54   -0.03   -7.55  -50.70  -43.56
   2.324  -58.62 -120.66   -0.01   -7.59   -0.03   -7.60  -50.68  -39.84
   2.335  -60.28 -131.23   -0.02   -7.64   -0.03   -7.65  -50.58  -35.03
   2.346  -62.22 -145.37   -0.02   -7.69   -0.03   -7.69  -50.47  -30.47
   2.357  -63.90 -167.74   -0.02   -7.74   -0.03   -7.74  -50.46  -25.66
   2.367  -64.06  166.25   -0.02   -7.80   -0.03   -7.79  -50.43  -19.94
   2.378  -62.96  138.88   -0.02   -7.83   -0.03   -7.84  -50.47  -15.32
   2.389  -61.37  122.12   -0.02   -7.88   -0.03   -7.89  -50.58  -10.21
   2.400  -59.54  105.60   -0.02   -7.94   -0.03   -7.94  -50.71   -5.01
   2.410  -58.17   96.81   -0.02   -7.99   -0.03   -7.99  -50.81   -0.89
   2.421  -56.93   88.78   -0.02   -8.04   -0.03   -8.04  -50.99    3.95
   2.432  -56.02   84.41   -0.02   -8.08   -0.03   -8.09  -51.18    8.64
   2.443  -54.88   81.01   -0.02   -8.13   -0.03   -8.13  -51.29   12.52
   2.453  -53.94   79.31   -0.02   -8.18   -0.03   -8.18  -51.49   15.86
   2.464  -53.17   78.22   -0.02   -8.22   -0.03   -8.23  -51.44   19.41
   2.475  -52.30   77.66   -0.02   -8.26   -0.03   -8.27  -51.41   21.62
   2.486  -51.48   77.71   -0.02   -8.31   -0.03   -8.32  -51.29   23.92
   2.496  -50.87   77.92   -0.02   -8.35   -0.03   -8.36  -51.02   27.25
   2.507  -50.19   78.50   -0.02   -8.40   -0.03   -8.40  -50.61   29.92
   2.518  -49.60   79.67   -0.02   -8.44   -0.03   -8.45  -50.22   32.63
   2.529  -49.02   80.51   -0.02   -8.49   -0.03   -8.49  -49.60   36.07
   2.539  -48.42   81.18   -0.02   -8.53   -0.03   -8.53  -48.91   39.16
   2.550  -47.87   81.25   -0.02   -8.58   -0.03   -8.58  -48.16   42.36
   2.561  -47.43   81.23   -0.02   -8.62   -0.03   -8.63  -47.54   44.92
   2.572  -47.05   80.99   -0.02   -8.67   -0.03   -8.67  -46.85   47.28
   2.582  -46.65   80.76   -0.02   -8.72   -0.03   -8.72  -46.30   49.70
   2.593  -46.40   80.24   -0.02   -8.77   -0.03   -8.77  -45.74   51.91
   2.604  -46.09   80.24   -0.02   -8.82   -0.03   -8.82  -45.22   54.07
   2.615  -45.82   79.41   -0.02   -8.87   -0.03   -8.87  -44.87   55.80
   2.625  -45.53   78.98   -0.02   -8.93   -0.03   -8.93  -44.44   57.39
   2.636  -45.40   79.27   -0.02   -8.97   -0.03   -8.98  -44.14   59.03
   2.647  -45.11   79.35   -0.02   -9.03   -0.03   -9.03  -43.86   60.66
   2.658  -44.84   79.82   -0.02   -9.09   -0.03   -9.09  -43.60   61.65
   2.668  -44.56   80.46   -0.02   -9.14   -0.03   -9.15  -43.33   62.09
   2.679  -44.22   81.38   -0.02   -9.20   -0.03   -9.20  -43.07   62.12
   2.690  -43.89   82.25   -0.02   -9.26   -0.03   -9.26  -42.83   62.25
   2.701  -43.47   83.45   -0.02   -9.32   -0.03   -9.32  -42.52   62.04
   2.711  -43.10   84.78   -0.02   -9.37   -0.03   -9.37  -42.15   61.81
   2.722  -42.65   85.92   -0.02   -9.42   -0.03   -9.42  -41.77   61.17
   2.733  -42.19   86.68   -0.02   -9.47   -0.03   -9.48  -41.40   60.89
   2.744  -41.75   87.00   -0.02   -9.53   -0.03   -9.53  -41.00   60.62
   2.754  -41.35   87.27   -0.02   -9.58   -0.03   -9.59  -40.56   60.33
   2.765  -40.96   87.62   -0.02   -9.63   -0.03   -9.64  -40.18   60.43
   2.776  -40.61   87.53   -0.02   -9.69   -0.03   -9.69  -39.79   60.41
   2.787  -40.23   87.45   -0.02   -9.74   -0.03   -9.74  -39.43   60.87
   2.797  -39.91   86.89   -0.02   -9.80   -0.03   -9.79  -39.10   61.35
   2.808  -39.62   86.47   -0.02   -9.85   -0.03   -9.85  -38.79   61.42
   2.819  -39.31   86.03   -0.02   -9.90   -0.03   -9.90  -38.52   61.75
   2.830  -39.03   85.58   -0.02   -9.96   -0.03   -9.95  -38.30   62.02
   2.840  -38.79   84.99   -0.02  -10.02   -0.03  -10.01  -38.11   62.24
   2.851  -38.49   84.51   -0.02  -10.07   -0.03  -10.07  -37.98   62.39
   2.862  -38.24   84.00   -0.02  -10.13   -0.03  -10.12  -37.82   62.84
   2.873  -37.97   83.59   -0.02  -10.19   -0.03  -10.18  -37.65   62.77
   2.883  -37.69   83.41   -0.02  -10.25   -0.03  -10.24  -37.47   62.92
   2.894  -37.40   83.17   -0.02  -10.31   -0.03  -10.30  -37.28   62.65
   2.905  -37.12   82.78   -0.02  -10.37   -0.03  -10.36  -37.06   62.43
   2.916  -36.84   82.69   -0.02  -10.43   -0.04  -10.42  -36.83   62.05
   2.926  -36.57   82.45   -0.02  -10.49   -0.04  -10.48  -36.56   61.50
   2.937  -36.29   82.14   -0.03  -10.55   -0.04  -10.53  -36.31   61.29
   2.948  -36.02   81.78   -0.03  -10.61   -0.04  -10.60  -36.02   60.99
   2.959  -35.75   81.55   -0.03  -10.68   -0.04  -10.66  -35.74   61.05
   2.969  -35.49   81.05   -0.03  -10.74   -0.04  -10.72  -35.41   60.97
   2.980  -35.26   80.50   -0.03  -10.81   -0.04  -10.79  -35.12   60.98
   2.991  -35.01   79.92   -0.03  -10.88   -0.04  -10.86  -34.80   61.02
   3.002  -34.76   79.44   -0.03  -10.94   -0.04  -10.93  -34.49   61.04
   3.012  -34.53   78.62   -0.03  -11.02   -0.04  -11.01  -34.24   61.37
   3.023  -34.30   78.11   -0.03  -11.08   -0.04  -11.07  -33.96   61.58
   3.034  -34.07   77.15   -0.04  -11.16   -0.05  -11.15  -33.71   61.71
   3.045  -33.58   71.89   -0.04  -11.23   -0.05  -11.24  -33.20   64.48
   3.055  -33.33   71.31   -0.04  -11.31   -0.05  -11.31  -32.95   64.21
   3.066  -33.05   70.83   -0.04  -11.39   -0.05  -11.39  -32.66   63.99
   3.077  -32.74   70.42   -0.05  -11.48   -0.06  -11.48  -32.38   63.46
   3.088  -32.41   70.08   -0.05  -11.56   -0.06  -11.57  -32.05   62.98
   3.098  -32.06   69.49   -0.05  -11.65   -0.06  -11.66  -31.73   62.43
   3.109  -31.70   69.08   -0.06  -11.74   -0.07  -11.75  -31.39   61.54
   3.120  -31.33   68.38   -0.06  -11.84   -0.07  -11.84  -31.01   60.77
   3.131  -30.93   67.76   -0.07  -11.93   -0.08  -11.94  -30.63   59.83
   3.141  -30.50   66.87   -0.07  -12.04   -0.09  -12.05  -30.23   58.89
   3.152  -30.07   65.82   -0.08  -12.15   -0.09  -12.17  -29.80   57.92
   3.163  -29.62   64.65   -0.09  -12.25   -0.10  -12.28  -29.34   56.80
   3.174  -29.17   63.18   -0.10  -12.37   -0.11  -12.39  -28.87   55.61
   3.184  -28.68   61.58   -0.12  -12.50   -0.13  -12.53  -28.36   54.07
   3.195  -28.18   59.63   -0.13  -12.63   -0.14  -12.66  -27.86   52.33
   3.206  -27.66   57.28   -0.15  -12.76   -0.17  -12.79  -27.33   50.33
