!  American Technical Ceramics  Date:   10/26/00
!  One Norden Lane
!  Huntington Station,  NY.   11746-2102
!  Tel:  (631) 622-4700               Fax:  (631) 622-4748
!  Part Number  600S2R4BW      Mounting Orientation: Horizontal
!  Description: Ultra Low ESR Microwave capacitors
!  Application: Coupling, Bypass, Tuning, DC Block
!               Filters, Matching
# GHZ S DB R 50
! Freq   |S11|   S11 Ph  |S21|   S21 Ph  |S12|   S12 Ph  |S22|   S22 Ph
   0.000   0.00    0.00	  -999.00  90.00  -999.00  90.00    0.00    0.00
   0.400   -1.38  -32.37   -5.74   57.37   -5.74   57.27   -1.36  -32.07
   0.465   -1.76  -36.49   -4.82   53.18   -4.83   53.04   -1.77  -36.37
   0.530   -2.21  -39.98   -4.08   49.37   -4.10   48.47   -2.22  -40.54
   0.595   -2.66  -43.96   -3.52   45.97   -3.53   45.83   -2.64  -42.69
   0.660   -3.04  -47.06   -3.03   42.69   -3.05   42.96   -3.09  -45.90
   0.725   -3.52  -49.51   -2.65   39.76   -2.65   39.71   -3.50  -49.46
   0.790   -3.90  -52.35   -2.31   36.86   -2.31   36.60   -3.96  -52.67
   0.855   -4.38  -55.13   -2.06   34.63   -2.06   34.27   -4.39  -54.60
   0.920   -4.78  -57.22   -1.81   32.46   -1.84   32.25   -4.80  -56.63
   0.985   -5.20  -59.50   -1.63   30.27   -1.61   30.52   -5.21  -58.19
   1.050   -5.58  -60.87   -1.44   28.29   -1.45   28.40   -5.61  -61.10
   1.115   -5.99  -62.62   -1.30   26.58   -1.31   26.33   -6.00  -63.05
   1.180   -6.39  -64.99   -1.19   24.83   -1.19   24.52   -6.42  -64.29
   1.245   -6.75  -66.14   -1.05   23.51   -1.07   23.38   -6.76  -65.58
   1.310   -7.13  -67.42   -0.98   21.98   -0.99   22.13   -7.14  -67.08
   1.375   -7.48  -68.57   -0.89   20.53   -0.87   20.60   -7.48  -68.76
   1.440   -7.82  -69.87   -0.83   19.21   -0.83   19.09   -7.89  -70.25
   1.505   -8.20  -71.27   -0.74   18.17   -0.76   17.80   -8.18  -71.12
   1.570   -8.54  -72.33   -0.71   17.03   -0.71   16.97   -8.55  -71.90
   1.635   -8.84  -73.02   -0.64   15.80   -0.64   15.98   -8.86  -73.34
   1.700   -9.18  -73.67   -0.60   14.90   -0.60   14.88   -9.17  -74.50
   1.765   -9.45  -75.02   -0.56   13.83   -0.56   13.69   -9.50  -75.60
   1.830   -9.80  -76.01   -0.52   13.05   -0.53   12.80   -9.79  -76.19
   1.895  -10.08  -76.79   -0.48   12.08   -0.50   12.01  -10.07  -77.19
   1.960  -10.34  -77.24   -0.46   11.23   -0.45   11.39  -10.38  -78.18
   2.025  -10.64  -78.04   -0.43   10.39   -0.43   10.36  -10.65  -79.25
   2.090  -10.91  -78.94   -0.40    9.63   -0.41    9.48  -10.93  -79.97
   2.155  -11.17  -79.91   -0.38    8.89   -0.38    8.68  -11.19  -80.55
   2.220  -11.44  -80.20   -0.35    8.19   -0.36    8.20  -11.45  -81.39
   2.285  -11.69  -80.68   -0.34    7.44   -0.34    7.53  -11.71  -82.35
   2.350  -11.92  -81.41   -0.32    6.71   -0.31    6.77  -11.97  -83.18
   2.415  -12.21  -82.32   -0.30    6.10   -0.31    5.94  -12.21  -83.54
   2.480  -12.45  -82.92   -0.29    5.45   -0.30    5.28  -12.46  -84.17
   2.545  -12.70  -83.01   -0.28    4.77   -0.28    4.81  -12.70  -84.96
   2.610  -12.92  -83.17   -0.27    4.23   -0.26    4.26  -12.93  -85.47
   2.675  -13.15  -83.57   -0.27    3.59   -0.26    3.62  -13.15  -86.02
   2.740  -13.35  -84.36   -0.25    3.08   -0.25    2.93  -13.36  -86.23
   2.805  -13.57  -84.71   -0.25    2.56   -0.25    2.42  -13.55  -86.85
   2.870  -13.75  -84.74   -0.24    2.01   -0.24    2.03  -13.74  -87.63
   2.935  -13.92  -85.12   -0.23    1.47   -0.22    1.56  -13.95  -88.21
   3.000  -14.15  -86.04   -0.21    0.92   -0.22    0.87  -14.11  -88.56
   3.065  -14.32  -86.60   -0.22    0.43   -0.21    0.30  -14.30  -89.03
   3.130  -14.54  -87.09   -0.20   -0.06   -0.21   -0.19  -14.43  -89.52
   3.195  -14.65  -87.11   -0.20   -0.50   -0.19   -0.49  -14.63  -90.34
   3.260  -14.84  -87.58   -0.20   -0.99   -0.19   -0.97  -14.80  -90.67
   3.325  -14.99  -88.22   -0.20   -1.37   -0.18   -1.40  -14.93  -90.90
   3.390  -15.15  -88.91   -0.18   -1.82   -0.18   -1.93  -15.07  -91.44
   3.455  -15.26  -89.34   -0.17   -2.24   -0.17   -2.33  -15.24  -91.97
   3.520  -15.43  -89.53   -0.17   -2.71   -0.17   -2.65  -15.40  -93.03
   3.585  -15.58  -90.51   -0.16   -3.10   -0.15   -3.09  -15.58  -93.33
   3.650  -15.78  -91.19   -0.16   -3.55   -0.16   -3.58  -15.72  -93.80
   3.715  -15.95  -91.49   -0.14   -3.91   -0.15   -4.09  -15.93  -94.23
   3.780  -16.14  -91.47   -0.14   -4.39   -0.15   -4.45  -16.10  -94.84
   3.845  -16.25  -91.67   -0.13   -4.81   -0.13   -4.80  -16.24  -95.15
   3.910  -16.40  -92.05   -0.14   -5.18   -0.13   -5.17  -16.40  -95.32
   3.975  -16.62  -92.74   -0.13   -5.59   -0.14   -5.67  -16.54  -95.43
   4.040  -16.69  -92.80   -0.13   -5.93   -0.13   -6.06  -16.66  -96.08
   4.105  -16.86  -92.87   -0.12   -6.36   -0.12   -6.42  -16.79  -96.88
   4.170  -16.96  -93.08   -0.13   -6.67   -0.11   -6.64  -16.97  -97.28
   4.235  -17.12  -93.68   -0.12   -7.11   -0.11   -7.12  -17.09  -97.45
   4.300  -17.27  -93.98   -0.11   -7.40   -0.12   -7.48  -17.24  -97.71
   4.365  -17.40  -94.20   -0.11   -7.84   -0.11   -7.96  -17.38  -98.39
   4.430  -17.51  -94.36   -0.10   -8.18   -0.11   -8.24  -17.53  -98.78
   4.495  -17.63  -94.44   -0.11   -8.57   -0.10   -8.55  -17.67  -99.30
   4.560  -17.77  -95.18   -0.09   -8.88   -0.09   -8.90  -17.76  -99.15
   4.625  -17.89  -95.46   -0.10   -9.29   -0.10   -9.37  -17.88  -99.92
   4.690  -18.00  -95.48   -0.08   -9.61   -0.10   -9.73  -18.00 -100.36
   4.755  -18.10  -95.46   -0.09  -10.04   -0.10  -10.07  -18.20 -101.25
   4.820  -18.25  -96.02   -0.09  -10.39   -0.08  -10.33  -18.31 -101.45
   4.885  -18.37  -96.57   -0.09  -10.70   -0.09  -10.71  -18.48 -101.38
   4.950  -18.55  -96.62   -0.09  -11.11   -0.09  -11.13  -18.53 -101.99
   5.015  -18.60  -96.74   -0.09  -11.40   -0.09  -11.48  -18.77 -102.41
   5.080  -18.79  -96.84   -0.08  -11.76   -0.08  -11.79  -18.84 -103.01
   5.145  -18.89  -97.12   -0.09  -12.07   -0.08  -12.09  -19.03 -103.05
   5.210  -19.08  -97.52   -0.08  -12.44   -0.07  -12.43  -19.11 -103.27
   5.275  -19.21  -97.88   -0.08  -12.73   -0.08  -12.79  -19.28 -103.42
   5.340  -19.34  -97.43   -0.09  -13.11   -0.08  -13.21  -19.43 -104.48
   5.405  -19.43  -98.11   -0.07  -13.41   -0.08  -13.45  -19.57 -104.29
   5.470  -19.64  -97.95   -0.08  -13.75   -0.07  -13.74  -19.69 -104.84
   5.535  -19.76  -98.77   -0.08  -14.08   -0.08  -14.10  -19.84 -104.85
   5.600  -19.88  -98.48   -0.08  -14.43   -0.07  -14.51  -19.99 -105.69
   5.665  -20.03  -98.90   -0.08  -14.74   -0.07  -14.80  -20.16 -105.81
   5.730  -20.19  -98.79   -0.08  -15.07   -0.07  -15.12  -20.31 -106.60
   5.795  -20.33  -99.57   -0.07  -15.36   -0.07  -15.36  -20.44 -106.43
   5.860  -20.54  -99.58   -0.08  -15.68   -0.07  -15.69  -20.60 -106.81
   5.925  -20.68  -99.85   -0.07  -16.04   -0.07  -16.07  -20.77 -107.39
   5.990  -20.75  -99.59   -0.07  -16.31   -0.06  -16.39  -21.00 -107.73
   6.055  -21.04 -100.16   -0.07  -16.64   -0.07  -16.61  -21.12 -107.53
   6.120  -21.17 -100.28   -0.07  -16.93   -0.07  -17.01  -21.29 -107.86
   6.185  -21.35 -100.97   -0.06  -17.31   -0.06  -17.30  -21.45 -107.71
   6.250  -21.56 -100.29   -0.07  -17.60   -0.06  -17.66  -21.66 -108.38
   6.315  -21.73 -100.88   -0.06  -17.93   -0.07  -17.99  -21.87 -108.27
   6.380  -21.90 -100.85   -0.06  -18.19   -0.06  -18.26  -22.05 -108.21
   6.445  -22.21 -101.46   -0.07  -18.52   -0.06  -18.53  -22.18 -107.91
   6.510  -22.36 -101.66   -0.06  -18.91   -0.06  -18.94  -22.42 -108.27
   6.575  -22.57 -101.60   -0.06  -19.16   -0.06  -19.24  -22.65 -108.36
   6.640  -22.78 -102.05   -0.06  -19.51   -0.07  -19.57  -22.89 -108.50
   6.705  -23.08 -102.88   -0.07  -19.84   -0.06  -19.88  -23.01 -108.05
   6.770  -23.30 -103.39   -0.06  -20.15   -0.06  -20.20  -23.24 -107.65
   6.835  -23.67 -104.50   -0.07  -20.50   -0.06  -20.47  -23.37 -106.99
   6.900  -23.91 -105.13   -0.07  -20.88   -0.07  -20.95  -23.57 -106.90
   6.965  -24.48 -107.23   -0.09  -21.27   -0.09  -21.31  -23.57 -105.95
   7.030  -25.45 -109.78   -0.13  -21.66   -0.12  -21.65  -23.18 -105.20
   7.095  -27.27 -104.38   -0.19  -21.65   -0.18  -21.69  -22.71 -110.77
   7.160  -26.61  -91.21   -0.15  -21.31   -0.15  -21.40  -23.64 -118.79
   7.225  -25.72  -92.61   -0.10  -21.64   -0.10  -21.68  -24.74 -118.78
   7.290  -25.68  -94.60   -0.07  -22.06   -0.07  -22.11  -25.41 -117.12
   7.355  -26.04  -96.23   -0.07  -22.42   -0.07  -22.45  -25.80 -115.89
   7.420  -26.25  -97.87   -0.06  -22.74   -0.06  -22.72  -26.27 -114.45
   7.485  -26.57  -97.02   -0.05  -23.08   -0.05  -23.15  -26.76 -114.37
   7.550  -26.97  -97.97   -0.05  -23.42   -0.05  -23.47  -27.21 -114.07
   7.615  -27.35  -98.77   -0.05  -23.75   -0.05  -23.73  -27.64 -112.47
   7.680  -27.77  -98.14   -0.05  -24.04   -0.05  -24.09  -28.14 -111.85
   7.745  -28.28  -98.69   -0.05  -24.36   -0.05  -24.41  -28.69 -110.89
   7.810  -28.68  -98.49   -0.05  -24.68   -0.04  -24.66  -29.21 -108.87
   7.875  -29.12  -96.62   -0.04  -24.96   -0.04  -24.97  -29.80 -107.85
   7.940  -29.73  -97.45   -0.04  -25.29   -0.04  -25.33  -30.24 -105.19
   8.005  -30.03  -96.77   -0.04  -25.57   -0.04  -25.61  -30.64 -102.08
   8.070  -30.38  -96.11   -0.03  -25.88   -0.03  -25.97  -31.09 -100.41
   8.135  -30.83  -98.14   -0.04  -26.21   -0.03  -26.29  -31.47  -98.52
   8.200  -31.57  -99.93   -0.04  -26.54   -0.04  -26.59  -31.97  -97.09
   8.265  -32.52  -99.94   -0.04  -26.87   -0.04  -26.87  -32.43  -94.62
   8.330  -29.50 -126.80   -0.04  -27.26   -0.04  -27.28  -27.82  -83.01
   8.395  -30.62 -129.87   -0.05  -27.56   -0.05  -27.56  -28.38  -78.77
   8.460  -31.91 -132.73   -0.05  -27.82   -0.04  -27.90  -28.89  -75.16
   8.525  -33.46 -138.70   -0.04  -28.16   -0.05  -28.24  -29.37  -69.99
   8.590  -35.41 -146.09   -0.05  -28.44   -0.05  -28.44  -29.89  -63.98
   8.655  -37.43 -154.89   -0.06  -28.72   -0.06  -28.74  -30.23  -58.36
   8.720  -39.61 -173.56   -0.06  -29.00   -0.06  -29.03  -30.77  -50.12
   8.785  -41.27  164.43   -0.07  -29.28   -0.06  -29.32  -30.91  -41.16
   8.850  -41.47  138.39   -0.07  -29.57   -0.07  -29.61  -30.55  -32.44
   8.915  -40.01  119.30   -0.07  -29.85   -0.07  -29.86  -30.08  -25.84
   8.980  -37.46  107.79   -0.08  -30.12   -0.08  -30.15  -29.88  -19.71
   9.045  -35.27   99.56   -0.08  -30.32   -0.08  -30.37  -29.50  -13.42
   9.110  -33.38   90.97   -0.08  -30.58   -0.07  -30.61  -28.83   -7.10
   9.175  -32.07   85.55   -0.08  -30.88   -0.07  -30.94  -28.22   -2.53
   9.240  -30.95   80.70   -0.08  -31.07   -0.07  -31.15  -27.57    1.57
   9.305  -30.22   79.13   -0.08  -31.30   -0.07  -31.35  -26.98    6.03
   9.370  -29.48   79.47   -0.07  -31.62   -0.07  -31.67  -26.38    9.19
   9.435  -28.60   80.26   -0.06  -31.94   -0.06  -31.98  -25.64   11.21
   9.500  -27.78   80.20   -0.06  -32.24   -0.06  -32.19  -24.96   13.83
   9.565  -27.05   79.79   -0.05  -32.50   -0.06  -32.53  -24.47   15.20
   9.630  -26.24   80.44   -0.05  -32.76   -0.05  -32.81  -23.96   15.95
   9.695  -25.51   81.72   -0.03  -33.07   -0.04  -33.07  -23.54   17.41
   9.760  -24.79   81.46   -0.02  -33.39   -0.02  -33.39  -23.16   18.41
   9.825  -23.98   81.33   -0.01  -33.75    0.00  -33.79  -22.69   19.64
   9.890  -23.30   80.70    0.00  -34.17    0.00  -34.19  -22.30   20.87
   9.955  -22.54   79.27    0.01  -34.62    0.01  -34.73  -22.01   21.63
  10.020  -22.04   78.38    0.00  -35.03    0.00  -35.12  -21.57   22.29
  10.085  -21.69   76.48    0.00  -35.40    0.00  -35.44  -21.22   23.94
  10.150  -21.28   75.36    0.00  -35.82    0.00  -35.79  -20.87   24.77
  10.215  -20.95   75.23   -0.02  -36.20   -0.02  -36.27  -20.42   25.07
  10.280  -20.59   74.98   -0.02  -36.52   -0.03  -36.58  -20.07   25.44
  10.345  -20.15   74.32   -0.04  -36.88   -0.04  -36.92  -19.72   25.22
  10.410  -19.83   73.56   -0.05  -37.19   -0.05  -37.30  -19.41   25.06
  10.475  -19.52   71.62   -0.06  -37.57   -0.07  -37.53  -19.18   25.37
  10.540  -19.19   71.06   -0.07  -37.84   -0.06  -37.88  -18.99   24.71
  10.605  -19.02   70.05   -0.09  -38.15   -0.09  -38.25  -18.79   24.53
  10.670  -18.87   68.99   -0.09  -38.49   -0.08  -38.51  -18.55   24.96
  10.735  -18.63   68.39   -0.09  -38.72   -0.10  -38.79  -18.41   24.80
  10.800  -18.57   66.90   -0.10  -39.08   -0.10  -39.09  -18.19   25.13
  10.865  -18.42   66.06   -0.10  -39.40   -0.11  -39.41  -18.03   24.54
  10.930  -18.31   65.86   -0.11  -39.69   -0.12  -39.72  -17.93   24.20
  10.995  -18.34   64.88   -0.12  -39.98   -0.11  -40.01  -17.82   24.47
  11.060  -18.28   64.52   -0.11  -40.28   -0.11  -40.26  -17.64   24.67
  11.125  -18.19   65.06   -0.11  -40.50   -0.11  -40.50  -17.61   24.51
  11.190  -18.17   64.90   -0.11  -40.84   -0.11  -40.88  -17.50   24.78
  11.255  -17.97   65.00   -0.10  -41.13   -0.10  -41.20  -17.38   24.76
  11.320  -17.88   65.35   -0.09  -41.50   -0.09  -41.58  -17.23   25.22
  11.385  -17.69   64.61   -0.08  -41.87   -0.08  -41.85  -17.15   25.47
  11.450  -17.53   64.39   -0.08  -42.27   -0.08  -42.30  -16.93   25.42
  11.515  -17.35   64.32   -0.08  -42.66   -0.09  -42.70  -16.87   24.98
  11.580  -17.23   63.23   -0.08  -43.05   -0.08  -43.09  -16.75   25.06
  11.645  -17.06   62.61   -0.08  -43.50   -0.08  -43.56  -16.59   24.79
  11.710  -16.97   61.85   -0.08  -43.92   -0.07  -43.98  -16.47   24.70
  11.775  -16.77   60.38   -0.08  -44.44   -0.09  -44.48  -16.44   24.36
  11.840  -16.67   60.05   -0.10  -44.94   -0.10  -45.02  -16.25   23.60
  11.905  -16.51   58.61   -0.10  -45.41   -0.11  -45.43  -16.23   23.85
  11.970  -16.46   57.43   -0.12  -45.86   -0.12  -45.93  -16.01   23.48
  12.035  -16.27   56.18   -0.14  -46.38   -0.13  -46.39  -15.88   23.47
  12.100  -16.11   55.11   -0.15  -46.93   -0.15  -46.97  -15.73   22.76
  12.165  -15.86   53.17   -0.18  -47.61   -0.19  -47.61  -15.53   22.28
  12.230  -15.65   51.98   -0.20  -48.23   -0.22  -48.33  -15.19   21.29
  12.295  -15.33   49.25   -0.25  -48.99   -0.24  -48.95  -14.89   20.94
  12.360  -14.87   47.11   -0.30  -49.82   -0.31  -49.86  -14.46   19.05
  12.425  -14.40   43.23   -0.41  -50.87   -0.40  -50.79  -13.92   17.43
  12.490  -13.65   38.77   -0.54  -52.08   -0.55  -52.07  -13.26   13.57
  12.555  -12.90   31.09   -0.80  -53.43   -0.81  -53.35  -12.42    9.04
  12.620  -12.00   20.44   -1.27  -54.64   -1.27  -54.62  -11.35    0.30
  12.685  -11.14    3.27   -2.07  -53.85   -2.02  -53.57  -10.48  -13.33
  12.750  -11.16  -20.95   -2.79  -47.34   -2.73  -47.08  -10.59  -34.65
  12.815  -13.18  -47.16   -2.24  -39.10   -2.21  -39.56  -12.08  -55.94
  12.880  -16.42  -67.27   -1.33  -37.71   -1.33  -37.82  -15.12  -70.88
  12.945  -20.21  -80.65   -0.76  -39.01   -0.76  -39.20  -18.19  -78.34
  13.010  -24.11  -90.05   -0.48  -40.57   -0.49  -40.72  -21.24  -79.03
  13.075  -28.15  -96.25   -0.32  -42.06   -0.32  -42.13  -24.17  -76.90
  13.140  -32.54 -103.16   -0.24  -43.18   -0.24  -43.25  -26.59  -71.54
  13.205  -38.42 -111.87   -0.17  -44.23   -0.19  -44.39  -28.43  -62.92
  13.270  -46.70 -143.29   -0.15  -45.03   -0.15  -45.08  -30.25  -53.60
  13.335  -49.34  137.73   -0.12  -45.78   -0.13  -45.84  -31.37  -45.85
  13.400  -43.33   95.97   -0.11  -46.39   -0.12  -46.38  -32.03  -36.96
  13.465  -40.01   91.52   -0.11  -46.98   -0.10  -46.91  -33.00  -29.56
  13.530  -38.58   84.20   -0.08  -47.46   -0.09  -47.48  -33.39  -26.77
  13.595  -37.02   78.64   -0.10  -48.04   -0.09  -47.89  -33.75  -20.71
  13.660  -36.34   74.11   -0.08  -48.48   -0.08  -48.46  -35.05  -17.42
  13.725  -36.48   67.30   -0.08  -48.83   -0.09  -49.00  -36.15  -13.07
  13.790  -36.86   60.46   -0.06  -49.37   -0.08  -49.28  -36.72   -2.60
  13.855  -37.76   60.30   -0.08  -49.72   -0.07  -49.78  -37.18    6.41
  13.920  -38.88   59.21   -0.05  -50.17   -0.06  -50.29  -37.18    7.91
  13.985  -39.18   57.73   -0.07  -50.54   -0.07  -50.56  -37.25   14.93
  14.050  -40.30   56.13   -0.07  -50.94   -0.04  -50.98  -38.03   15.14
  14.115  -40.70   57.41   -0.06  -51.31   -0.06  -51.41  -38.32   18.03
  14.180  -41.09   54.04   -0.07  -51.68   -0.07  -51.75  -38.59   24.54
  14.245  -41.00   46.57   -0.08  -51.99   -0.08  -52.05  -39.71   27.24
  14.310  -40.78   40.07   -0.07  -52.38   -0.06  -52.47  -39.73   31.43
  14.375  -41.22   31.92   -0.07  -52.68   -0.07  -52.73  -40.39   34.37
  14.440  -40.43   21.76   -0.07  -53.01   -0.06  -53.08  -41.74   32.88
  14.505  -39.09   12.38   -0.06  -53.43   -0.06  -53.40  -43.16   39.83
  14.570  -38.18   -6.07   -0.04  -53.73   -0.06  -53.85  -45.27   63.75
  14.635  -37.62  -22.61   -0.04  -54.17   -0.04  -54.19  -42.92   82.40
  14.700  -38.02  -35.43   -0.03  -54.62   -0.04  -54.67  -40.37   88.07
  14.765  -37.89  -44.56   -0.04  -55.01   -0.04  -55.09  -39.11   88.24
  14.830  -37.47  -48.53   -0.03  -55.47   -0.04  -55.48  -37.87   83.59
  14.895  -37.64  -54.60   -0.04  -55.97   -0.04  -55.93  -36.95   81.39
  14.960  -38.02  -62.93   -0.06  -56.43   -0.06  -56.50  -37.14   77.77
  15.025  -39.52  -61.32   -0.09  -56.72   -0.08  -56.72  -36.68   78.09
  15.090  -41.04  -52.89   -0.11  -57.00   -0.10  -56.99  -36.07   80.59
  15.155  -39.88  -37.09   -0.11  -57.23   -0.11  -57.22  -36.16   77.30
  15.220  -38.42  -24.59   -0.11  -57.55   -0.11  -57.52  -34.98   74.70
  15.285  -37.30  -21.64   -0.11  -57.88   -0.11  -58.02  -34.82   75.32
  15.350  -35.51  -17.78   -0.11  -58.23   -0.10  -58.34  -34.77   70.96
  15.415  -34.26  -14.48   -0.11  -58.65   -0.11  -58.64  -33.90   71.11
  15.480  -33.41  -15.08   -0.11  -58.98   -0.11  -59.03  -33.76   72.20
  15.545  -32.60  -13.60   -0.13  -59.43   -0.12  -59.48  -33.03   68.92
  15.610  -31.87  -10.74   -0.13  -59.77   -0.13  -59.86  -31.93   68.76
  15.675  -31.23  -10.95   -0.15  -60.14   -0.15  -60.19  -31.62   68.41
  15.740  -30.34   -7.75   -0.16  -60.56   -0.15  -60.60  -30.68   65.64
  15.805  -29.72   -4.60   -0.17  -60.91   -0.16  -60.79  -29.80   64.56
  15.870  -29.16   -2.77   -0.18  -61.23   -0.19  -61.24  -29.13   62.61
  15.935  -28.34   -0.17   -0.20  -61.51   -0.20  -61.61  -28.11   59.66
  16.000  -27.68    2.16   -0.20  -61.85   -0.21  -61.95  -27.24   58.88
  16.065  -26.64    4.68   -0.21  -62.10   -0.20  -62.06  -26.51   56.15
  16.130  -25.54    6.19   -0.21  -62.40   -0.21  -62.27  -25.55   52.45
  16.195  -24.78    5.62   -0.20  -62.64   -0.21  -62.68  -24.88   49.81
  16.260  -24.13    5.10   -0.20  -63.00   -0.22  -63.08  -24.30   46.77
  16.325  -23.60    5.21   -0.20  -63.37   -0.20  -63.47  -23.72   44.73
  16.390  -23.04    5.24   -0.20  -63.80   -0.20  -63.79  -23.26   42.55
  16.455  -22.50    6.19   -0.20  -64.22   -0.20  -64.19  -22.64   40.39
  16.520  -21.99    7.19   -0.21  -64.59   -0.22  -64.59  -22.06   39.25
  16.585  -21.49    7.59   -0.23  -65.08   -0.23  -65.17  -21.56   37.56
  16.650  -20.96    8.73   -0.24  -65.42   -0.25  -65.46  -20.98   36.30
  16.715  -20.34    9.57   -0.24  -65.89   -0.23  -65.78  -20.51   34.62
  16.780  -19.85    9.53   -0.27  -66.19   -0.26  -66.24  -19.87   33.46
  16.845  -19.35   10.52   -0.28  -66.72   -0.29  -66.61  -19.33   32.19
  16.910  -18.84   10.73   -0.29  -67.03   -0.30  -67.10  -18.78   30.97
  16.975  -18.22   11.13   -0.31  -67.43   -0.29  -67.61  -18.27   29.81
  17.040  -17.83   12.07   -0.32  -67.97   -0.33  -67.90  -17.74   28.55
  17.105  -17.26   11.90   -0.33  -68.25   -0.33  -68.31  -17.30   27.37
  17.170  -16.80   12.22   -0.34  -68.67   -0.35  -68.67  -16.74   26.31
  17.235  -16.34   12.23   -0.36  -69.33   -0.38  -69.43  -16.34   25.08
  17.300  -15.82   12.57   -0.36  -69.67   -0.37  -69.62  -15.88   23.53
  17.365  -15.28   12.72   -0.39  -70.11   -0.37  -70.18  -15.39   22.66
