!  American Technical Ceramics  Date:   10/26/00
!  One Norden Lane
!  Huntington Station,  NY.   11746-2102
!  Tel:  (631) 622-4700               Fax:  (631) 622-4748
!  Part Number  600S0R8AW      Mounting Orientation: Horizontal
!  Description: Ultra Low ESR Microwave capacitors
!  Application: Coupling, Bypass, Tuning, DC Block
!               Filters, Matching
# GHZ S DB R 50
! Freq   |S11|   S11 Ph  |S21|   S21 Ph  |S12|   S12 Ph  |S22|   S22 Ph
   0.000   0.00    0.00	  -999.00  90.00  -999.00  90.00    0.00    0.00
   0.400   -0.19  -12.46  -14.30   77.39  -14.31   77.30   -0.17  -12.16
   0.482   -0.26  -15.22  -12.75   74.42  -12.78   74.24   -0.33  -14.41
   0.563   -0.31  -17.37  -11.46   72.09  -11.50   71.80   -0.44  -17.19
   0.645   -0.42  -19.39  -10.37   69.95  -10.40   69.52   -0.47  -19.68
   0.726   -0.62  -21.68   -9.49   67.76   -9.48   67.29   -0.56  -21.81
   0.808   -0.63  -24.33   -8.64   65.11   -8.64   65.01   -0.68  -24.14
   0.889   -0.86  -26.25   -7.94   63.29   -7.90   62.89   -0.75  -26.32
   0.971   -0.90  -29.08   -7.30   60.61   -7.31   60.99   -1.01  -28.04
   1.052   -1.08  -30.73   -6.73   58.71   -6.74   58.68   -1.12  -30.70
   1.134   -1.19  -32.59   -6.19   56.80   -6.23   56.88   -1.26  -32.63
   1.215   -1.47  -34.71   -5.81   54.93   -5.80   54.72   -1.42  -34.54
   1.297   -1.56  -37.03   -5.35   52.58   -5.37   52.58   -1.60  -36.82
   1.378   -1.72  -38.76   -4.97   50.96   -4.94   50.92   -1.70  -38.35
   1.460   -1.90  -40.75   -4.66   48.92   -4.65   49.15   -1.96  -40.03
   1.541   -2.05  -42.39   -4.30   46.94   -4.32   46.97   -2.11  -42.56
   1.623   -2.21  -43.98   -4.00   45.41   -4.01   45.51   -2.25  -43.94
   1.704   -2.47  -45.45   -3.77   43.86   -3.79   43.68   -2.45  -45.78
   1.786   -2.62  -47.61   -3.55   41.87   -3.53   41.99   -2.65  -47.36
   1.867   -2.79  -48.89   -3.29   40.48   -3.28   40.52   -2.80  -48.96
   1.949   -2.98  -50.41   -3.12   38.81   -3.13   39.09   -3.06  -50.47
   2.030   -3.20  -52.06   -2.92   37.29   -2.92   37.22   -3.20  -52.32
   2.112   -3.36  -53.44   -2.75   35.78   -2.75   35.98   -3.41  -53.68
   2.193   -3.59  -54.81   -2.61   34.46   -2.61   34.45   -3.60  -55.11
   2.275   -3.76  -56.34   -2.45   32.91   -2.44   32.94   -3.78  -56.69
   2.356   -3.92  -57.60   -2.30   31.56   -2.31   31.79   -3.99  -57.91
   2.438   -4.15  -58.64   -2.17   30.34   -2.19   30.42   -4.17  -59.30
   2.519   -4.34  -59.95   -2.07   29.03   -2.09   29.11   -4.36  -60.62
   2.601   -4.55  -61.20   -1.99   27.87   -1.97   27.84   -4.56  -61.57
   2.682   -4.73  -62.23   -1.89   26.47   -1.90   26.67   -4.78  -63.02
   2.764   -4.91  -63.48   -1.79   25.38   -1.78   25.37   -4.93  -64.06
   2.845   -5.10  -64.32   -1.71   24.24   -1.72   24.39   -5.12  -65.19
   2.927   -5.26  -65.51   -1.64   23.14   -1.62   23.22   -5.30  -66.30
   3.008   -5.49  -66.09   -1.53   21.91   -1.54   21.97   -5.48  -68.33
   3.090   -5.65  -67.34   -1.48   20.98   -1.46   20.97   -5.67  -69.12
   3.171   -5.83  -68.16   -1.42   19.90   -1.43   20.09   -5.84  -70.19
   3.253   -5.98  -69.45   -1.33   19.05   -1.34   18.97   -5.98  -71.11
   3.334   -6.16  -70.34   -1.30   18.11   -1.28   18.13   -6.17  -71.90
   3.416   -6.32  -71.24   -1.25   17.13   -1.23   17.24   -6.32  -72.85
   3.497   -6.49  -72.30   -1.17   16.26   -1.19   16.30   -6.44  -73.71
   3.579   -6.62  -73.25   -1.13   15.58   -1.11   15.47   -6.62  -74.49
   3.660   -6.81  -74.13   -1.10   14.49   -1.10   14.61   -6.77  -75.66
   3.742   -6.94  -75.21   -1.02   13.73   -1.03   13.64   -6.93  -76.37
   3.823   -7.11  -75.82   -1.01   13.02   -1.00   12.96   -7.11  -77.05
   3.905   -7.29  -76.62   -0.99   12.13   -0.98   12.15   -7.27  -78.00
   3.986   -7.37  -77.59   -0.93   11.25   -0.94   11.25   -7.35  -78.77
   4.068   -7.56  -78.25   -0.90   10.68   -0.89   10.56   -7.58  -79.38
   4.149   -7.74  -79.00   -0.89    9.73   -0.88    9.75   -7.74  -80.37
   4.231   -7.86  -79.97   -0.82    9.04   -0.82    8.95   -7.84  -80.96
   4.312   -8.01  -80.38   -0.80    8.53   -0.79    8.49   -8.01  -81.50
   4.394   -8.16  -80.99   -0.79    7.69   -0.78    7.62   -8.15  -82.19
   4.475   -8.33  -81.91   -0.75    6.85   -0.75    6.89   -8.27  -83.15
   4.557   -8.44  -82.62   -0.71    6.35   -0.72    6.24   -8.45  -83.62
   4.638   -8.63  -83.24   -0.72    5.48   -0.71    5.43   -8.59  -84.89
   4.720   -8.74  -84.03   -0.65    4.75   -0.65    4.67   -8.70  -85.51
   4.801   -8.91  -84.49   -0.64    4.32   -0.64    4.35   -8.86  -85.91
   4.883   -9.04  -85.08   -0.64    3.67   -0.64    3.48   -9.08  -86.65
   4.964   -9.22  -85.55   -0.62    2.80   -0.61    2.86   -9.14  -87.58
   5.046   -9.32  -86.50   -0.58    2.32   -0.61    2.21   -9.32  -87.69
   5.127   -9.48  -86.68   -0.59    1.56   -0.58    1.49   -9.46  -89.00
   5.209   -9.62  -87.24   -0.54    0.92   -0.53    0.93   -9.55  -89.32
   5.290   -9.79  -87.92   -0.52    0.46   -0.53    0.53   -9.70  -89.49
   5.372   -9.87  -87.93   -0.53   -0.14   -0.52   -0.35   -9.89  -90.61
   5.453  -10.08  -88.58   -0.51   -0.99   -0.51   -0.92   -9.93  -91.03
   5.535  -10.12  -89.52   -0.49   -1.47   -0.51   -1.57  -10.12  -91.71
   5.616  -10.26  -89.75   -0.49   -2.07   -0.48   -2.22  -10.27  -92.76
   5.698  -10.45  -90.41   -0.46   -2.69   -0.45   -2.61  -10.34  -93.14
   5.779  -10.53  -90.88   -0.45   -3.07   -0.46   -3.18  -10.57  -93.69
   5.861  -10.74  -91.49   -0.46   -3.75   -0.45   -3.78  -10.66  -94.46
   5.942  -10.90  -91.92   -0.45   -4.33   -0.44   -4.31  -10.79  -95.00
   6.024  -10.98  -92.92   -0.41   -4.93   -0.44   -4.98  -11.01  -95.30
   6.105  -11.16  -92.57   -0.41   -5.39   -0.39   -5.51  -11.10  -96.34
   6.187  -11.28  -93.82   -0.38   -5.97   -0.40   -5.99  -11.26  -96.13
   6.268  -11.46  -93.53   -0.39   -6.41   -0.38   -6.55  -11.40  -97.24
   6.350  -11.65  -94.42   -0.39   -7.07   -0.37   -7.08  -11.50  -97.42
   6.431  -11.76  -95.39   -0.38   -7.67   -0.39   -7.59  -11.68  -97.55
   6.513  -11.87  -95.81   -0.35   -8.26   -0.35   -8.32  -11.84  -98.40
   6.594  -12.02  -96.33   -0.34   -8.71   -0.35   -8.80  -11.98  -98.80
   6.676  -12.23  -97.16   -0.34   -9.29   -0.35   -9.38  -12.09  -99.17
   6.757  -12.43  -97.94   -0.37   -9.75   -0.36   -9.95  -12.19 -100.33
   6.839  -13.00  -99.83   -0.42  -10.32   -0.40  -10.10  -12.16 -100.76
   6.920  -13.18  -97.29   -0.37  -10.25   -0.40  -10.34  -12.69 -103.06
   7.002  -13.10  -97.25   -0.30  -10.88   -0.32  -10.84  -12.96 -102.23
   7.083  -13.15  -97.21   -0.28  -11.32   -0.28  -11.49  -13.17 -102.71
   7.165  -13.29  -98.05   -0.27  -11.88   -0.28  -12.00  -13.29 -102.69
   7.246  -13.54  -98.58   -0.28  -12.43   -0.27  -12.48  -13.39 -102.99
   7.328  -13.67  -99.74   -0.27  -13.02   -0.27  -12.95  -13.58 -102.66
   7.409  -13.74 -100.62   -0.24  -13.58   -0.27  -13.52  -13.85 -103.10
   7.491  -13.93 -100.58   -0.23  -14.01   -0.24  -14.10  -14.00 -104.18
   7.572  -14.10 -100.99   -0.21  -14.49   -0.24  -14.59  -14.24 -104.53
   7.654  -14.45 -101.66   -0.23  -14.97   -0.21  -15.11  -14.29 -105.18
   7.735  -14.55 -102.27   -0.20  -15.48   -0.21  -15.54  -14.59 -104.95
   7.817  -14.85 -103.35   -0.21  -16.05   -0.20  -15.95  -14.75 -104.64
   7.898  -14.88 -103.42   -0.18  -16.55   -0.22  -16.56  -15.16 -105.42
   7.980  -15.18 -103.68   -0.17  -16.97   -0.19  -17.02  -15.29 -105.50
   8.061  -15.43 -103.74   -0.17  -17.36   -0.19  -17.56  -15.48 -106.16
   8.143  -15.65 -105.10   -0.17  -18.01   -0.16  -18.06  -15.60 -105.74
   8.224  -15.82 -106.12   -0.16  -18.47   -0.17  -18.51  -15.87 -106.01
   8.306  -16.06 -106.73   -0.16  -19.02   -0.18  -19.15  -16.12 -106.47
   8.387  -15.89 -110.86   -0.16  -19.71   -0.18  -19.74  -15.78 -103.75
   8.469  -16.23 -110.77   -0.15  -20.04   -0.17  -20.21  -16.11 -104.18
   8.550  -16.63 -111.38   -0.15  -20.51   -0.16  -20.50  -16.38 -103.90
   8.632  -17.02 -112.31   -0.15  -20.96   -0.15  -21.09  -16.66 -103.77
   8.713  -17.27 -112.96   -0.14  -21.44   -0.15  -21.40  -17.16 -103.54
   8.795  -17.76 -113.30   -0.13  -21.76   -0.14  -21.83  -17.48 -103.41
   8.876  -18.18 -113.86   -0.12  -22.18   -0.14  -22.26  -17.89 -103.19
   8.958  -18.59 -114.02   -0.11  -22.60   -0.12  -22.56  -18.25 -102.56
   9.039  -19.05 -114.56   -0.10  -23.03   -0.12  -23.13  -18.70 -102.54
   9.121  -19.45 -115.81   -0.09  -23.51   -0.10  -23.60  -19.15 -101.91
   9.202  -20.01 -116.78   -0.10  -23.96   -0.10  -24.06  -19.68 -101.48
   9.284  -20.60 -117.76   -0.10  -24.31   -0.10  -24.40  -20.22 -100.58
   9.365  -21.14 -118.53   -0.10  -24.81   -0.09  -24.84  -20.78  -99.12
   9.447  -21.68 -119.70   -0.09  -25.15   -0.10  -25.21  -21.35  -98.25
   9.528  -22.25 -120.93   -0.08  -25.58   -0.09  -25.62  -21.90  -96.84
   9.610  -22.92 -123.12   -0.07  -25.94   -0.08  -26.05  -22.47  -95.26
   9.691  -23.62 -125.48   -0.06  -26.36   -0.07  -26.40  -23.06  -93.39
   9.773  -24.40 -128.66   -0.04  -26.81   -0.05  -26.85  -23.75  -91.65
   9.854  -25.29 -132.15   -0.03  -27.31   -0.02  -27.32  -24.42  -88.90
   9.936  -26.30 -135.96   -0.01  -27.89   -0.02  -27.93  -25.27  -86.75
  10.017  -27.52 -139.41    0.00  -28.39   -0.01  -28.52  -25.94  -83.60
  10.099  -28.88 -143.50    0.00  -28.89   -0.01  -28.98  -26.75  -78.53
  10.180  -30.04 -147.95    0.00  -29.44   -0.01  -29.49  -27.49  -74.00
  10.262  -31.11 -153.60    0.00  -30.01   -0.01  -30.05  -28.32  -67.51
  10.343  -31.97 -163.40   -0.01  -30.51   -0.01  -30.56  -29.02  -60.14
  10.425  -33.11 -177.02   -0.02  -31.02   -0.04  -31.08  -29.35  -51.13
  10.506  -34.19  166.37   -0.03  -31.42   -0.04  -31.56  -29.31  -43.65
  10.588  -35.28  150.66   -0.05  -31.85   -0.06  -31.92  -29.16  -36.30
  10.669  -35.37  136.09   -0.05  -32.29   -0.05  -32.37  -29.18  -29.97
  10.751  -35.33  125.29   -0.04  -32.71   -0.05  -32.70  -29.00  -25.18
  10.832  -34.47  113.65   -0.04  -33.13   -0.05  -33.21  -28.85  -18.82
  10.914  -33.97  105.43   -0.05  -33.58   -0.06  -33.72  -28.57  -14.56
  10.995  -33.31   98.75   -0.05  -34.00   -0.06  -34.07  -28.20   -8.42
  11.077  -32.92   96.61   -0.05  -34.38   -0.06  -34.41  -27.81   -5.94
  11.158  -32.03   95.18   -0.05  -34.81   -0.05  -34.86  -27.62   -2.48
  11.240  -31.06   94.53   -0.03  -35.16   -0.04  -35.26  -27.50    0.37
  11.321  -30.30   91.55   -0.02  -35.61   -0.04  -35.71  -27.20    3.92
  11.403  -29.47   89.65   -0.01  -36.12   -0.01  -36.18  -26.97    7.77
  11.484  -28.97   87.23   -0.01  -36.58   -0.02  -36.68  -26.50    9.44
  11.566  -28.33   85.09   -0.01  -37.05   -0.01  -37.07  -26.38   12.02
  11.647  -27.83   83.15    0.00  -37.52   -0.01  -37.61  -26.12   12.81
  11.729  -27.54   80.67    0.01  -38.00   -0.01  -38.04  -25.93   13.63
  11.810  -27.39   78.06    0.00  -38.48    0.00  -38.52  -25.75   15.41
  11.892  -27.16   76.49    0.00  -39.03    0.00  -39.05  -25.86   16.19
  11.973  -27.20   75.37    0.00  -39.43   -0.01  -39.52  -25.78   17.24
  12.055  -27.13   74.11   -0.01  -39.88    0.00  -39.96  -25.75   18.84
  12.136  -27.05   73.16   -0.01  -40.37   -0.01  -40.37  -25.83   19.73
  12.218  -27.09   72.23    0.00  -40.83   -0.01  -40.95  -25.69   20.53
  12.299  -27.11   70.93   -0.01  -41.25   -0.01  -41.30  -25.81   21.71
  12.381  -27.02   69.80   -0.01  -41.74   -0.02  -41.76  -25.90   22.32
  12.462  -27.25   68.87   -0.01  -42.19   -0.04  -42.25  -25.99   22.32
  12.544  -27.35   67.17   -0.01  -42.55   -0.02  -42.57  -26.15   23.05
  12.625  -27.53   66.70   -0.02  -42.98   -0.03  -43.03  -26.31   23.45
  12.707  -27.76   65.04   -0.02  -43.42   -0.03  -43.45  -26.51   24.09
  12.788  -27.85   64.17   -0.03  -43.76   -0.02  -43.75  -26.83   26.37
  12.870  -28.29   64.14   -0.02  -44.25   -0.02  -44.22  -27.17   25.21
  12.951  -28.50   63.36   -0.01  -44.73   -0.02  -44.82  -27.40   26.55
  13.033  -29.08   63.38   -0.01  -45.04   -0.03  -45.13  -27.80   26.96
  13.114  -29.23   62.35   -0.01  -45.60   -0.03  -45.62  -28.18   28.41
  13.196  -29.60   63.86   -0.01  -46.03   -0.01  -46.19  -28.65   29.66
  13.277  -29.41   62.03   -0.03  -46.49   -0.03  -46.55  -29.23   30.62
  13.359  -29.66   58.45   -0.03  -46.95   -0.02  -46.91  -29.82   33.84
  13.440  -30.56   53.12   -0.01  -47.46   -0.02  -47.54  -30.28   35.02
  13.522  -31.41   52.46   -0.03  -47.69   -0.04  -47.77  -30.61   38.14
  13.603  -32.29   49.41   -0.05  -48.28   -0.05  -48.11  -31.23   38.10
  13.685  -32.84   48.96   -0.02  -48.68   -0.03  -48.76  -31.61   41.69
  13.766  -33.85   46.41   -0.04  -49.14   -0.05  -49.21  -32.33   44.33
  13.848  -34.20   45.05   -0.06  -49.55   -0.06  -49.60  -32.56   46.38
  13.929  -34.83   44.59   -0.04  -50.04   -0.05  -50.11  -33.07   51.30
  14.011  -35.22   36.98   -0.05  -50.32   -0.07  -50.29  -33.06   54.16
  14.092  -35.42   32.00   -0.06  -50.69   -0.08  -50.72  -33.27   57.93
  14.174  -35.92   24.70   -0.06  -51.17   -0.05  -51.19  -33.44   57.18
  14.255  -35.98   19.54   -0.06  -51.54   -0.07  -51.65  -33.47   59.55
  14.337  -35.87   12.80   -0.06  -51.97   -0.06  -52.01  -33.87   59.29
  14.418  -36.12    8.82   -0.06  -52.38   -0.06  -52.45  -34.34   60.52
  14.500  -35.44    2.24   -0.05  -52.80   -0.06  -52.84  -35.55   60.93
  14.581  -34.30   -3.53   -0.03  -53.18   -0.05  -53.21  -36.36   71.64
  14.663  -33.94  -16.56   -0.02  -53.74   -0.01  -53.72  -35.77   84.10
  14.744  -34.09  -25.06   -0.01  -54.34   -0.02  -54.32  -34.16   86.45
  14.826  -34.75  -30.64   -0.02  -54.97   -0.03  -54.91  -33.42   84.20
  14.907  -34.49  -32.13   -0.04  -55.50   -0.06  -55.52  -32.85   79.67
  14.989  -34.85  -38.28   -0.06  -55.98   -0.06  -55.92  -33.02   77.53
  15.070  -35.90  -36.53   -0.09  -56.39   -0.09  -56.32  -33.36   77.22
  15.152  -36.82  -26.15   -0.11  -56.76   -0.11  -56.77  -32.96   81.51
  15.233  -35.83  -19.98   -0.12  -57.08   -0.12  -57.17  -32.28   80.63
  15.315  -35.14   -9.21   -0.13  -57.52   -0.14  -57.43  -31.55   78.71
  15.396  -33.77   -3.11   -0.13  -57.88   -0.14  -57.86  -31.26   74.16
  15.478  -32.20    0.87   -0.13  -58.25   -0.13  -58.29  -30.62   72.33
  15.559  -30.81   -0.44   -0.14  -58.70   -0.13  -58.70  -30.64   71.00
  15.641  -29.75    0.62   -0.13  -59.18   -0.14  -59.23  -29.77   68.64
  15.722  -28.96    0.37   -0.15  -59.68   -0.13  -59.59  -29.39   68.45
  15.804  -28.24    2.27   -0.15  -60.12   -0.14  -60.07  -28.48   65.61
  15.885  -27.60    3.41   -0.15  -60.57   -0.16  -60.38  -27.78   64.33
  15.967  -26.88    3.48   -0.16  -60.95   -0.15  -60.96  -27.00   61.89
  16.048  -26.21    5.83   -0.18  -61.45   -0.18  -61.30  -26.27   60.33
  16.130  -25.46    7.50   -0.19  -61.83   -0.19  -61.77  -25.51   57.31
  16.211  -24.72    9.43   -0.20  -62.21   -0.20  -62.19  -24.73   55.38
  16.293  -23.89    9.90   -0.21  -62.56   -0.21  -62.47  -24.05   52.55
  16.374  -23.14   10.56   -0.20  -62.97   -0.21  -62.90  -23.33   49.55
  16.456  -22.51   10.13   -0.20  -63.42   -0.20  -63.35  -22.71   46.88
  16.537  -21.87   10.94   -0.21  -63.82   -0.21  -63.74  -22.08   44.47
  16.619  -21.40   10.86   -0.22  -64.27   -0.21  -64.35  -21.55   42.65
  16.700  -20.76   12.11   -0.21  -64.73   -0.22  -64.56  -20.94   40.67
  16.782  -20.30   12.16   -0.24  -65.06   -0.23  -65.06  -20.39   39.51
  16.863  -19.65   12.76   -0.25  -65.66   -0.23  -65.51  -19.82   37.48
  16.945  -19.15   13.23   -0.24  -66.06   -0.23  -65.99  -19.33   36.19
  17.026  -18.69   13.15   -0.23  -66.64   -0.26  -66.51  -18.66   34.84
  17.108  -18.15   13.71   -0.26  -67.00   -0.26  -67.06  -18.27   33.96
  17.189  -17.67   13.96   -0.26  -67.41   -0.27  -67.43  -17.70   32.24
  17.271  -17.13   15.09   -0.31  -67.86   -0.29  -67.71  -17.16   31.36
  17.352  -16.60   14.76   -0.30  -68.34   -0.30  -68.33  -16.77   29.85
  17.434  -16.20   15.36   -0.32  -68.89   -0.34  -68.60  -16.16   28.91
  17.515  -15.69   14.68   -0.33  -69.19   -0.35  -69.26  -15.78   28.09
  17.597  -15.20   14.48   -0.35  -69.65   -0.35  -69.67  -15.28   26.75
  17.678  -14.82   14.64   -0.38  -69.94   -0.36  -69.84  -14.87   25.30
  17.760  -14.48   14.35   -0.40  -70.29   -0.40  -70.44  -14.51   24.16
  17.841  -14.22   15.12   -0.44  -70.94   -0.39  -70.63  -14.13   22.89
  17.923  -13.87   14.30   -0.41  -71.32   -0.45  -71.16  -13.76   22.41
  18.004  -13.45   14.85   -0.42  -71.58   -0.43  -71.66  -13.45   21.67
  18.086  -13.09   14.89   -0.45  -71.96   -0.43  -72.18  -13.19   20.33
  18.167  -12.80   15.00   -0.45  -72.62   -0.45  -72.35  -12.74   19.73
  18.249  -12.47   14.94   -0.47  -72.95   -0.44  -72.94  -12.52   18.54
  18.330  -12.21   14.82   -0.48  -73.61   -0.46  -73.37  -12.18   17.79
  18.412  -11.95   14.25   -0.48  -74.13   -0.51  -73.87  -11.94   17.39
  18.493  -11.57   14.42   -0.50  -74.38   -0.52  -74.56  -11.74   16.66
  18.575  -11.39   14.73   -0.56  -74.97   -0.52  -74.95  -11.41   15.48
  18.656  -11.13   14.27   -0.57  -75.49   -0.56  -75.39  -11.12   15.00
  18.738  -10.88   14.19   -0.59  -75.95   -0.59  -75.89  -10.90   14.38
  18.819  -10.65   13.85   -0.61  -76.35   -0.61  -76.23  -10.60   13.58
  18.901  -10.39   13.74   -0.64  -76.72   -0.65  -76.79  -10.42   13.07
  18.982  -10.18   13.85   -0.68  -77.16   -0.64  -77.32  -10.19   11.42
  19.064  -10.04   13.50   -0.71  -77.79   -0.69  -77.58   -9.91   11.12
  19.145   -9.82   12.81   -0.70  -78.24   -0.70  -78.05   -9.73   10.43
  19.227   -9.59   12.67   -0.71  -78.66   -0.72  -78.58   -9.56    9.60
  19.308   -9.46   12.91   -0.74  -78.97   -0.73  -78.92   -9.38    8.75
  19.390   -9.28   12.50   -0.77  -79.51   -0.78  -79.54   -9.24    7.99
  19.471   -9.22   13.06   -0.81  -79.95   -0.75  -79.99   -9.03    6.64
  19.553   -9.12   12.06   -0.82  -80.69   -0.82  -80.30   -8.88    6.72
  19.634   -8.95   12.02   -0.82  -81.12   -0.82  -80.84   -8.76    6.13
  19.716   -8.70   11.93   -0.82  -81.40   -0.85  -81.46   -8.72    5.29
  19.797   -8.70   12.23   -0.88  -81.82   -0.86  -81.67   -8.51    4.85
  19.879   -8.55   12.04   -0.89  -82.20   -0.91  -82.44   -8.49    3.68
  19.960   -8.55   11.64   -0.94  -82.89   -0.86  -82.77   -8.20    3.41
  20.042   -8.46   10.94   -0.95  -83.38   -0.91  -83.08   -8.16    3.29
  20.123   -8.30   10.57   -0.94  -83.99   -0.96  -83.92   -8.11    2.50
  20.205   -8.26   11.06   -0.98  -84.16   -0.96  -84.21   -8.02    1.65
  20.286   -8.16   10.83   -1.01  -84.66   -1.00  -84.61   -7.93    1.28
  20.368   -8.16   10.61   -1.07  -85.06   -1.05  -85.23   -7.86    0.29
  20.449   -8.08   10.07   -1.06  -85.79   -0.99  -85.83   -7.64   -0.27
  20.531   -8.02    9.31   -1.07  -86.20   -1.04  -85.78   -7.67    0.26
  20.612   -7.84    9.34   -1.06  -86.69   -1.07  -86.58   -7.64   -1.10
  20.694   -7.87    9.34   -1.07  -86.90   -1.06  -87.00   -7.52   -1.62
  20.775   -7.82    8.58   -1.11  -87.41   -1.11  -87.28   -7.53   -1.97
  20.857   -7.85    8.40   -1.15  -87.89   -1.15  -88.11   -7.46   -3.03
  20.938   -7.85    7.52   -1.14  -88.51   -1.08  -88.44   -7.29   -3.00
  21.020   -7.78    6.54   -1.13  -88.92   -1.12  -88.66   -7.37   -2.87
  21.101   -7.72    7.14   -1.10  -89.14   -1.15  -89.10   -7.40   -4.16
  21.183   -7.80    6.29   -1.13  -89.58   -1.10  -89.45   -7.24   -3.99
  21.264   -7.77    6.20   -1.14  -89.89   -1.16  -90.00   -7.37   -5.12
  21.346   -7.77    5.45   -1.15  -90.84   -1.13  -91.01   -7.23   -5.56
  21.427   -7.84    4.81   -1.14  -91.19   -1.09  -91.25   -7.20   -5.41
  21.509   -7.65    3.94   -1.13  -92.10   -1.14  -91.78   -7.33   -5.76
  21.590   -7.77    3.97   -1.13  -92.42   -1.11  -92.57   -7.22   -6.25
  21.672   -7.69    2.97   -1.14  -92.89   -1.12  -92.84   -7.25   -6.38
