!  American Technical Ceramics  Date:   10/26/00
!  One Norden Lane
!  Huntington Station,  NY.   11746-2102
!  Tel:  (631) 622-4700               Fax:  (631) 622-4748
!  Part Number  600S5R6       Mounting Orientation: Horizontal
!  Description: Ultra Low ESR Microwave capacitors
!  Application: Coupling, Bypass, Tuning, DC Block
!               Filters, Matching
# GHZ S DB R 50
! Freq   |S11|   S11 Ph  |S21|   S21 Ph  |S12|   S12 Ph  |S22|   S22 Ph
   0.000   0.00    0.00	  -999.00  90.00  -999.00  90.00    0.00    0.00
   0.400   -4.84  -55.64   -1.81   34.03   -1.81   34.00   -4.80  -55.00
   0.444   -5.44  -58.59   -1.52   31.05   -1.53   30.71   -5.45  -58.31
   0.488   -6.06  -61.39   -1.31   28.57   -1.30   28.61   -6.07  -60.15
   0.532   -6.65  -63.33   -1.12   26.23   -1.12   25.89   -6.63  -63.13
   0.576   -7.22  -65.64   -0.99   24.27   -0.98   24.32   -7.20  -64.48
   0.620   -7.75  -67.19   -0.85   22.40   -0.85   22.16   -7.73  -66.87
   0.664   -8.25  -69.10   -0.75   20.85   -0.76   20.84   -8.25  -67.96
   0.708   -8.77  -70.29   -0.68   19.32   -0.67   19.15   -8.74  -69.80
   0.752   -9.22  -71.83   -0.60   18.03   -0.60   17.97   -9.23  -70.76
   0.796   -9.69  -72.84   -0.54   16.74   -0.53   16.68   -9.69  -72.38
   0.840  -10.13  -74.34   -0.50   15.64   -0.49   15.58  -10.12  -73.04
   0.884  -10.56  -74.96   -0.44   14.61   -0.44   14.55  -10.52  -74.40
   0.928  -10.97  -76.09   -0.41   13.65   -0.41   13.51  -10.96  -75.20
   0.972  -11.36  -76.99   -0.38   12.73   -0.37   12.76  -11.37  -75.99
   1.016  -11.77  -77.83   -0.34   11.93   -0.34   11.73  -11.72  -76.94
   1.060  -12.11  -78.52   -0.32   11.12   -0.32   11.16  -12.11  -77.80
   1.104  -12.49  -79.24   -0.29   10.41   -0.29   10.26  -12.45  -78.48
   1.148  -12.84  -79.86   -0.27    9.68   -0.26    9.68  -12.82  -79.03
   1.192  -13.19  -80.67   -0.26    9.01   -0.25    8.87  -13.16  -79.85
   1.236  -13.52  -81.23   -0.23    8.42   -0.23    8.36  -13.47  -80.32
   1.280  -13.83  -81.76   -0.22    7.75   -0.21    7.66  -13.82  -81.22
   1.324  -14.16  -82.33   -0.21    7.24   -0.21    7.18  -14.14  -81.50
   1.368  -14.47  -82.72   -0.19    6.68   -0.19    6.63  -14.43  -82.15
   1.412  -14.78  -83.31   -0.19    6.17   -0.19    6.05  -14.72  -82.57
   1.456  -15.06  -83.61   -0.18    5.65   -0.16    5.64  -15.05  -83.14
   1.500  -15.38  -84.17   -0.16    5.19   -0.16    5.05  -15.32  -83.47
   1.544  -15.63  -84.27   -0.16    4.67   -0.15    4.66  -15.63  -84.20
   1.588  -15.95  -84.93   -0.15    4.26   -0.14    4.13  -15.88  -84.45
   1.632  -16.19  -85.15   -0.14    3.77   -0.14    3.73  -16.20  -85.03
   1.676  -16.50  -85.63   -0.14    3.39   -0.14    3.26  -16.43  -85.32
   1.720  -16.74  -85.82   -0.13    2.97   -0.13    2.96  -16.72  -85.73
   1.764  -17.02  -85.97   -0.13    2.58   -0.13    2.49  -16.95  -86.03
   1.808  -17.24  -86.31   -0.12    2.24   -0.12    2.18  -17.20  -86.62
   1.852  -17.50  -86.77   -0.11    1.85   -0.11    1.77  -17.45  -87.09
   1.896  -17.77  -87.07   -0.11    1.44   -0.10    1.39  -17.71  -87.51
   1.940  -17.99  -87.25   -0.11    1.08   -0.10    1.05  -17.97  -87.98
   1.984  -18.26  -87.67   -0.10    0.75   -0.09    0.65  -18.20  -88.28
   2.028  -18.47  -87.86   -0.10    0.36   -0.09    0.34  -18.45  -88.78
   2.072  -18.75  -88.24   -0.10    0.05   -0.09   -0.04  -18.67  -89.03
   2.116  -18.94  -88.24   -0.10   -0.31   -0.09   -0.31  -18.93  -89.44
   2.160  -19.22  -88.80   -0.10   -0.60   -0.09   -0.69  -19.14  -89.77
   2.204  -19.42  -88.60   -0.09   -0.92   -0.08   -0.94  -19.39  -90.14
   2.248  -19.66  -89.28   -0.09   -1.25   -0.08   -1.30  -19.58  -90.36
   2.292  -19.87  -89.05   -0.08   -1.56   -0.08   -1.58  -19.83  -90.72
   2.336  -20.08  -89.57   -0.08   -1.86   -0.07   -1.91  -20.03  -91.02
   2.380  -20.33  -89.54   -0.08   -2.15   -0.07   -2.21  -20.29  -91.31
   2.424  -20.54  -89.85   -0.08   -2.45   -0.08   -2.50  -20.45  -91.36
   2.468  -20.73  -89.71   -0.08   -2.73   -0.08   -2.81  -20.66  -91.63
   2.512  -20.93  -90.00   -0.08   -3.02   -0.08   -3.05  -20.85  -91.88
   2.556  -21.17  -89.87   -0.08   -3.29   -0.08   -3.33  -21.08  -92.07
   2.600  -21.30  -90.13   -0.08   -3.53   -0.07   -3.57  -21.22  -92.33
   2.644  -21.56  -90.58   -0.08   -3.82   -0.08   -3.88  -21.41  -92.48
   2.688  -21.70  -90.02   -0.08   -4.08   -0.07   -4.09  -21.61  -92.74
   2.732  -21.92  -90.74   -0.08   -4.33   -0.06   -4.40  -21.76  -92.85
   2.776  -22.09  -90.15   -0.08   -4.62   -0.07   -4.61  -21.94  -93.22
   2.820  -22.28  -90.91   -0.08   -4.88   -0.08   -4.91  -22.06  -93.31
   2.864  -22.44  -90.37   -0.08   -5.09   -0.07   -5.12  -22.23  -93.88
   2.908  -22.57  -90.91   -0.08   -5.34   -0.07   -5.39  -22.37  -93.96
   2.952  -22.73  -90.76   -0.08   -5.59   -0.07   -5.62  -22.54  -94.68
   2.996  -22.85  -91.42   -0.07   -5.80   -0.07   -5.85  -22.66  -94.94
   3.040  -22.95  -92.68   -0.08   -6.08   -0.06   -6.13  -22.76  -93.62
   3.084  -23.05  -93.34   -0.07   -6.29   -0.06   -6.35  -22.91  -94.03
   3.128  -23.29  -93.80   -0.07   -6.55   -0.06   -6.61  -23.10  -94.21
   3.172  -23.40  -93.73   -0.07   -6.80   -0.06   -6.84  -23.25  -94.38
   3.216  -23.59  -94.08   -0.07   -7.05   -0.06   -7.11  -23.43  -94.52
   3.260  -23.68  -93.85   -0.07   -7.26   -0.06   -7.30  -23.56  -94.70
   3.304  -23.83  -94.56   -0.07   -7.48   -0.06   -7.53  -23.66  -94.84
   3.348  -23.92  -94.81   -0.07   -7.70   -0.06   -7.71  -23.82  -95.40
   3.392  -24.11  -95.82   -0.07   -7.90   -0.07   -7.95  -23.96  -95.56
   3.436  -24.24  -95.73   -0.07   -8.09   -0.06   -8.13  -24.11  -96.27
   3.480  -24.49  -96.95   -0.07   -8.33   -0.06   -8.37  -24.27  -96.37
   3.524  -24.72  -96.39   -0.06   -8.54   -0.05   -8.58  -24.44  -96.95
   3.568  -24.85  -97.08   -0.06   -8.75   -0.05   -8.79  -24.56  -97.27
   3.612  -25.08  -96.69   -0.06   -8.98   -0.05   -9.04  -24.75  -97.80
   3.656  -25.21  -96.84   -0.05   -9.21   -0.05   -9.24  -24.88  -98.24
   3.700  -25.38  -96.75   -0.06   -9.43   -0.05   -9.47  -25.11  -98.95
   3.744  -25.51  -97.20   -0.05   -9.68   -0.04   -9.68  -25.29  -99.07
   3.788  -25.77  -97.13   -0.05   -9.89   -0.04   -9.93  -25.48  -99.37
   3.832  -25.85  -96.99   -0.05  -10.11   -0.04  -10.14  -25.64  -99.59
   3.876  -26.10  -97.20   -0.06  -10.32   -0.05  -10.38  -25.76  -99.44
   3.920  -26.18  -96.74   -0.05  -10.52   -0.05  -10.55  -25.96 -100.26
   3.964  -26.42  -97.34   -0.05  -10.73   -0.05  -10.79  -26.17 -100.30
   4.008  -26.51  -96.14   -0.05  -10.93   -0.05  -10.97  -26.26 -100.67
   4.052  -26.68  -97.02   -0.05  -11.15   -0.05  -11.20  -26.46 -101.05
   4.096  -26.89  -96.23   -0.05  -11.37   -0.04  -11.40  -26.66 -101.37
   4.140  -27.04  -96.84   -0.05  -11.58   -0.04  -11.60  -26.83 -101.62
   4.184  -27.20  -96.02   -0.05  -11.78   -0.05  -11.82  -27.03 -102.23
   4.228  -27.30  -96.69   -0.05  -11.99   -0.04  -12.01  -27.14 -102.09
   4.272  -27.57  -96.03   -0.05  -12.19   -0.05  -12.19  -27.31 -102.66
   4.316  -27.68  -96.09   -0.05  -12.39   -0.04  -12.39  -27.56 -102.94
   4.360  -27.90  -95.92   -0.05  -12.59   -0.05  -12.65  -27.71 -103.21
   4.404  -27.94  -95.51   -0.05  -12.79   -0.04  -12.79  -27.83 -103.48
   4.448  -28.19  -95.51   -0.05  -13.00   -0.04  -13.03  -28.04 -103.85
   4.492  -28.30  -94.64   -0.05  -13.21   -0.04  -13.23  -28.26 -103.89
   4.536  -28.46  -95.09   -0.05  -13.37   -0.04  -13.44  -28.37 -104.32
   4.580  -28.52  -94.81   -0.05  -13.60   -0.04  -13.63  -28.53 -105.10
   4.624  -28.72  -95.85   -0.05  -13.82   -0.04  -13.85  -28.64 -105.34
   4.668  -28.91  -94.48   -0.04  -14.01   -0.03  -14.06  -28.94 -106.16
   4.712  -29.04  -94.83   -0.04  -14.27   -0.03  -14.26  -29.09 -105.78
   4.756  -29.25  -94.54   -0.05  -14.44   -0.04  -14.44  -29.24 -107.46
   4.800  -29.37  -94.76   -0.05  -14.65   -0.04  -14.67  -29.49 -107.49
   4.844  -29.54  -94.20   -0.05  -14.87   -0.04  -14.90  -29.69 -107.56
   4.888  -29.79  -94.34   -0.05  -15.03   -0.04  -15.03  -29.89 -108.13
   4.932  -30.00  -94.02   -0.05  -15.24   -0.04  -15.28  -30.14 -108.60
   4.976  -30.08  -94.04   -0.05  -15.45   -0.04  -15.46  -30.20 -108.96
   5.020  -30.33  -93.79   -0.05  -15.61   -0.04  -15.65  -30.51 -109.56
   5.064  -30.53  -93.17   -0.05  -15.84   -0.03  -15.84  -30.75 -109.52
   5.108  -30.79  -93.45   -0.05  -16.03   -0.04  -16.05  -30.88 -110.27
   5.152  -30.93  -92.63   -0.05  -16.21   -0.04  -16.24  -31.20 -111.57
   5.196  -31.08  -92.75   -0.05  -16.42   -0.04  -16.43  -31.42 -111.03
   5.240  -31.42  -91.88   -0.05  -16.60   -0.04  -16.63  -31.66 -112.08
   5.284  -31.68  -91.61   -0.05  -16.81   -0.04  -16.80  -31.96 -112.16
   5.328  -31.76  -91.27   -0.05  -16.99   -0.04  -17.02  -32.15 -112.81
   5.372  -32.00  -91.15   -0.05  -17.16   -0.04  -17.20  -32.36 -113.83
   5.416  -32.24  -89.25   -0.05  -17.38   -0.05  -17.40  -32.75 -113.76
   5.460  -32.48  -89.35   -0.05  -17.57   -0.04  -17.58  -32.92 -114.10
   5.504  -32.78  -89.18   -0.05  -17.78   -0.04  -17.78  -33.28 -115.83
   5.548  -32.98  -88.32   -0.05  -17.95   -0.04  -17.98  -33.53 -116.00
   5.592  -33.19  -87.47   -0.05  -18.15   -0.03  -18.19  -33.79 -117.18
   5.636  -33.59  -86.52   -0.05  -18.34   -0.04  -18.37  -34.21 -118.13
   5.680  -33.82  -85.94   -0.05  -18.56   -0.04  -18.57  -34.56 -118.29
   5.724  -34.22  -85.50   -0.05  -18.74   -0.04  -18.76  -34.86 -120.45
   5.768  -34.55  -83.48   -0.05  -18.90   -0.04  -18.93  -35.51 -120.55
   5.812  -34.75  -82.15   -0.06  -19.10   -0.04  -19.12  -35.75 -120.15
   5.856  -35.15  -81.27   -0.05  -19.30   -0.04  -19.32  -36.12 -122.67
   5.900  -35.46  -79.17   -0.05  -19.51   -0.05  -19.54  -36.76 -123.62
   5.944  -35.73  -77.68   -0.05  -19.69   -0.05  -19.70  -37.00 -124.31
   5.988  -36.05  -77.36   -0.05  -19.87   -0.05  -19.88  -37.70 -126.33
   6.032  -36.56  -73.70   -0.06  -20.08   -0.05  -20.08  -38.33 -126.37
   6.076  -36.73  -72.09   -0.06  -20.25   -0.04  -20.28  -38.87 -129.03
   6.120  -37.46  -69.21   -0.06  -20.43   -0.04  -20.45  -39.72 -130.44
   6.164  -37.55  -66.38   -0.05  -20.61   -0.05  -20.66  -40.38 -129.95
   6.208  -37.94  -64.40   -0.06  -20.84   -0.04  -20.84  -40.78 -131.91
   6.252  -38.17  -60.38   -0.05  -21.02   -0.05  -21.03  -41.94 -135.86
   6.296  -38.58  -56.81   -0.05  -21.24   -0.05  -21.22  -42.80 -135.66
   6.340  -38.88  -54.29   -0.06  -21.40   -0.04  -21.43  -43.32 -141.20
   6.384  -39.46  -52.97   -0.05  -21.64   -0.05  -21.64  -44.66 -143.56
   6.428  -39.58  -47.86   -0.06  -21.82   -0.05  -21.81  -45.19 -145.43
   6.472  -40.31  -46.42   -0.06  -22.04   -0.05  -22.06  -46.33 -157.04
   6.516  -41.55  -36.74   -0.07  -22.26   -0.05  -22.24  -47.41 -162.78
   6.560  -42.43  -32.40   -0.07  -22.43   -0.06  -22.43  -46.55 -172.06
   6.604  -42.99  -12.17   -0.08  -22.58   -0.06  -22.57  -46.69  169.80
   6.648  -40.95   -0.23   -0.07  -22.71   -0.06  -22.69  -46.63  148.49
   6.692  -39.65    5.45   -0.07  -22.86   -0.06  -22.85  -45.85  130.27
   6.736  -38.96    5.82   -0.06  -23.03   -0.06  -23.05  -44.75  117.03
   6.780  -38.39    8.46   -0.06  -23.23   -0.06  -23.24  -44.70  106.44
   6.824  -37.69    6.95   -0.06  -23.40   -0.06  -23.40  -43.70   99.57
   6.868  -37.62   12.04   -0.06  -23.62   -0.06  -23.67  -42.27   91.23
   6.912  -36.88   14.51   -0.06  -23.82   -0.06  -23.82  -41.64   89.27
   6.956  -37.00   15.51   -0.06  -24.03   -0.05  -24.03  -40.74   85.49
   7.000  -36.27   18.68   -0.06  -24.21   -0.05  -24.23  -40.06   79.90
   7.044  -35.85   19.87   -0.06  -24.41   -0.05  -24.43  -39.29   79.51
   7.088  -35.44   23.78   -0.06  -24.59   -0.05  -24.59  -38.36   77.72
   7.132  -35.27   24.09   -0.06  -24.79   -0.05  -24.79  -38.00   75.84
   7.176  -34.75   25.60   -0.06  -25.01   -0.06  -25.01  -37.30   74.59
   7.220  -34.38   25.50   -0.06  -25.15   -0.05  -25.17  -36.48   72.59
   7.264  -34.05   30.02   -0.07  -25.35   -0.06  -25.36  -36.03   71.87
   7.308  -33.79   29.89   -0.07  -25.56   -0.06  -25.56  -35.52   72.18
   7.352  -33.61   31.98   -0.06  -25.76   -0.06  -25.77  -34.86   69.99
   7.396  -32.88   32.42   -0.07  -25.98   -0.06  -25.97  -34.53   68.15
   7.440  -32.75   34.31   -0.06  -26.15   -0.05  -26.13  -33.80   68.89
   7.484  -32.34   36.05   -0.07  -26.33   -0.05  -26.31  -33.30   67.52
   7.528  -32.09   36.63   -0.06  -26.53   -0.06  -26.53  -32.90   67.44
   7.572  -31.60   37.10   -0.07  -26.73   -0.06  -26.73  -32.33   65.95
   7.616  -31.36   38.27   -0.06  -26.91   -0.05  -26.91  -31.87   65.06
   7.660  -30.89   39.73   -0.07  -27.12   -0.06  -27.11  -31.38   64.75
   7.704  -30.67   39.21   -0.07  -27.32   -0.06  -27.32  -30.91   63.42
   7.748  -30.26   39.87   -0.07  -27.51   -0.07  -27.54  -30.52   62.36
   7.792  -29.92   39.40   -0.07  -27.72   -0.07  -27.74  -30.11   62.14
   7.836  -29.70   40.53   -0.07  -27.94   -0.07  -27.97  -29.56   60.82
   7.880  -29.33   40.60   -0.07  -28.10   -0.06  -28.10  -29.27   59.78
   7.924  -29.20   40.22   -0.08  -28.28   -0.07  -28.30  -28.82   59.26
   7.968  -28.91   40.48   -0.08  -28.52   -0.07  -28.47  -28.50   57.03
   8.012  -28.72   40.44   -0.08  -28.68   -0.08  -28.70  -28.12   56.26
   8.056  -28.58   40.45   -0.09  -28.86   -0.07  -28.80  -27.78   54.44
   8.100  -28.56   40.76   -0.09  -29.05   -0.08  -29.06  -27.56   53.02
   8.144  -28.29   41.63   -0.08  -29.23   -0.08  -29.26  -27.34   52.11
   8.188  -28.19   41.97   -0.08  -29.41   -0.07  -29.43  -27.09   50.64
   8.232  -27.98   43.26   -0.08  -29.64   -0.08  -29.66  -26.94   49.80
   8.276  -27.85   44.27   -0.09  -29.85   -0.07  -29.83  -26.74   48.84
   8.320  -27.63   45.96   -0.08  -30.15   -0.07  -30.16  -26.66   47.72
   8.364  -30.79   66.21   -0.08  -30.30   -0.07  -30.30  -28.24   24.09
   8.408  -29.76   66.30   -0.08  -30.50   -0.07  -30.49  -27.75   25.56
   8.452  -28.91   66.01   -0.09  -30.75   -0.07  -30.66  -27.24   26.00
   8.496  -28.10   65.15   -0.10  -30.94   -0.09  -30.94  -26.82   27.38
   8.540  -27.50   64.34   -0.10  -31.21   -0.09  -31.15  -26.33   28.03
   8.584  -26.92   63.03   -0.11  -31.40   -0.10  -31.40  -25.80   28.82
   8.628  -26.34   62.49   -0.11  -31.66   -0.10  -31.64  -25.26   29.50
   8.672  -25.89   62.28   -0.12  -31.88   -0.11  -31.82  -24.72   29.93
   8.716  -25.42   62.26   -0.13  -32.11   -0.11  -32.10  -24.31   30.14
   8.760  -24.98   61.99   -0.14  -32.31   -0.13  -32.32  -23.74   30.29
   8.804  -24.46   61.93   -0.15  -32.50   -0.14  -32.49  -23.28   29.89
   8.848  -24.01   62.01   -0.17  -32.69   -0.15  -32.65  -22.86   29.60
   8.892  -23.48   61.82   -0.17  -32.90   -0.16  -32.89  -22.51   29.51
   8.936  -23.04   61.35   -0.18  -33.11   -0.16  -33.08  -22.20   28.84
   8.980  -22.52   60.68   -0.18  -33.33   -0.18  -33.33  -21.92   29.30
   9.024  -22.04   60.32   -0.19  -33.59   -0.18  -33.58  -21.50   30.07
   9.068  -21.58   59.21   -0.20  -33.83   -0.19  -33.86  -21.08   30.98
   9.112  -21.16   58.25   -0.21  -34.14   -0.20  -34.12  -20.60   31.19
   9.156  -20.74   56.45   -0.22  -34.43   -0.21  -34.41  -20.04   30.86
   9.200  -20.31   56.10   -0.24  -34.78   -0.23  -34.75  -19.53   30.60
   9.244  -19.92   54.48   -0.27  -35.06   -0.25  -35.06  -18.94   30.22
   9.288  -19.48   53.10   -0.31  -35.40   -0.29  -35.36  -18.39   28.70
   9.332  -19.03   50.81   -0.34  -35.80   -0.33  -35.77  -17.80   27.28
   9.376  -18.53   48.43   -0.41  -36.16   -0.40  -36.19  -17.22   24.92
   9.420  -18.05   45.10   -0.48  -36.52   -0.47  -36.50  -16.63   22.05
   9.464  -17.60   40.40   -0.60  -36.79   -0.59  -36.79  -16.11   18.29
   9.508  -17.27   34.19   -0.75  -36.83   -0.73  -36.77  -15.56   13.02
   9.552  -17.11   25.53   -0.93  -36.39   -0.91  -36.36  -15.26    6.09
   9.596  -17.61   15.48   -1.07  -35.16   -1.06  -35.09  -15.27   -2.44
   9.640  -18.79    5.10   -1.09  -33.38   -1.07  -33.40  -15.86  -10.91
   9.684  -21.00   -1.91   -0.94  -31.96   -0.93  -32.00  -17.06  -17.56
   9.728  -23.79   -1.85   -0.73  -31.36   -0.72  -31.32  -18.51  -19.69
   9.772  -26.48    9.40   -0.55  -31.41   -0.54  -31.44  -19.90  -17.87
   9.816  -27.86   28.61   -0.40  -31.83   -0.38  -31.78  -20.99  -12.73
   9.860  -27.43   46.65   -0.30  -32.32   -0.29  -32.35  -21.61   -6.38
   9.904  -26.20   57.81   -0.23  -32.88   -0.21  -32.80  -21.78   -0.26
   9.948  -25.00   63.96   -0.18  -33.38   -0.17  -33.37  -21.85    5.04
   9.992  -24.02   67.28   -0.15  -33.93   -0.14  -33.83  -21.58    9.60
  10.036  -23.12   68.80   -0.13  -34.37   -0.12  -34.37  -21.42   12.79
  10.080  -22.48   69.81   -0.11  -34.82   -0.10  -34.78  -21.08   16.33
  10.124  -21.87   70.65   -0.11  -35.19   -0.11  -35.19  -20.77   18.25
  10.168  -21.41   70.74   -0.10  -35.63   -0.09  -35.54  -20.44   20.66
  10.212  -20.99   70.78   -0.10  -35.93   -0.10  -35.95  -20.04   21.88
  10.256  -20.59   70.91   -0.10  -36.23   -0.10  -36.20  -19.75   22.79
  10.300  -20.25   70.96   -0.10  -36.51   -0.10  -36.50  -19.46   23.67
  10.344  -19.95   71.20   -0.10  -36.85   -0.10  -36.83  -19.19   23.90
  10.388  -19.63   71.09   -0.11  -37.10   -0.09  -37.08  -18.91   24.17
  10.432  -19.27   71.15   -0.11  -37.38   -0.11  -37.41  -18.76   24.17
  10.476  -19.02   70.73   -0.12  -37.68   -0.11  -37.61  -18.51   24.86
  10.520  -18.72   70.65   -0.13  -37.90   -0.11  -37.90  -18.38   24.32
  10.564  -18.52   69.29   -0.13  -38.16   -0.12  -38.09  -18.20   25.09
  10.608  -18.29   68.91   -0.14  -38.35   -0.13  -38.36  -18.03   24.77
  10.652  -18.12   68.19   -0.14  -38.60   -0.13  -38.59  -17.91   25.41
  10.696  -18.04   67.93   -0.14  -38.79   -0.13  -38.81  -17.74   25.26
  10.740  -17.93   67.53   -0.14  -38.97   -0.13  -38.96  -17.64   25.02
  10.784  -17.80   66.73   -0.14  -39.19   -0.14  -39.18  -17.50   25.54
  10.828  -17.69   66.77   -0.14  -39.45   -0.13  -39.41  -17.33   25.41
  10.872  -17.61   66.45   -0.15  -39.64   -0.14  -39.60  -17.26   25.53
  10.916  -17.55   66.22   -0.14  -39.84   -0.14  -39.84  -17.17   25.26
  10.960  -17.46   65.51   -0.15  -40.06   -0.13  -40.02  -17.05   25.48
  11.004  -17.38   65.62   -0.15  -40.22   -0.14  -40.23  -16.95   25.41
  11.048  -17.36   65.36   -0.15  -40.41   -0.14  -40.40  -16.86   25.68
  11.092  -17.36   65.52   -0.15  -40.62   -0.15  -40.62  -16.80   25.08
  11.136  -17.27   65.58   -0.14  -40.76   -0.13  -40.72  -16.76   25.35
  11.180  -17.18   65.72   -0.14  -40.98   -0.13  -40.95  -16.65   25.60
  11.224  -17.11   66.11   -0.13  -41.17   -0.13  -41.14  -16.59   25.67
  11.268  -17.01   66.12   -0.13  -41.35   -0.12  -41.36  -16.59   25.95
  11.312  -16.94   65.87   -0.13  -41.59   -0.11  -41.59  -16.44   26.09
  11.356  -16.80   65.76   -0.12  -41.82   -0.12  -41.78  -16.42   26.15
  11.400  -16.71   65.64   -0.12  -42.03   -0.11  -42.02  -16.33   26.63
  11.444  -16.67   65.34   -0.12  -42.25   -0.11  -42.23  -16.23   26.54
  11.488  -16.61   65.43   -0.11  -42.48   -0.11  -42.48  -16.15   26.30
  11.532  -16.50   65.05   -0.11  -42.66   -0.10  -42.68  -16.09   26.43
  11.576  -16.46   64.84   -0.11  -42.90   -0.10  -42.86  -16.03   26.47
  11.620  -16.40   64.68   -0.11  -43.12   -0.09  -43.10  -15.96   26.36
  11.664  -16.31   64.32   -0.10  -43.35   -0.09  -43.35  -15.93   26.09
  11.708  -16.30   63.88   -0.10  -43.57   -0.08  -43.61  -15.84   25.87
  11.752  -16.19   63.63   -0.10  -43.88   -0.08  -43.85  -15.88   25.76
  11.796  -16.20   62.73   -0.11  -44.12   -0.09  -44.04  -15.80   25.94
  11.840  -16.19   62.58   -0.11  -44.36   -0.10  -44.39  -15.82   25.03
  11.884  -16.12   62.28   -0.10  -44.59   -0.10  -44.54  -15.85   25.18
