!  American Technical Ceramics  Date:   4/26/2005
!  One Norden Lane
!  Huntington Station,  NY.   11746-2102
!  Tel:  (631) 622-4700               Fax:  (631) 622-4748
!  Part Number  600S4R7         Mounting Orientation: Horizontal
!  Description: Ultra Low ESR Microwave capacitors
!  Application: Coupling, Bypass, Tuning, DC Block
!               Filters, Matching
# GHZ S DB R 50
! Freq   |S11|   S11 Ph  |S21|   S21 Ph  |S12|   S12 Ph  |S22|   S22 Ph
   0.000   0.00    0.00	  -999.00  90.00  -999.00  90.00    0.00    0.00
   0.400   -3.84  -50.54   -2.39   38.89   -2.39   38.83   -3.84  -50.57
   0.445   -4.40  -53.79   -2.02   35.85   -2.03   35.44   -4.39  -53.82
   0.490   -4.95  -56.64   -1.73   33.04   -1.73   33.10   -4.96  -56.14
   0.535   -5.50  -58.93   -1.48   30.56   -1.50   30.17   -5.48  -59.18
   0.580   -6.01  -61.33   -1.30   28.38   -1.31   28.46   -6.02  -60.81
   0.625   -6.51  -63.14   -1.14   26.35   -1.15   26.06   -6.51  -63.42
   0.670   -6.98  -65.21   -1.00   24.61   -1.01   24.59   -6.98  -64.67
   0.715   -7.47  -66.65   -0.90   22.90   -0.90   22.69   -7.46  -66.71
   0.760   -7.91  -68.32   -0.80   21.49   -0.81   21.41   -7.90  -67.78
   0.805   -8.33  -69.43   -0.72   20.03   -0.71   19.96   -8.34  -69.53
   0.850   -8.77  -71.15   -0.65   18.82   -0.65   18.73   -8.78  -70.41
   0.895   -9.18  -72.00   -0.59   17.66   -0.58   17.60   -9.15  -71.87
   0.940   -9.57  -73.25   -0.53   16.56   -0.54   16.38   -9.55  -72.91
   0.985   -9.93  -74.24   -0.49   15.53   -0.48   15.58   -9.96  -73.75
   1.030  -10.33  -75.25   -0.45   14.63   -0.45   14.41  -10.32  -74.84
   1.075  -10.67  -76.13   -0.41   13.73   -0.41   13.72  -10.68  -75.62
   1.120  -11.03  -76.96   -0.38   12.92   -0.38   12.73  -11.01  -76.67
   1.165  -11.35  -77.81   -0.34   12.12   -0.35   12.08  -11.35  -77.19
   1.210  -11.69  -78.68   -0.33   11.36   -0.33   11.22  -11.69  -78.08
   1.255  -12.01  -79.42   -0.29   10.69   -0.30   10.60  -12.01  -78.63
   1.300  -12.32  -80.01   -0.28    9.93   -0.28    9.88  -12.34  -79.52
   1.345  -12.63  -80.90   -0.26    9.35   -0.27    9.23  -12.64  -79.86
   1.390  -12.92  -81.37   -0.24    8.72   -0.24    8.71  -12.92  -80.59
   1.435  -13.23  -82.12   -0.23    8.15   -0.23    8.00  -13.20  -81.14
   1.480  -13.50  -82.58   -0.22    7.59   -0.21    7.60  -13.52  -81.60
   1.525  -13.80  -83.29   -0.20    7.05   -0.20    6.90  -13.78  -82.08
   1.570  -14.05  -83.79   -0.19    6.51   -0.19    6.46  -14.06  -82.69
   1.615  -14.34  -84.23   -0.17    6.05   -0.18    5.91  -14.31  -83.19
   1.660  -14.58  -84.83   -0.16    5.51   -0.17    5.47  -14.61  -83.62
   1.705  -14.86  -85.51   -0.16    5.09   -0.16    4.96  -14.86  -84.21
   1.750  -15.10  -86.04   -0.15    4.66   -0.15    4.57  -15.11  -84.37
   1.795  -15.36  -86.36   -0.14    4.17   -0.14    4.10  -15.38  -84.96
   1.840  -15.61  -87.05   -0.13    3.80   -0.13    3.67  -15.61  -84.99
   1.885  -15.86  -87.28   -0.12    3.35   -0.12    3.29  -15.86  -85.61
   1.930  -16.10  -88.02   -0.12    2.96   -0.12    2.80  -16.09  -85.77
   1.975  -16.34  -88.12   -0.11    2.56   -0.11    2.52  -16.33  -86.31
   2.020  -16.57  -88.76   -0.10    2.14   -0.11    2.03  -16.57  -86.45
   2.065  -16.81  -89.15   -0.10    1.77   -0.10    1.69  -16.80  -86.93
   2.110  -17.03  -89.52   -0.10    1.41   -0.10    1.27  -17.03  -87.14
   2.155  -17.25  -89.83   -0.09    1.07   -0.09    0.99  -17.25  -87.52
   2.200  -17.47  -90.25   -0.09    0.70   -0.10    0.59  -17.49  -87.79
   2.245  -17.69  -90.74   -0.09    0.37   -0.08    0.29  -17.69  -87.91
   2.290  -17.90  -91.02   -0.08    0.03   -0.08   -0.08  -17.91  -88.39
   2.335  -18.13  -91.54   -0.08   -0.30   -0.08   -0.43  -18.12  -88.48
   2.380  -18.31  -91.54   -0.07   -0.64   -0.07   -0.70  -18.35  -89.02
   2.425  -18.52  -92.35   -0.07   -0.95   -0.08   -1.10  -18.56  -88.98
   2.470  -18.73  -92.28   -0.07   -1.30   -0.07   -1.34  -18.74  -89.51
   2.515  -18.92  -93.04   -0.07   -1.60   -0.08   -1.72  -18.96  -89.43
   2.560  -19.13  -92.97   -0.07   -1.93   -0.07   -1.97  -19.14  -90.01
   2.605  -19.30  -93.47   -0.07   -2.22   -0.06   -2.32  -19.35  -90.07
   2.650  -19.49  -93.69   -0.06   -2.49   -0.07   -2.56  -19.55  -90.37
   2.695  -19.69  -94.18   -0.06   -2.81   -0.06   -2.87  -19.73  -90.48
   2.740  -19.86  -94.32   -0.06   -3.09   -0.06   -3.13  -19.92  -90.71
   2.785  -20.02  -94.77   -0.06   -3.35   -0.06   -3.42  -20.10  -90.93
   2.830  -20.20  -95.07   -0.06   -3.62   -0.06   -3.71  -20.28  -91.02
   2.875  -20.35  -95.35   -0.06   -3.91   -0.06   -3.97  -20.43  -91.35
   2.920  -20.54  -95.89   -0.05   -4.18   -0.06   -4.28  -20.58  -91.49
   2.965  -20.69  -96.01   -0.05   -4.48   -0.05   -4.51  -20.74  -92.18
   3.010  -20.88  -96.63   -0.05   -4.74   -0.05   -4.84  -20.91  -92.16
   3.055  -21.14  -96.70   -0.04   -4.95   -0.05   -5.00  -21.18  -92.06
   3.100  -21.36  -97.07   -0.04   -5.23   -0.05   -5.30  -21.37  -91.92
   3.145  -21.53  -97.11   -0.04   -5.46   -0.05   -5.54  -21.57  -92.28
   3.190  -21.73  -97.21   -0.04   -5.73   -0.05   -5.81  -21.72  -92.17
   3.235  -21.86  -97.23   -0.04   -5.98   -0.05   -6.05  -21.93  -92.47
   3.280  -22.02  -97.83   -0.04   -6.20   -0.05   -6.27  -22.11  -92.32
   3.325  -22.20  -98.07   -0.04   -6.45   -0.05   -6.51  -22.25  -92.57
   3.370  -22.37  -98.12   -0.04   -6.66   -0.05   -6.73  -22.44  -92.65
   3.415  -22.54  -98.60   -0.04   -6.91   -0.05   -7.00  -22.58  -92.65
   3.460  -22.74  -98.74   -0.04   -7.14   -0.04   -7.19  -22.77  -93.01
   3.505  -22.90  -99.18   -0.04   -7.38   -0.04   -7.48  -22.95  -92.99
   3.550  -23.08  -99.16   -0.03   -7.63   -0.04   -7.68  -23.09  -93.30
   3.595  -23.28  -99.56   -0.03   -7.87   -0.04   -7.95  -23.29  -93.33
   3.640  -23.46  -99.78   -0.03   -8.12   -0.03   -8.18  -23.48  -93.60
   3.685  -23.66 -100.13   -0.03   -8.32   -0.04   -8.42  -23.60  -93.54
   3.730  -23.81 -100.15   -0.03   -8.57   -0.03   -8.62  -23.77  -94.13
   3.775  -24.00 -100.45   -0.03   -8.79   -0.04   -8.87  -23.97  -94.03
   3.820  -24.17 -100.62   -0.03   -9.03   -0.04   -9.10  -24.13  -94.53
   3.865  -24.31 -100.86   -0.03   -9.26   -0.03   -9.31  -24.33  -94.75
   3.910  -24.51 -101.58   -0.03   -9.49   -0.03   -9.54  -24.51  -94.93
   3.955  -24.71 -101.51   -0.03   -9.71   -0.03   -9.76  -24.70  -95.16
   4.000  -24.90 -102.42   -0.03   -9.94   -0.03  -10.03  -24.88  -95.56
   4.045  -25.14 -102.55   -0.03  -10.18   -0.04  -10.21  -25.12  -95.91
   4.090  -25.36 -102.97   -0.03  -10.40   -0.04  -10.47  -25.31  -96.05
   4.135  -25.54 -102.72   -0.04  -10.60   -0.04  -10.65  -25.56  -96.33
   4.180  -25.78 -103.53   -0.04  -10.80   -0.04  -10.87  -25.76  -96.29
   4.225  -26.02 -103.38   -0.04  -10.99   -0.04  -11.03  -26.03  -96.56
   4.270  -26.22 -103.88   -0.03  -11.19   -0.04  -11.25  -26.27  -96.01
   4.315  -26.50 -103.69   -0.03  -11.44   -0.04  -11.48  -26.47  -96.14
   4.360  -26.72 -103.94   -0.03  -11.64   -0.03  -11.67  -26.69  -95.51
   4.405  -26.94 -103.78   -0.03  -11.86   -0.03  -11.89  -26.87  -95.31
   4.450  -27.12 -103.85   -0.02  -12.06   -0.03  -12.08  -27.03  -95.28
   4.495  -27.37 -103.77   -0.02  -12.27   -0.03  -12.34  -27.23  -95.28
   4.540  -27.49 -104.18   -0.02  -12.49   -0.03  -12.54  -27.42  -95.75
   4.585  -27.67 -105.48   -0.03  -12.70   -0.03  -12.75  -27.74  -96.48
   4.630  -28.05 -106.73   -0.03  -12.84   -0.03  -12.90  -28.19  -95.58
   4.675  -28.55 -105.73   -0.01  -13.08   -0.02  -13.13  -28.26  -93.72
   4.720  -28.71 -104.64   -0.01  -13.35   -0.02  -13.37  -28.38  -93.91
   4.765  -28.88 -105.20   -0.02  -13.55   -0.02  -13.60  -28.59  -93.76
   4.810  -29.09 -105.58   -0.02  -13.79   -0.02  -13.84  -28.88  -93.96
   4.855  -29.43 -105.98   -0.01  -13.98   -0.02  -14.01  -29.12  -93.46
   4.900  -29.71 -105.67   -0.02  -14.21   -0.02  -14.24  -29.38  -93.51
   4.945  -30.04 -106.14   -0.02  -14.39   -0.02  -14.46  -29.63  -93.11
   4.990  -30.32 -106.20   -0.01  -14.63   -0.02  -14.66  -29.85  -92.74
   5.035  -30.67 -106.36   -0.01  -14.82   -0.02  -14.83  -30.13  -92.68
   5.080  -30.96 -106.23   -0.02  -15.03   -0.02  -15.09  -30.40  -92.47
   5.125  -31.26 -106.64   -0.01  -15.25   -0.02  -15.29  -30.75  -92.03
   5.170  -31.59 -106.90   -0.02  -15.44   -0.02  -15.48  -30.99  -91.55
   5.215  -32.00 -107.62   -0.01  -15.66   -0.02  -15.69  -31.38  -91.74
   5.260  -32.48 -107.69   -0.01  -15.88   -0.02  -15.91  -31.69  -90.76
   5.305  -32.87 -107.78   -0.02  -16.07   -0.02  -16.14  -32.07  -90.16
   5.350  -33.28 -108.01   -0.02  -16.31   -0.02  -16.32  -32.39  -89.10
   5.395  -33.76 -108.01   -0.02  -16.47   -0.02  -16.51  -32.72  -88.69
   5.440  -34.23 -108.16   -0.02  -16.67   -0.02  -16.72  -33.10  -88.27
   5.485  -34.71 -109.03   -0.01  -16.89   -0.01  -16.93  -33.50  -87.14
   5.530  -35.25 -109.22   -0.01  -17.10   -0.02  -17.14  -33.88  -86.13
   5.575  -35.81 -109.84   -0.01  -17.28   -0.01  -17.36  -34.36  -85.39
   5.620  -36.48 -110.46   -0.01  -17.51   -0.02  -17.56  -34.83  -84.43
   5.665  -37.25 -110.71   -0.01  -17.72   -0.01  -17.76  -35.24  -83.15
   5.710  -38.03 -111.77   -0.01  -17.94   -0.02  -17.96  -35.95  -82.08
   5.755  -38.97 -112.69   -0.01  -18.17   -0.01  -18.23  -36.47  -79.10
   5.800  -39.98 -113.75   -0.01  -18.39   -0.02  -18.37  -37.05  -77.21
   5.845  -41.39 -115.25   -0.01  -18.58   -0.01  -18.62  -37.71  -74.72
   5.890  -43.00 -114.79   -0.01  -18.80   -0.02  -18.82  -38.37  -70.84
   5.935  -44.85 -114.08   -0.01  -19.02   -0.01  -19.05  -38.97  -67.00
   5.980  -46.94 -112.23   -0.02  -19.26   -0.02  -19.26  -39.66  -61.76
   6.025  -49.79 -112.89   -0.02  -19.41   -0.02  -19.46  -40.12  -56.12
   6.070  -53.40 -107.21   -0.02  -19.62   -0.02  -19.65  -40.70  -49.76
   6.115  -59.87 -105.22   -0.02  -19.82   -0.02  -19.88  -41.18  -42.01
   6.160  -68.75   43.73   -0.02  -20.04   -0.02  -20.09  -41.32  -34.45
   6.205  -55.39   60.58   -0.02  -20.26   -0.03  -20.28  -41.53  -26.78
   6.250  -50.95   57.74   -0.03  -20.44   -0.03  -20.51  -41.31  -18.09
   6.295  -47.62   61.04   -0.02  -20.64   -0.03  -20.70  -41.08  -11.29
   6.340  -45.67   63.71   -0.02  -20.85   -0.03  -20.90  -40.87   -3.42
   6.385  -43.64   64.22   -0.02  -21.06   -0.03  -21.11  -40.41    2.72
   6.430  -42.30   64.52   -0.02  -21.27   -0.03  -21.32  -39.95    9.18
   6.475  -40.62   64.73   -0.02  -21.47   -0.03  -21.51  -39.35   14.87
   6.520  -39.56   64.17   -0.03  -21.68   -0.03  -21.75  -38.67   20.35
   6.565  -38.39   65.41   -0.03  -21.90   -0.03  -21.95  -38.06   24.03
   6.610  -37.55   65.70   -0.03  -22.14   -0.03  -22.18  -37.36   27.97
   6.655  -36.49   65.75   -0.03  -22.33   -0.04  -22.39  -36.69   31.35
   6.700  -35.64   65.86   -0.03  -22.54   -0.04  -22.59  -36.10   34.24
   6.745  -34.76   66.77   -0.04  -22.77   -0.04  -22.82  -35.54   37.31
   6.790  -33.95   66.68   -0.04  -22.99   -0.05  -23.04  -35.11   39.91
   6.835  -33.01   65.93   -0.05  -23.18   -0.05  -23.25  -34.40   43.87
   6.880  -32.07   64.51   -0.05  -23.32   -0.05  -23.35  -33.81   46.50
   6.925  -31.44   62.58   -0.05  -23.54   -0.06  -23.58  -33.01   50.03
   6.970  -30.98   60.96   -0.05  -23.71   -0.06  -23.73  -32.25   50.50
   7.015  -30.57   59.75   -0.04  -23.94   -0.05  -23.95  -31.47   51.49
   7.060  -30.05   58.97   -0.04  -24.18   -0.05  -24.16  -30.82   51.95
   7.105  -29.58   58.72   -0.04  -24.41   -0.04  -24.43  -30.24   53.10
   7.150  -29.14   58.11   -0.04  -24.66   -0.05  -24.66  -29.65   53.37
   7.195  -28.69   57.42   -0.04  -24.91   -0.04  -24.91  -29.04   53.84
   7.240  -28.27   56.77   -0.03  -25.16   -0.04  -25.18  -28.37   53.46
   7.285  -27.77   56.62   -0.03  -25.44   -0.03  -25.41  -27.94   53.39
   7.330  -27.42   56.10   -0.03  -25.73   -0.03  -25.72  -27.42   53.51
   7.375  -26.90   56.32   -0.03  -26.00   -0.03  -25.96  -27.07   52.84
   7.420  -26.44   55.13   -0.04  -26.31   -0.04  -26.28  -26.60   53.93
   7.465  -25.92   54.96   -0.05  -26.61   -0.05  -26.58  -26.09   53.55
   7.510  -25.43   53.73   -0.05  -26.90   -0.05  -26.91  -25.61   54.43
   7.555  -24.97   53.12   -0.05  -27.23   -0.06  -27.19  -25.09   53.96
   7.600  -24.54   51.99   -0.06  -27.57   -0.07  -27.53  -24.57   54.36
   7.645  -23.99   51.50   -0.08  -27.95   -0.08  -27.91  -23.98   54.04
   7.690  -23.45   50.74   -0.09  -28.28   -0.09  -28.25  -23.43   54.18
   7.735  -22.92   49.40   -0.10  -28.65   -0.11  -28.66  -22.84   53.74
   7.780  -22.31   47.96   -0.12  -29.08   -0.12  -29.03  -22.21   53.34
   7.825  -21.75   46.18   -0.14  -29.47   -0.14  -29.51  -21.46   52.97
   7.870  -21.12   44.96   -0.17  -29.97   -0.17  -29.87  -20.81   51.36
   7.915  -20.47   42.58   -0.20  -30.50   -0.21  -30.53  -20.09   50.37
   7.960  -19.72   40.87   -0.26  -31.14   -0.25  -31.10  -19.26   48.06
   8.005  -18.81   37.93   -0.32  -31.82   -0.32  -31.84  -18.41   46.37
   8.050  -17.78   34.19   -0.43  -32.67   -0.43  -32.55  -17.39   42.88
   8.095  -16.63   28.48   -0.60  -33.59   -0.60  -33.60  -16.32   38.83
   8.140  -15.39   20.40   -0.86  -34.44   -0.87  -34.39  -15.05   32.32
   8.185  -14.18    8.95   -1.29  -34.75   -1.29  -34.64  -13.78   22.42
   8.230  -13.22   -7.65   -1.88  -32.98   -1.87  -32.94  -12.82    7.81
   8.275  -13.16  -28.31   -2.22  -27.94   -2.18  -27.86  -12.60  -10.79
   8.320  -14.28  -49.46   -1.87  -22.88   -1.85  -22.99  -13.65  -29.45
   8.365  -16.33  -66.58   -1.26  -21.18   -1.26  -21.27  -15.56  -44.07
   8.410  -18.76  -78.54   -0.82  -21.65   -0.83  -21.61  -17.77  -53.08
   8.455  -21.29  -86.10   -0.56  -22.58   -0.56  -22.57  -19.98  -58.29
   8.500  -23.79  -91.81   -0.40  -23.52   -0.40  -23.54  -22.09  -60.03
   8.545  -26.38  -95.02   -0.30  -24.40   -0.30  -24.43  -24.11  -59.84
   8.590  -29.04  -97.33   -0.23  -25.17   -0.23  -25.16  -25.96  -57.01
   8.635  -32.08  -97.38   -0.19  -25.81   -0.19  -25.83  -27.74  -52.51
   8.680  -35.66  -94.45   -0.16  -26.34   -0.16  -26.33  -29.22  -45.77
   8.725  -39.92  -87.26   -0.13  -26.83   -0.14  -26.85  -30.46  -37.80
   8.770  -45.68  -61.45   -0.12  -27.30   -0.12  -27.27  -31.39  -28.55
   8.815  -46.80   -3.40   -0.11  -27.68   -0.11  -27.70  -32.02  -20.19
   8.860  -42.62   27.41   -0.10  -28.04   -0.10  -28.01  -32.56  -11.77
   8.905  -39.73   37.29   -0.09  -28.33   -0.10  -28.32  -32.99   -1.44
   8.950  -38.01   42.72   -0.08  -28.66   -0.08  -28.62  -32.95    9.08
   8.995  -36.75   46.43   -0.07  -28.91   -0.07  -28.94  -32.34   19.13
   9.040  -35.40   52.24   -0.06  -29.23   -0.05  -29.22  -31.33   26.18
   9.085  -34.14   56.15   -0.04  -29.56   -0.03  -29.58  -30.40   29.43
   9.130  -32.92   60.28   -0.03  -29.99   -0.03  -29.98  -29.79   30.21
   9.175  -31.68   60.94   -0.04  -30.30   -0.04  -30.29  -29.40   30.78
   9.220  -30.41   60.19   -0.05  -30.60   -0.05  -30.63  -29.31   32.09
   9.265  -29.54   57.88   -0.05  -30.89   -0.07  -30.87  -29.14   35.00
   9.310  -28.98   55.97   -0.06  -31.01   -0.06  -30.99  -28.88   37.88
   9.355  -28.63   53.98   -0.07  -31.18   -0.06  -31.18  -28.52   40.79
   9.400  -28.29   53.74   -0.06  -31.36   -0.07  -31.42  -28.08   42.60
   9.445  -27.91   53.62   -0.06  -31.60   -0.06  -31.57  -27.64   43.84
   9.490  -27.57   53.36   -0.05  -31.76   -0.05  -31.80  -27.28   45.00
   9.535  -27.21   52.92   -0.05  -32.03   -0.04  -31.98  -26.93   45.51
   9.580  -26.88   52.12   -0.04  -32.23   -0.03  -32.23  -26.66   46.14
   9.625  -26.60   51.70   -0.03  -32.46   -0.03  -32.45  -26.30   46.81
   9.670  -26.36   51.37   -0.02  -32.65   -0.02  -32.68  -26.05   47.57
   9.715  -26.11   50.97   -0.02  -32.94   -0.02  -32.94  -25.77   47.92
   9.760  -25.91   50.39   -0.02  -33.17   -0.01  -33.14  -25.44   48.27
   9.805  -25.63   50.62   -0.01  -33.41   -0.01  -33.42  -25.19   48.57
   9.850  -25.47   50.29   -0.01  -33.67    0.00  -33.68  -24.98   48.65
   9.895  -25.21   49.93   -0.01  -33.94   -0.01  -33.94  -24.72   48.99
   9.940  -24.98   49.75   -0.01  -34.17   -0.01  -34.20  -24.51   48.58
   9.985  -24.69   49.25   -0.01  -34.40    0.00  -34.42  -24.37   48.96
  10.030  -24.54   48.97   -0.01  -34.67    0.00  -34.63  -24.13   48.72
  10.075  -24.32   48.53   -0.01  -34.90   -0.01  -34.92  -24.03   48.88
  10.120  -24.17   47.78   -0.02  -35.18   -0.01  -35.14  -23.83   49.02
  10.165  -23.95   47.51   -0.02  -35.37   -0.01  -35.35  -23.70   48.82
  10.210  -23.80   47.26   -0.01  -35.64   -0.01  -35.62  -23.55   49.04
  10.255  -23.66   46.81   -0.02  -35.86   -0.01  -35.83  -23.38   49.47
  10.300  -23.49   46.41   -0.02  -36.06   -0.02  -36.09  -23.27   49.30
  10.345  -23.33   46.14   -0.02  -36.30   -0.02  -36.28  -23.12   49.54
  10.390  -23.18   45.91   -0.02  -36.52   -0.02  -36.54  -22.99   49.69
  10.435  -23.03   45.60   -0.02  -36.76   -0.02  -36.72  -22.84   49.85
  10.480  -22.81   45.07   -0.03  -36.96   -0.03  -36.94  -22.75   50.30
  10.525  -22.70   44.73   -0.03  -37.22   -0.03  -37.16  -22.54   50.61
  10.570  -22.50   44.54   -0.03  -37.43   -0.03  -37.44  -22.40   50.90
  10.615  -22.38   44.01   -0.03  -37.68   -0.03  -37.64  -22.16   51.22
  10.660  -22.22   43.57   -0.04  -37.87   -0.04  -37.87  -21.96   51.01
  10.705  -22.03   42.97   -0.04  -38.14   -0.04  -38.10  -21.76   50.95
  10.750  -21.91   42.77   -0.04  -38.31   -0.04  -38.31  -21.53   50.61
  10.795  -21.74   42.50   -0.05  -38.52   -0.05  -38.54  -21.49   49.88
  10.840  -21.58   41.49   -0.05  -38.73   -0.05  -38.73  -21.35   49.81
  10.885  -21.37   41.03   -0.05  -38.95   -0.05  -38.96  -21.25   49.24
  10.930  -21.25   40.19   -0.06  -39.15   -0.05  -39.08  -21.12   49.48
  10.975  -21.14   39.84   -0.06  -39.35   -0.06  -39.40  -21.07   49.00
  11.020  -21.04   38.74   -0.05  -39.57   -0.06  -39.58  -20.96   49.18
  11.065  -20.90   38.24   -0.06  -39.77   -0.06  -39.80  -20.85   49.11
  11.110  -20.80   37.50   -0.06  -40.04   -0.06  -39.99  -20.71   49.36
  11.155  -20.76   37.26   -0.07  -40.29   -0.06  -40.29  -20.58   49.26
  11.200  -20.61   36.94   -0.05  -40.50   -0.05  -40.52  -20.51   49.50
  11.245  -20.52   36.30   -0.06  -40.76   -0.05  -40.74  -20.33   49.67
  11.290  -20.34   36.36   -0.05  -41.02   -0.05  -41.02  -20.21   49.49
  11.335  -20.26   35.75   -0.05  -41.28   -0.05  -41.22  -20.04   50.03
  11.380  -20.10   35.50   -0.05  -41.54   -0.05  -41.54  -19.88   49.55
  11.425  -19.96   35.06   -0.06  -41.82   -0.05  -41.80  -19.72   49.88
  11.470  -19.76   34.93   -0.06  -42.09   -0.06  -42.11  -19.54   49.70
  11.515  -19.65   34.20   -0.06  -42.40   -0.05  -42.34  -19.33   49.84
  11.560  -19.49   34.14   -0.06  -42.67   -0.05  -42.66  -19.19   49.43
  11.605  -19.29   33.51   -0.06  -43.00   -0.06  -42.98  -19.02   49.37
  11.650  -19.12   33.10   -0.07  -43.34   -0.07  -43.29  -18.83   49.28
  11.695  -18.92   32.67   -0.07  -43.64   -0.07  -43.61  -18.66   49.16
  11.740  -18.78   32.07   -0.08  -43.93   -0.08  -43.87  -18.44   49.17
  11.785  -18.56   31.82   -0.09  -44.25   -0.09  -44.26  -18.26   48.43
  11.830  -18.32   31.19   -0.09  -44.54   -0.10  -44.55  -18.04   48.71
  11.875  -18.14   30.50   -0.09  -44.90   -0.10  -44.87  -17.81   48.47
  11.920  -17.97   29.97   -0.11  -45.24   -0.09  -45.16  -17.55   48.14
  11.965  -17.70   29.29   -0.11  -45.63   -0.11  -45.66  -17.38   47.50
  12.010  -17.51   28.56   -0.12  -45.96   -0.13  -45.90  -17.12   47.31
  12.055  -17.24   28.01   -0.13  -46.35   -0.14  -46.37  -16.89   46.72
  12.100  -17.01   27.16   -0.15  -46.77   -0.15  -46.75  -16.63   46.25
  12.145  -16.78   26.32   -0.18  -47.17   -0.18  -47.13  -16.38   45.77
