!  American Technical Ceramics  Date:   10/26/00
!  One Norden Lane
!  Huntington Station,  NY.   11746-2102
!  Tel:  (631) 622-4700               Fax:  (631) 622-4748
!  Part Number  600S2R0BW     Mounting Orientation: Horizontal 
!  Description: Ultra Low ESR Microwave capacitors
!  Application: Coupling, Bypass, Tuning, DC Block
!               Filters, Matching
# GHZ S DB R 50
! Freq   |S11|   S11 Ph  |S21|   S21 Ph  |S12|   S12 Ph  |S22|   S22 Ph
   0.000   0.00    0.00	  -999.00  90.00  -999.00  90.00    0.00    0.00
   0.400   -1.04  -28.60   -6.79   61.23   -6.80   61.11   -1.02  -28.13
   0.465   -1.35  -32.41   -5.80   57.33   -5.80   57.17   -1.35  -32.15
   0.530   -1.71  -35.75   -4.98   53.78   -4.99   52.77   -1.72  -36.13
   0.595   -2.09  -39.61   -4.35   50.46   -4.35   50.33   -2.06  -38.06
   0.660   -2.39  -42.66   -3.78   47.24   -3.80   47.53   -2.45  -41.19
   0.725   -2.81  -45.10   -3.33   44.34   -3.34   44.23   -2.79  -44.80
   0.790   -3.13  -47.99   -2.93   41.42   -2.94   41.08   -3.18  -48.04
   0.855   -3.55  -50.79   -2.64   39.14   -2.63   38.74   -3.56  -49.92
   0.920   -3.90  -52.95   -2.33   36.94   -2.37   36.70   -3.92  -51.99
   0.985   -4.27  -55.35   -2.12   34.62   -2.09   34.91   -4.27  -53.57
   1.050   -4.61  -56.79   -1.89   32.56   -1.90   32.66   -4.65  -56.59
   1.115   -4.97  -58.63   -1.71   30.80   -1.72   30.47   -4.99  -58.70
   1.180   -5.34  -61.15   -1.57   28.94   -1.57   28.56   -5.37  -59.96
   1.245   -5.67  -62.37   -1.40   27.56   -1.42   27.39   -5.67  -61.30
   1.310   -6.02  -63.83   -1.30   25.88   -1.32   26.02   -6.03  -62.86
   1.375   -6.34  -65.08   -1.19   24.38   -1.18   24.38   -6.34  -64.63
   1.440   -6.66  -66.47   -1.11   22.94   -1.12   22.74   -6.73  -66.25
   1.505   -7.00  -68.00   -1.01   21.80   -1.02   21.39   -6.99  -67.20
   1.570   -7.32  -69.15   -0.95   20.57   -0.96   20.50   -7.33  -68.04
   1.635   -7.59  -70.00   -0.87   19.25   -0.87   19.41   -7.63  -69.52
   1.700   -7.92  -70.75   -0.81   18.26   -0.82   18.20   -7.91  -70.83
   1.765   -8.17  -72.18   -0.76   17.11   -0.76   16.91   -8.22  -71.95
   1.830   -8.51  -73.26   -0.71   16.29   -0.73   15.95   -8.49  -72.61
   1.895   -8.77  -74.18   -0.66   15.22   -0.68   15.11   -8.76  -73.60
   1.960   -9.00  -74.66   -0.62   14.28   -0.62   14.46   -9.05  -74.70
   2.025   -9.29  -75.59   -0.59   13.38   -0.58   13.30   -9.30  -75.85
   2.090   -9.55  -76.56   -0.55   12.55   -0.56   12.33   -9.57  -76.58
   2.155   -9.80  -77.61   -0.53   11.75   -0.53   11.49   -9.83  -77.22
   2.220  -10.06  -77.96   -0.49   11.00   -0.50   10.96  -10.06  -78.03
   2.285  -10.28  -78.47   -0.47   10.19   -0.47   10.23  -10.31  -79.03
   2.350  -10.50  -79.28   -0.44    9.40   -0.44    9.42  -10.55  -79.92
   2.415  -10.78  -80.27   -0.42    8.75   -0.43    8.51  -10.77  -80.36
   2.480  -11.00  -80.98   -0.40    8.04   -0.41    7.81  -11.02  -81.01
   2.545  -11.23  -81.15   -0.38    7.32   -0.39    7.32  -11.24  -81.85
   2.610  -11.45  -81.43   -0.37    6.70   -0.37    6.74  -11.45  -82.38
   2.675  -11.66  -81.97   -0.36    6.03   -0.36    6.00  -11.68  -83.02
   2.740  -11.86  -82.82   -0.35    5.49   -0.35    5.25  -11.87  -83.31
   2.805  -12.08  -83.17   -0.34    4.92   -0.35    4.70  -12.05  -83.87
   2.870  -12.25  -83.29   -0.33    4.30   -0.34    4.29  -12.24  -84.68
   2.935  -12.40  -83.71   -0.32    3.73   -0.31    3.80  -12.43  -85.26
   3.000  -12.63  -84.52   -0.30    3.13   -0.31    3.05  -12.59  -85.80
   3.065  -12.79  -85.23   -0.30    2.63   -0.29    2.43  -12.78  -86.35
   3.130  -12.99  -85.74   -0.27    2.10   -0.29    1.91  -12.90  -86.85
   3.195  -13.10  -85.80   -0.27    1.61   -0.27    1.62  -13.09  -87.64
   3.260  -13.29  -86.40   -0.26    1.10   -0.26    1.09  -13.25  -88.05
   3.325  -13.42  -87.03   -0.26    0.68   -0.25    0.60  -13.38  -88.28
   3.390  -13.58  -87.74   -0.25    0.21   -0.26    0.05  -13.51  -88.82
   3.455  -13.69  -88.22   -0.24   -0.20   -0.24   -0.39  -13.68  -89.36
   3.520  -13.85  -88.34   -0.23   -0.74   -0.23   -0.69  -13.82  -90.30
   3.585  -13.98  -89.34   -0.22   -1.13   -0.22   -1.14  -13.99  -90.56
   3.650  -14.18  -90.07   -0.21   -1.62   -0.22   -1.69  -14.12  -91.05
   3.715  -14.32  -90.44   -0.20   -2.00   -0.21   -2.21  -14.31  -91.49
   3.780  -14.50  -90.45   -0.20   -2.50   -0.21   -2.59  -14.46  -92.12
   3.845  -14.60  -90.74   -0.19   -2.93   -0.19   -2.95  -14.59  -92.51
   3.910  -14.74  -91.16   -0.19   -3.32   -0.19   -3.32  -14.72  -92.63
   3.975  -14.94  -91.90   -0.18   -3.75   -0.19   -3.86  -14.88  -92.77
   4.040  -15.01  -91.98   -0.18   -4.08   -0.18   -4.30  -14.98  -93.44
   4.105  -15.16  -92.19   -0.17   -4.55   -0.18   -4.66  -15.10  -94.19
   4.170  -15.26  -92.30   -0.17   -4.87   -0.17   -4.91  -15.27  -94.56
   4.235  -15.41  -93.06   -0.16   -5.35   -0.16   -5.38  -15.38  -94.80
   4.300  -15.54  -93.34   -0.16   -5.63   -0.17   -5.75  -15.51  -95.05
   4.365  -15.66  -93.57   -0.16   -6.10   -0.17   -6.26  -15.64  -95.69
   4.430  -15.75  -93.74   -0.14   -6.46   -0.16   -6.54  -15.77  -96.12
   4.495  -15.86  -93.99   -0.15   -6.85   -0.14   -6.85  -15.89  -96.60
   4.560  -15.98  -94.68   -0.14   -7.17   -0.14   -7.22  -15.99  -96.49
   4.625  -16.12  -94.98   -0.15   -7.61   -0.15   -7.73  -16.09  -97.22
   4.690  -16.21  -95.12   -0.12   -7.93   -0.13   -8.08  -16.19  -97.72
   4.755  -16.29  -95.07   -0.14   -8.35   -0.15   -8.45  -16.37  -98.46
   4.820  -16.43  -95.66   -0.12   -8.73   -0.12   -8.72  -16.47  -98.75
   4.885  -16.54  -96.28   -0.13   -9.03   -0.13   -9.12  -16.64  -98.67
   4.950  -16.69  -96.34   -0.13   -9.46   -0.13   -9.53  -16.67  -99.23
   5.015  -16.74  -96.52   -0.12   -9.77   -0.13   -9.92  -16.89  -99.76
   5.080  -16.90  -96.72   -0.12  -10.16   -0.12  -10.19  -16.95 -100.31
   5.145  -17.00  -97.01   -0.12  -10.45   -0.12  -10.50  -17.11 -100.30
   5.210  -17.17  -97.41   -0.11  -10.85   -0.10  -10.87  -17.17 -100.49
   5.275  -17.26  -97.92   -0.12  -11.13   -0.12  -11.23  -17.32 -100.73
   5.340  -17.38  -97.44   -0.12  -11.56   -0.12  -11.68  -17.45 -101.67
   5.405  -17.46  -98.09   -0.11  -11.85   -0.12  -11.92  -17.57 -101.52
   5.470  -17.64  -98.06   -0.12  -12.18   -0.10  -12.20  -17.66 -102.05
   5.535  -17.73  -98.86   -0.11  -12.51   -0.12  -12.61  -17.79 -101.99
   5.600  -17.84  -98.62   -0.11  -12.84   -0.11  -12.99  -17.92 -102.83
   5.665  -17.96  -99.09   -0.11  -13.18   -0.11  -13.28  -18.06 -103.05
   5.730  -18.09  -99.09   -0.11  -13.52   -0.10  -13.62  -18.18 -103.75
   5.795  -18.22  -99.81   -0.10  -13.82   -0.11  -13.84  -18.30 -103.64
   5.860  -18.40 -100.01   -0.11  -14.17   -0.11  -14.23  -18.42 -104.08
   5.925  -18.51 -100.14   -0.11  -14.50   -0.11  -14.63  -18.57 -104.53
   5.990  -18.57 -100.02   -0.10  -14.78   -0.10  -14.93  -18.79 -104.90
   6.055  -18.81 -100.63   -0.10  -15.13   -0.10  -15.13  -18.84 -104.67
   6.120  -18.91 -100.70   -0.10  -15.42   -0.10  -15.54  -18.99 -104.99
   6.185  -19.05 -101.41   -0.09  -15.79   -0.10  -15.82  -19.11 -104.87
   6.250  -19.21 -100.96   -0.10  -16.11   -0.10  -16.19  -19.27 -105.68
   6.315  -19.31 -101.42   -0.09  -16.42   -0.10  -16.55  -19.44 -105.63
   6.380  -19.48 -101.56   -0.09  -16.69   -0.09  -16.81  -19.58 -105.71
   6.445  -19.72 -102.34   -0.09  -17.02   -0.09  -17.07  -19.67 -105.46
   6.510  -19.84 -102.58   -0.09  -17.38   -0.09  -17.51  -19.86 -105.77
   6.575  -19.99 -102.50   -0.09  -17.67   -0.09  -17.81  -20.06 -106.05
   6.640  -20.17 -102.97   -0.09  -18.03   -0.10  -18.13  -20.22 -106.14
   6.705  -20.38 -103.71   -0.09  -18.37   -0.09  -18.43  -20.32 -105.89
   6.770  -20.54 -103.99   -0.09  -18.64   -0.09  -18.76  -20.49 -105.70
   6.835  -20.80 -105.19   -0.09  -19.02   -0.09  -19.01  -20.58 -105.37
   6.900  -20.94 -105.38   -0.09  -19.37   -0.09  -19.54  -20.78 -105.57
   6.965  -21.30 -106.94   -0.11  -19.74   -0.11  -19.86  -20.84 -105.08
   7.030  -21.87 -109.05   -0.14  -20.16   -0.13  -20.19  -20.62 -104.19
   7.095  -22.88 -108.84   -0.19  -20.37   -0.19  -20.46  -20.29 -106.55
   7.160  -23.35  -99.38   -0.20  -19.97   -0.20  -20.10  -20.62 -113.12
   7.225  -22.56  -97.87   -0.13  -20.19   -0.13  -20.26  -21.50 -114.18
   7.290  -22.39  -99.07   -0.10  -20.57   -0.10  -20.71  -22.05 -112.99
   7.355  -22.61 -100.55   -0.09  -20.94   -0.09  -21.04  -22.32 -111.95
   7.420  -22.73 -102.15   -0.09  -21.30   -0.09  -21.31  -22.65 -110.87
   7.485  -22.89 -101.74   -0.07  -21.63   -0.08  -21.75  -22.96 -111.00
   7.550  -23.17 -102.41   -0.07  -21.95   -0.08  -22.08  -23.23 -111.01
   7.615  -23.44 -103.74   -0.07  -22.30   -0.06  -22.33  -23.50 -109.73
   7.680  -23.71 -103.41   -0.07  -22.59   -0.07  -22.70  -23.82 -109.85
   7.745  -24.01 -104.14   -0.06  -22.90   -0.07  -23.02  -24.15 -109.06
   7.810  -24.28 -104.40   -0.06  -23.25   -0.06  -23.27  -24.49 -108.18
   7.875  -24.53 -103.49   -0.06  -23.50   -0.06  -23.62  -24.83 -108.00
   7.940  -24.94 -104.43   -0.06  -23.85   -0.06  -23.98  -25.07 -106.38
   8.005  -25.13 -104.90   -0.06  -24.15   -0.05  -24.26  -25.31 -105.01
   8.070  -25.27 -104.25   -0.05  -24.47   -0.05  -24.60  -25.60 -104.64
   8.135  -25.58 -105.98   -0.05  -24.81   -0.05  -24.94  -25.81 -103.81
   8.200  -25.93 -107.24   -0.05  -25.12   -0.06  -25.23  -26.15 -103.60
   8.265  -26.43 -108.01   -0.05  -25.47   -0.05  -25.51  -26.34 -102.69
   8.330  -24.84 -121.43   -0.06  -25.88   -0.05  -25.99  -24.11  -93.36
   8.395  -25.46 -123.13   -0.06  -26.19   -0.06  -26.26  -24.59  -91.75
   8.460  -26.15 -123.71   -0.06  -26.46   -0.06  -26.59  -24.99  -90.30
   8.525  -27.06 -126.25   -0.06  -26.78   -0.06  -26.90  -25.46  -87.60
   8.590  -27.92 -128.19   -0.06  -27.07   -0.07  -27.09  -25.96  -85.11
   8.655  -28.92 -130.03   -0.07  -27.37   -0.07  -27.43  -26.38  -82.72
   8.720  -29.97 -132.62   -0.07  -27.63   -0.07  -27.66  -27.10  -78.90
   8.785  -31.25 -134.89   -0.07  -27.89   -0.08  -27.97  -27.75  -74.85
   8.850  -32.44 -137.27   -0.07  -28.20   -0.08  -28.28  -28.10  -69.23
   8.915  -33.66 -141.74   -0.08  -28.48   -0.08  -28.57  -28.30  -63.42
   8.980  -34.81 -151.03   -0.08  -28.72   -0.08  -28.80  -28.77  -58.84
   9.045  -36.42 -162.92   -0.08  -28.95   -0.09  -29.05  -29.12  -53.12
   9.110  -38.13  179.88   -0.08  -29.21   -0.08  -29.31  -29.27  -45.63
   9.175  -39.39  158.62   -0.08  -29.49   -0.08  -29.61  -29.21  -39.02
   9.240  -39.64  137.29   -0.08  -29.68   -0.07  -29.86  -29.08  -32.45
   9.305  -39.19  123.07   -0.08  -29.95   -0.08  -30.07  -28.99  -25.29
   9.370  -37.53  116.01   -0.07  -30.26   -0.07  -30.32  -28.75  -18.88
   9.435  -35.72  110.23   -0.06  -30.57   -0.07  -30.65  -28.13  -13.55
   9.500  -34.02  105.44   -0.06  -30.88   -0.06  -30.93  -27.47   -8.15
   9.565  -32.63  101.04   -0.05  -31.14   -0.05  -31.27  -27.02   -4.29
   9.630  -31.22   99.18   -0.05  -31.44   -0.05  -31.51  -26.48   -1.66
   9.695  -29.98   98.10   -0.04  -31.71   -0.04  -31.82  -26.06    1.14
   9.760  -28.75   95.94   -0.02  -32.03   -0.02  -32.14  -25.61    3.88
   9.825  -27.65   94.19   -0.01  -32.39    0.00  -32.52  -25.15    6.33
   9.890  -26.64   91.77    0.00  -32.84    0.00  -32.90  -24.71    8.71
   9.955  -25.65   89.08    0.01  -33.26    0.01  -33.39  -24.37   10.89
  10.020  -24.94   87.11    0.00  -33.67    0.00  -33.82  -23.91   12.55
  10.085  -24.45   84.07    0.00  -34.07    0.00  -34.17  -23.49   15.31
  10.150  -23.88   82.37    0.00  -34.46   -0.01  -34.51  -23.05   17.15
  10.215  -23.48   81.74   -0.01  -34.86   -0.02  -34.97  -22.54   18.37
  10.280  -22.97   81.06   -0.02  -35.19   -0.03  -35.31  -22.06   19.31
  10.345  -22.41   80.03   -0.03  -35.58   -0.04  -35.66  -21.61   19.71
  10.410  -21.98   78.95   -0.04  -35.87   -0.04  -36.05  -21.26   19.87
  10.475  -21.57   76.54   -0.05  -36.28   -0.06  -36.33  -20.92   20.46
  10.540  -21.13   75.48   -0.06  -36.58   -0.06  -36.70  -20.70   20.25
  10.605  -20.89   74.14   -0.08  -36.90   -0.08  -37.05  -20.45   20.37
  10.670  -20.67   72.67   -0.08  -37.25   -0.07  -37.38  -20.13   21.10
  10.735  -20.38   71.81   -0.08  -37.51   -0.09  -37.64  -19.93   21.22
  10.800  -20.27   70.00   -0.09  -37.88   -0.08  -37.95  -19.66   21.87
  10.865  -20.07   68.97   -0.09  -38.24   -0.10  -38.30  -19.46   21.25
  10.930  -19.93   68.45   -0.10  -38.53   -0.11  -38.61  -19.31   21.16
  10.995  -19.90   67.41   -0.11  -38.83   -0.10  -38.94  -19.17   21.78
  11.060  -19.79   66.85   -0.10  -39.16   -0.10  -39.26  -18.93   22.14
  11.125  -19.66   67.23   -0.10  -39.42   -0.11  -39.48  -18.87   22.19
  11.190  -19.56   67.07   -0.10  -39.77   -0.10  -39.87  -18.68   22.60
  11.255  -19.33   67.02   -0.10  -40.10   -0.10  -40.21  -18.54   22.69
  11.320  -19.18   67.04   -0.08  -40.49   -0.09  -40.63  -18.32   23.32
  11.385  -18.90   66.22   -0.08  -40.90   -0.08  -40.96  -18.19   23.89
  11.450  -18.69   65.83   -0.07  -41.34   -0.08  -41.44  -17.92   23.95
  11.515  -18.42   65.52   -0.08  -41.80   -0.09  -41.91  -17.79   23.69
  11.580  -18.23   64.16   -0.07  -42.22   -0.09  -42.33  -17.61   23.97
  11.645  -18.00   63.33   -0.08  -42.73   -0.08  -42.86  -17.40   23.78
  11.710  -17.82   62.17   -0.08  -43.20   -0.08  -43.34  -17.19   23.82
  11.775  -17.53   60.50   -0.08  -43.81   -0.09  -43.89  -17.09   23.80
  11.840  -17.36   59.79   -0.10  -44.35   -0.11  -44.50  -16.82   23.13
  11.905  -17.07   57.85   -0.11  -44.98   -0.12  -45.07  -16.66   23.54
  11.970  -16.92   56.26   -0.13  -45.49   -0.13  -45.64  -16.36   23.39
  12.035  -16.62   54.60   -0.15  -46.13   -0.15  -46.23  -16.12   23.47
  12.100  -16.32   52.98   -0.17  -46.80   -0.18  -46.94  -15.83   22.97
  12.165  -15.92   50.63   -0.20  -47.64   -0.22  -47.73  -15.49   22.67
  12.230  -15.58   48.81   -0.24  -48.45   -0.26  -48.61  -15.01   21.78
  12.295  -15.06   45.52   -0.30  -49.43   -0.30  -49.46  -14.53   21.61
  12.360  -14.43   42.87   -0.36  -50.53   -0.38  -50.63  -13.93   19.97
  12.425  -13.76   38.54   -0.49  -51.87   -0.49  -51.87  -13.21   18.53
  12.490  -12.80   33.98   -0.63  -53.49   -0.65  -53.56  -12.35   15.22
  12.555  -11.83   26.70   -0.91  -55.39   -0.93  -55.35  -11.33   11.68
  12.620  -10.66   17.71   -1.39  -57.57   -1.40  -57.65  -10.01    4.95
  12.685   -9.28    4.39   -2.24  -59.17   -2.24  -58.88   -8.72   -4.75
  12.750   -8.08  -14.20   -3.68  -56.88   -3.66  -56.37   -7.72  -21.05
  12.815   -7.93  -38.43   -4.67  -43.85   -4.57  -44.27   -7.31  -41.18
  12.880   -8.94  -62.61   -3.58  -31.97   -3.54  -32.39   -8.46  -61.87
  12.945  -10.92  -81.94   -2.11  -30.12   -2.11  -30.66  -10.18  -77.53
  13.010  -13.01  -95.62   -1.29  -31.84   -1.31  -32.24  -12.26  -87.07
  13.075  -14.90 -104.97   -0.84  -34.35   -0.84  -34.51  -14.24  -94.40
  13.140  -16.60 -112.56   -0.59  -36.22   -0.59  -36.38  -15.93  -98.54
  13.205  -18.19 -118.76   -0.42  -37.96   -0.46  -38.21  -17.31 -101.43
  13.270  -19.40 -123.88   -0.34  -39.26   -0.34  -39.43  -18.77 -103.50
  13.335  -20.50 -127.74   -0.26  -40.46   -0.28  -40.65  -19.82 -105.51
  13.400  -21.47 -131.40   -0.22  -41.35   -0.24  -41.41  -20.79 -106.96
  13.465  -22.27 -134.17   -0.21  -42.24   -0.21  -42.28  -21.68 -108.82
  13.530  -23.00 -136.83   -0.16  -42.96   -0.18  -43.07  -22.22 -110.06
  13.595  -23.68 -139.02   -0.17  -43.69   -0.16  -43.70  -22.95 -111.52
  13.660  -24.22 -140.19   -0.14  -44.29   -0.14  -44.37  -23.38 -114.44
  13.725  -24.70 -139.86   -0.14  -44.81   -0.14  -44.98  -23.86 -116.84
  13.790  -25.06 -139.63   -0.10  -45.45   -0.13  -45.45  -24.34 -119.74
  13.855  -25.13 -139.60   -0.13  -45.89   -0.12  -46.00  -24.84 -121.64
  13.920  -25.21 -140.24   -0.09  -46.45   -0.10  -46.61  -25.17 -123.33
  13.985  -25.21 -140.27   -0.10  -46.84   -0.10  -46.94  -25.47 -125.20
  14.050  -25.32 -139.77   -0.10  -47.34   -0.08  -47.41  -25.56 -126.99
  14.115  -25.38 -140.99   -0.09  -47.76   -0.10  -47.96  -25.72 -128.16
  14.180  -25.51 -140.77   -0.10  -48.17   -0.10  -48.29  -25.87 -130.73
  14.245  -25.61 -140.25   -0.10  -48.51   -0.11  -48.60  -25.90 -131.82
  14.310  -25.81 -139.18   -0.11  -48.96   -0.09  -49.08  -26.04 -134.31
  14.375  -25.81 -138.45   -0.09  -49.31   -0.10  -49.36  -25.95 -135.41
  14.440  -25.99 -136.63   -0.09  -49.65   -0.09  -49.78  -25.84 -136.41
  14.505  -26.15 -135.03   -0.08  -50.12   -0.08  -50.14  -25.64 -138.05
  14.570  -25.88 -130.85   -0.07  -50.40   -0.08  -50.69  -25.51 -141.55
  14.635  -25.54 -128.77   -0.05  -50.86   -0.06  -50.97  -25.46 -144.90
  14.700  -25.13 -128.84   -0.05  -51.37   -0.06  -51.50  -25.65 -148.21
  14.765  -24.96 -129.28   -0.06  -51.80   -0.06  -51.86  -25.74 -150.00
  14.830  -24.74 -129.01   -0.05  -52.22   -0.07  -52.31  -26.10 -151.82
  14.895  -24.58 -128.97   -0.06  -52.74   -0.07  -52.90  -26.34 -154.29
  14.960  -24.42 -130.42   -0.08  -53.19   -0.08  -53.35  -26.48 -153.84
  15.025  -24.55 -132.17   -0.11  -53.46   -0.11  -53.60  -26.49 -155.20
  15.090  -24.80 -133.94   -0.12  -53.72   -0.13  -53.82  -26.57 -156.10
  15.155  -25.24 -133.41   -0.13  -53.99   -0.13  -54.11  -26.73 -156.45
  15.220  -25.49 -132.21   -0.13  -54.30   -0.13  -54.46  -26.89 -158.26
  15.285  -25.83 -130.76   -0.12  -54.61   -0.13  -54.82  -26.87 -159.74
  15.350  -26.24 -129.78   -0.13  -54.98   -0.12  -55.10  -26.94 -158.95
  15.415  -26.51 -127.64   -0.12  -55.36   -0.12  -55.46  -27.03 -161.49
  15.480  -26.72 -125.44   -0.13  -55.67   -0.13  -55.82  -27.04 -163.59
  15.545  -26.95 -124.05   -0.14  -56.13   -0.14  -56.28  -27.33 -165.89
  15.610  -27.34 -122.01   -0.14  -56.44   -0.14  -56.59  -27.47 -168.98
  15.675  -27.61 -119.51   -0.16  -56.79   -0.16  -56.96  -27.64 -171.07
  15.740  -28.02 -118.65   -0.17  -57.19   -0.16  -57.28  -28.09 -173.94
  15.805  -28.38 -116.35   -0.17  -57.52   -0.17  -57.54  -28.38 -178.70
  15.870  -28.95 -114.14   -0.18  -57.83   -0.19  -57.96  -28.75  177.41
  15.935  -29.73 -112.41   -0.19  -58.08   -0.20  -58.21  -29.42  171.91
  16.000  -30.54 -107.91   -0.20  -58.37   -0.20  -58.57  -29.68  166.15
  16.065  -31.74 -101.29   -0.21  -58.59   -0.21  -58.69  -30.47  158.82
  16.130  -32.56  -88.59   -0.20  -58.88   -0.20  -58.89  -31.32  150.15
  16.195  -32.47  -77.29   -0.19  -59.12   -0.20  -59.23  -32.06  141.99
  16.260  -32.19  -67.63   -0.18  -59.47   -0.20  -59.64  -32.74  133.10
  16.325  -32.03  -60.91   -0.19  -59.81   -0.18  -59.94  -33.06  122.61
  16.390  -31.43  -53.68   -0.18  -60.20   -0.19  -60.31  -33.23  112.06
  16.455  -31.19  -44.98   -0.18  -60.55   -0.18  -60.65  -32.89   99.70
  16.520  -30.78  -36.83   -0.19  -60.94   -0.19  -61.09  -32.15   89.76
  16.585  -30.20  -29.03   -0.19  -61.37   -0.19  -61.53  -31.43   80.29
  16.650  -29.41  -20.98   -0.20  -61.68   -0.21  -61.83  -30.38   72.05
  16.715  -28.44  -15.00   -0.20  -62.09   -0.19  -62.06  -29.56   64.95
  16.780  -27.45  -10.90   -0.22  -62.39   -0.21  -62.53  -28.23   59.18
  16.845  -26.61   -6.16   -0.23  -62.85   -0.23  -62.87  -27.14   54.72
  16.910  -25.73   -2.45   -0.23  -63.15   -0.24  -63.27  -26.05   50.40
  16.975  -24.72    0.74   -0.25  -63.51   -0.22  -63.72  -25.06   47.04
  17.040  -23.95    3.30   -0.25  -63.94   -0.26  -64.01  -24.12   43.93
  17.105  -23.07    4.96   -0.25  -64.24   -0.25  -64.40  -23.38   40.99
  17.170  -22.32    6.79   -0.26  -64.57   -0.26  -64.71  -22.46   38.56
  17.235  -21.54    8.21   -0.26  -65.15   -0.28  -65.38  -21.81   36.46
  17.300  -20.72    9.56   -0.27  -65.43   -0.27  -65.50  -21.04   33.83
  17.365  -19.99   10.47   -0.28  -65.83   -0.27  -65.97  -20.31   32.38
