!  American Technical Ceramics  Date:   10/26/00
!  One Norden Lane
!  Huntington Station,  NY.   11746-2102
!  Tel:  (631) 622-4700               Fax:  (631) 622-4748
!  Part Number  600S1R3AW      Mounting Orientation: Horizontal
!  Description: Ultra Low ESR Microwave capacitors
!  Application: Coupling, Bypass, Tuning, DC Block
!               Filters, Matching
# GHZ S DB R 50
! Freq   |S11|   S11 Ph  |S21|   S21 Ph  |S12|   S12 Ph  |S22|   S22 Ph
   0.000   0.00    0.00	  -999.00  90.00  -999.00  90.00    0.00    0.00
   0.400   -0.46  -19.56  -10.11   70.23  -10.12   70.12   -0.45  -19.23
   0.482   -0.67  -23.49   -8.69   66.08   -8.71   66.00   -0.73  -22.49
   0.563   -0.84  -26.71   -7.52   62.62   -7.57   62.49   -0.98  -26.28
   0.645   -1.10  -29.75   -6.57   59.42   -6.61   59.20   -1.15  -29.77
   0.726   -1.43  -32.86   -5.82   56.42   -5.82   56.13   -1.39  -32.72
   0.808   -1.61  -36.23   -5.13   53.05   -5.14   53.04   -1.67  -35.83
   0.889   -1.98  -38.84   -4.58   50.52   -4.57   50.26   -1.90  -38.64
   0.971   -2.20  -42.11   -4.11   47.40   -4.10   47.81   -2.29  -40.88
   1.052   -2.52  -44.24   -3.67   45.02   -3.69   45.09   -2.56  -43.96
   1.134   -2.78  -46.47   -3.29   42.69   -3.31   42.90   -2.84  -46.24
   1.215   -3.19  -48.80   -3.04   40.57   -3.03   40.51   -3.15  -48.37
   1.297   -3.44  -51.25   -2.73   38.05   -2.74   38.14   -3.47  -50.84
   1.378   -3.74  -53.18   -2.48   36.17   -2.46   36.25   -3.72  -52.58
   1.460   -4.04  -55.16   -2.30   34.14   -2.28   34.42   -4.10  -54.34
   1.541   -4.34  -56.80   -2.07   32.14   -2.09   32.28   -4.39  -56.79
   1.623   -4.62  -58.47   -1.89   30.52   -1.90   30.67   -4.66  -58.28
   1.704   -4.98  -59.81   -1.76   29.05   -1.78   29.01   -4.97  -59.91
   1.786   -5.24  -61.76   -1.65   27.23   -1.63   27.37   -5.28  -61.45
   1.867   -5.52  -63.05   -1.49   25.80   -1.49   25.93   -5.53  -63.00
   1.949   -5.81  -64.36   -1.41   24.34   -1.41   24.62   -5.88  -64.41
   2.030   -6.12  -65.87   -1.31   23.00   -1.31   22.97   -6.12  -65.97
   2.112   -6.37  -67.06   -1.22   21.62   -1.22   21.83   -6.43  -67.25
   2.193   -6.67  -68.24   -1.15   20.45   -1.15   20.51   -6.69  -68.47
   2.275   -6.93  -69.52   -1.07   19.14   -1.06   19.20   -6.96  -69.84
   2.356   -7.18  -70.65   -0.99   17.95   -0.99   18.13   -7.24  -70.91
   2.438   -7.47  -71.46   -0.93   16.90   -0.94   16.99   -7.49  -72.04
   2.519   -7.74  -72.54   -0.89   15.79   -0.90   15.92   -7.75  -73.14
   2.601   -7.99  -73.48   -0.85   14.83   -0.85   14.82   -8.00  -73.84
   2.682   -8.23  -74.17   -0.82   13.73   -0.82   13.87   -8.27  -75.04
   2.764   -8.45  -75.21   -0.77   12.78   -0.76   12.77   -8.48  -75.82
   2.845   -8.70  -75.87   -0.73   11.86   -0.73   11.99   -8.72  -76.72
   2.927   -8.90  -76.75   -0.70   10.98   -0.69   11.03   -8.95  -77.62
   3.008   -9.18  -77.34   -0.65    9.97   -0.66   10.05   -9.14  -79.13
   3.090   -9.37  -78.38   -0.64    9.24   -0.62    9.21   -9.39  -79.79
   3.171   -9.60  -79.03   -0.61    8.36   -0.61    8.46   -9.59  -80.65
   3.253   -9.80  -79.94   -0.58    7.63   -0.59    7.56   -9.77  -81.15
   3.334   -9.97  -80.66   -0.56    6.98   -0.55    6.95   -9.97  -81.82
   3.416  -10.16  -81.48   -0.53    6.20   -0.53    6.23  -10.16  -82.81
   3.497  -10.37  -82.39   -0.50    5.44   -0.51    5.47  -10.29  -83.46
   3.579  -10.53  -83.22   -0.48    4.83   -0.47    4.75  -10.53  -84.08
   3.660  -10.74  -83.77   -0.47    3.99   -0.48    4.07  -10.70  -85.11
   3.742  -10.90  -84.72   -0.44    3.37   -0.44    3.29  -10.90  -85.61
   3.823  -11.08  -85.27   -0.43    2.80   -0.43    2.73  -11.11  -86.16
   3.905  -11.29  -85.95   -0.43    2.14   -0.42    2.14  -11.30  -86.74
   3.986  -11.43  -86.70   -0.41    1.43   -0.41    1.41  -11.40  -87.24
   4.068  -11.65  -87.15   -0.39    0.95   -0.38    0.85  -11.62  -87.75
   4.149  -11.85  -87.54   -0.39    0.25   -0.39    0.22  -11.81  -88.56
   4.231  -12.00  -88.26   -0.35   -0.38   -0.36   -0.44  -11.95  -89.11
   4.312  -12.15  -88.60   -0.34   -0.82   -0.33   -0.86  -12.12  -89.60
   4.394  -12.30  -88.98   -0.34   -1.46   -0.34   -1.53  -12.30  -90.01
   4.475  -12.50  -89.72   -0.33   -2.10   -0.32   -2.12  -12.44  -90.93
   4.557  -12.62  -90.34   -0.31   -2.57   -0.31   -2.66  -12.63  -91.29
   4.638  -12.82  -90.74   -0.32   -3.23   -0.31   -3.27  -12.79  -92.30
   4.720  -12.96  -91.37   -0.28   -3.84   -0.28   -3.89  -12.94  -92.80
   4.801  -13.14  -91.79   -0.28   -4.25   -0.28   -4.27  -13.11  -93.16
   4.883  -13.28  -92.13   -0.28   -4.76   -0.29   -4.90  -13.34  -93.62
   4.964  -13.49  -92.35   -0.28   -5.43   -0.27   -5.43  -13.41  -94.52
   5.046  -13.61  -93.20   -0.26   -5.86   -0.27   -5.94  -13.60  -94.39
   5.127  -13.78  -93.15   -0.27   -6.42   -0.26   -6.51  -13.77  -95.53
   5.209  -13.96  -93.59   -0.24   -6.96   -0.23   -6.99  -13.89  -95.81
   5.290  -14.15  -94.10   -0.23   -7.37   -0.24   -7.37  -14.04  -95.79
   5.372  -14.25  -93.86   -0.24   -7.85   -0.24   -8.04  -14.28  -96.64
   5.453  -14.45  -94.25   -0.23   -8.54   -0.22   -8.52  -14.29  -97.18
   5.535  -14.51  -95.15   -0.22   -9.02   -0.23   -9.09  -14.50  -97.71
   5.616  -14.67  -95.28   -0.23   -9.48   -0.22   -9.62  -14.69  -98.64
   5.698  -14.88  -95.87   -0.21   -9.98   -0.21   -9.94  -14.79  -99.04
   5.779  -15.00  -96.30   -0.21  -10.33   -0.22  -10.46  -15.04  -99.46
   5.861  -15.22  -96.66   -0.22  -10.90   -0.22  -10.94  -15.17 -100.06
   5.942  -15.41  -96.96   -0.22  -11.37   -0.21  -11.40  -15.32 -100.51
   6.024  -15.53  -97.79   -0.20  -11.87   -0.22  -11.92  -15.55 -100.57
   6.105  -15.74  -97.34   -0.20  -12.25   -0.19  -12.38  -15.68 -101.46
   6.187  -15.90  -98.37   -0.19  -12.75   -0.19  -12.79  -15.85 -101.08
   6.268  -16.09  -97.95   -0.19  -13.16   -0.19  -13.27  -16.03 -102.07
   6.350  -16.32  -98.66   -0.19  -13.65   -0.19  -13.73  -16.17 -102.16
   6.431  -16.48  -99.39   -0.19  -14.12   -0.20  -14.15  -16.38 -102.06
   6.513  -16.64  -99.59   -0.18  -14.63   -0.18  -14.71  -16.58 -102.66
   6.594  -16.82  -99.84   -0.17  -15.02   -0.18  -15.17  -16.77 -102.87
   6.676  -17.04 -100.36   -0.17  -15.49   -0.18  -15.59  -16.93 -102.99
   6.757  -17.26 -100.61   -0.18  -15.87   -0.18  -16.03  -17.12 -103.60
   6.839  -17.58 -102.11   -0.18  -16.46   -0.17  -16.41  -17.19 -102.86
   6.920  -17.75 -103.16   -0.19  -16.97   -0.20  -17.07  -17.41 -103.28
   7.002  -18.19 -104.69   -0.20  -17.54   -0.21  -17.54  -17.40 -103.11
   7.083  -19.04 -102.68   -0.27  -17.57   -0.26  -17.71  -17.32 -106.49
   7.165  -18.92  -98.11   -0.21  -17.50   -0.21  -17.65  -17.96 -109.08
   7.246  -18.84  -98.88   -0.18  -18.04   -0.17  -18.15  -18.37 -108.46
   7.328  -18.94 -100.38   -0.16  -18.57   -0.16  -18.60  -18.70 -107.09
   7.409  -19.03 -101.38   -0.15  -19.09   -0.16  -19.12  -19.03 -106.97
   7.491  -19.28 -101.34   -0.13  -19.51   -0.14  -19.61  -19.27 -107.39
   7.572  -19.49 -101.92   -0.13  -19.94   -0.14  -20.04  -19.57 -107.39
   7.654  -19.91 -102.52   -0.13  -20.37   -0.13  -20.51  -19.72 -107.52
   7.735  -20.09 -103.11   -0.12  -20.82   -0.13  -20.90  -20.10 -106.92
   7.817  -20.47 -103.92   -0.12  -21.27   -0.12  -21.26  -20.34 -106.08
   7.898  -20.60 -103.84   -0.11  -21.71   -0.13  -21.82  -20.82 -106.15
   7.980  -20.97 -103.88   -0.11  -22.10   -0.12  -22.19  -21.03 -105.56
   8.061  -21.28 -103.81   -0.11  -22.46   -0.12  -22.62  -21.28 -105.37
   8.143  -21.55 -105.11   -0.10  -22.97   -0.10  -23.08  -21.46 -104.47
   8.224  -21.82 -106.55   -0.10  -23.39   -0.11  -23.50  -21.77 -103.97
   8.306  -22.22 -107.28   -0.11  -23.86   -0.11  -24.02  -22.01 -103.81
   8.387  -21.60 -117.32   -0.11  -24.40   -0.13  -24.50  -20.81  -97.21
   8.469  -22.21 -117.49   -0.11  -24.74   -0.12  -24.93  -21.25  -96.66
   8.550  -22.93 -118.23   -0.12  -25.13   -0.12  -25.20  -21.66  -95.38
   8.632  -23.63 -118.95   -0.12  -25.53   -0.12  -25.66  -22.14  -94.01
   8.713  -24.20 -120.01   -0.11  -25.92   -0.11  -25.90  -22.85  -92.06
   8.795  -25.03 -120.98   -0.11  -26.27   -0.11  -26.37  -23.40  -90.04
   8.876  -25.95 -122.16   -0.11  -26.62   -0.12  -26.72  -24.00  -87.04
   8.958  -26.89 -123.10   -0.11  -26.98   -0.11  -27.07  -24.45  -83.47
   9.039  -27.91 -124.14   -0.10  -27.31   -0.10  -27.42  -24.91  -81.14
   9.121  -28.97 -125.84   -0.09  -27.75   -0.09  -27.86  -25.56  -77.72
   9.202  -30.08 -128.13   -0.09  -28.15   -0.10  -28.19  -26.27  -73.58
   9.284  -31.28 -132.94   -0.09  -28.46   -0.09  -28.57  -26.93  -67.32
   9.365  -32.66 -139.56   -0.09  -28.93   -0.09  -29.01  -27.34  -60.32
   9.447  -34.08 -149.76   -0.09  -29.27   -0.09  -29.39  -27.62  -54.31
   9.528  -35.50 -164.14   -0.09  -29.66   -0.09  -29.82  -27.89  -47.94
   9.610  -36.43  176.79   -0.08  -30.01   -0.09  -30.15  -27.98  -40.81
   9.691  -36.19  156.12   -0.07  -30.36   -0.07  -30.49  -28.03  -33.64
   9.773  -34.91  136.45   -0.05  -30.80   -0.06  -30.87  -27.94  -26.67
   9.854  -33.19  120.48   -0.03  -31.25   -0.04  -31.35  -27.67  -19.19
   9.936  -31.46  109.38   -0.02  -31.76   -0.04  -31.87  -27.38  -13.71
  10.017  -30.26  100.08   -0.03  -32.27   -0.03  -32.37  -26.78   -7.52
  10.099  -29.37   93.16   -0.03  -32.69   -0.03  -32.83  -26.19   -1.96
  10.180  -28.49   89.01   -0.02  -33.22   -0.04  -33.29  -25.56    2.09
  10.262  -27.68   86.62   -0.03  -33.72   -0.04  -33.81  -24.99    5.36
  10.343  -26.75   85.47   -0.05  -34.19   -0.05  -34.27  -24.42    7.66
  10.425  -25.78   83.54   -0.06  -34.60   -0.08  -34.77  -23.90    9.33
  10.506  -25.08   80.71   -0.08  -34.99   -0.08  -35.13  -23.33   10.27
  10.588  -24.50   76.90   -0.09  -35.38   -0.09  -35.50  -22.96   11.49
  10.669  -24.14   74.35   -0.10  -35.76   -0.10  -35.89  -22.64   12.90
  10.751  -23.78   72.44   -0.09  -36.11   -0.11  -36.18  -22.45   13.47
  10.832  -23.60   70.65   -0.10  -36.48   -0.11  -36.63  -22.13   14.34
  10.914  -23.49   69.63   -0.11  -36.84   -0.12  -37.04  -21.89   14.88
  10.995  -23.46   68.57   -0.11  -37.17   -0.12  -37.26  -21.67   16.40
  11.077  -23.38   69.70   -0.10  -37.51   -0.11  -37.59  -21.43   16.57
  11.158  -23.06   70.22   -0.09  -37.89   -0.10  -37.95  -21.43   17.95
  11.240  -22.73   70.80   -0.08  -38.22   -0.09  -38.37  -21.27   18.18
  11.321  -22.51   70.63   -0.06  -38.63   -0.08  -38.81  -21.09   19.61
  11.403  -22.24   69.80   -0.06  -39.10   -0.06  -39.15  -20.96   20.79
  11.484  -22.06   69.80   -0.05  -39.52   -0.06  -39.66  -20.70   21.09
  11.566  -21.81   68.79   -0.05  -39.96   -0.06  -40.02  -20.68   21.93
  11.647  -21.60   68.38   -0.04  -40.38   -0.05  -40.52  -20.51   21.79
  11.729  -21.50   67.61   -0.04  -40.77   -0.05  -40.90  -20.48   21.51
  11.810  -21.50   66.03   -0.05  -41.26   -0.04  -41.35  -20.32   22.32
  11.892  -21.37   65.19   -0.05  -41.76   -0.05  -41.82  -20.52   22.00
  11.973  -21.50   64.42   -0.05  -42.14   -0.06  -42.28  -20.47   22.12
  12.055  -21.54   63.59   -0.06  -42.55   -0.06  -42.62  -20.55   22.85
  12.136  -21.53   63.25   -0.06  -42.97   -0.06  -43.03  -20.66   22.88
  12.218  -21.70   62.63   -0.05  -43.37   -0.06  -43.54  -20.57   23.31
  12.299  -21.72   61.66   -0.06  -43.75   -0.06  -43.83  -20.72   23.91
  12.381  -21.70   61.21   -0.06  -44.21   -0.06  -44.25  -20.85   23.79
  12.462  -21.95   60.87   -0.06  -44.56   -0.07  -44.67  -20.90   23.45
  12.544  -22.04   59.51   -0.06  -44.92   -0.07  -44.95  -21.11   23.90
  12.625  -22.22   59.20   -0.06  -45.30   -0.08  -45.42  -21.21   23.58
  12.707  -22.41   58.31   -0.06  -45.69   -0.08  -45.81  -21.39   24.12
  12.788  -22.55   57.38   -0.07  -46.01   -0.07  -46.02  -21.71   25.34
  12.870  -22.78   57.77   -0.05  -46.45   -0.06  -46.49  -21.89   24.14
  12.951  -23.03   56.67   -0.05  -46.85   -0.05  -47.00  -22.13   24.72
  13.033  -23.35   56.53   -0.06  -47.18   -0.07  -47.30  -22.32   24.87
  13.114  -23.52   56.19   -0.06  -47.70   -0.06  -47.77  -22.67   25.61
  13.196  -23.77   56.21   -0.05  -48.08   -0.04  -48.32  -22.88   25.66
  13.277  -23.69   55.39   -0.07  -48.51   -0.08  -48.60  -23.38   26.27
  13.359  -23.85   53.19   -0.06  -48.94   -0.07  -48.94  -23.70   26.96
  13.440  -24.36   50.71   -0.05  -49.40   -0.05  -49.50  -23.96   27.73
  13.522  -24.83   49.46   -0.07  -49.61   -0.08  -49.72  -24.28   28.73
  13.603  -25.25   48.51   -0.09  -50.18   -0.08  -50.08  -24.56   28.78
  13.685  -25.68   47.60   -0.06  -50.50   -0.08  -50.59  -25.01   29.90
  13.766  -26.05   46.33   -0.07  -50.95   -0.09  -51.08  -25.32   30.42
  13.848  -26.33   46.04   -0.10  -51.33   -0.10  -51.43  -25.72   31.71
  13.929  -26.65   44.90   -0.08  -51.75   -0.08  -51.95  -26.01   32.58
  14.011  -26.97   42.22   -0.09  -52.06   -0.10  -52.13  -26.16   34.26
  14.092  -27.13   40.29   -0.09  -52.42   -0.11  -52.49  -26.52   35.10
  14.174  -27.47   38.50   -0.10  -52.84   -0.09  -52.85  -26.64   34.93
  14.255  -27.55   35.52   -0.10  -53.21   -0.11  -53.28  -26.89   36.31
  14.337  -27.65   32.57   -0.11  -53.55   -0.10  -53.68  -27.08   35.60
  14.418  -27.99   30.44   -0.10  -53.91   -0.10  -54.05  -27.44   34.70
  14.500  -27.95   26.75   -0.09  -54.36   -0.10  -54.34  -27.89   33.92
  14.581  -27.70   21.58   -0.06  -54.70   -0.08  -54.79  -28.87   36.03
  14.663  -28.08   15.77   -0.05  -55.21   -0.05  -55.25  -29.12   41.23
  14.744  -28.56   10.63   -0.04  -55.84   -0.04  -55.86  -28.94   46.17
  14.826  -28.97    8.72   -0.05  -56.47   -0.06  -56.45  -28.52   47.35
  14.907  -29.35    5.94   -0.08  -57.01   -0.10  -57.07  -28.06   47.44
  14.989  -30.07    4.66   -0.11  -57.44   -0.11  -57.47  -27.84   44.84
  15.070  -30.42    9.80   -0.14  -57.77   -0.14  -57.72  -28.06   43.59
  15.152  -29.72   14.52   -0.15  -58.08   -0.15  -58.08  -28.27   44.18
  15.233  -29.01   14.01   -0.15  -58.43   -0.15  -58.55  -27.96   45.79
  15.315  -28.14   15.56   -0.16  -58.87   -0.16  -58.85  -27.93   45.23
  15.396  -27.35   14.05   -0.15  -59.29   -0.15  -59.40  -27.64   44.99
  15.478  -26.76   12.41   -0.15  -59.75   -0.15  -59.82  -27.35   46.31
  15.559  -26.20   10.55   -0.17  -60.22   -0.16  -60.29  -27.05   46.15
  15.641  -25.76   10.16   -0.18  -60.75   -0.18  -60.83  -26.45   46.69
  15.722  -25.22    9.52   -0.19  -61.23   -0.18  -61.23  -26.07   46.48
  15.804  -24.77   10.98   -0.21  -61.71   -0.20  -61.60  -25.31   46.22
  15.885  -24.21   12.39   -0.21  -62.13   -0.23  -61.99  -24.72   44.97
  15.967  -23.49   12.71   -0.22  -62.49   -0.22  -62.49  -23.91   44.16
  16.048  -22.65   13.06   -0.24  -62.93   -0.25  -62.85  -23.37   42.91
  16.130  -21.87   12.60   -0.25  -63.42   -0.24  -63.34  -22.63   40.69
  16.211  -21.22   11.82   -0.25  -63.89   -0.25  -63.87  -22.00   38.90
  16.293  -20.61   11.19   -0.26  -64.34   -0.26  -64.36  -21.39   36.62
  16.374  -19.99   10.62   -0.27  -64.95   -0.27  -64.91  -20.80   34.60
  16.456  -19.41   10.22   -0.28  -65.60   -0.28  -65.57  -20.12   32.70
  16.537  -18.78   10.03   -0.30  -66.22   -0.30  -66.18  -19.47   30.93
  16.619  -18.16    9.62   -0.34  -66.91   -0.33  -66.93  -18.77   29.10
  16.700  -17.42    9.71   -0.36  -67.69   -0.36  -67.48  -18.07   26.75
  16.782  -16.65    8.76   -0.43  -68.33   -0.42  -68.38  -17.24   24.80
  16.863  -15.77    8.07   -0.50  -69.46   -0.48  -69.24  -16.39   21.67
  16.945  -14.80    6.16   -0.59  -70.49   -0.58  -70.37  -15.43   17.65
  17.026  -13.76    2.23   -0.74  -71.91   -0.77  -71.65  -14.30   12.62
  17.108  -12.49   -3.75   -1.08  -73.14   -1.07  -73.10  -13.29    4.67
  17.189  -11.33  -14.73   -1.66  -73.87   -1.66  -73.62  -12.18   -8.38
  17.271  -10.91  -33.41   -2.56  -70.08   -2.47  -69.72  -11.97  -28.85
  17.352  -12.67  -55.90   -2.39  -61.40   -2.34  -61.92  -14.15  -53.07
  17.434  -17.13  -65.85   -1.45  -59.13   -1.45  -59.42  -19.02  -64.88
  17.515  -21.60  -53.26   -0.86  -60.58   -0.89  -60.86  -24.81  -47.63
  17.597  -23.02  -24.29   -0.60  -62.47   -0.63  -62.63  -25.76   -5.17
  17.678  -21.73   -4.13   -0.50  -63.94   -0.50  -63.96  -23.05   12.98
  17.760  -20.20    5.34   -0.45  -65.11   -0.46  -65.26  -20.87   19.62
  17.841  -18.97   10.68   -0.45  -66.27   -0.41  -66.07  -19.34   20.96
  17.923  -17.91   12.34   -0.40  -67.12   -0.43  -67.07  -18.14   21.85
  18.004  -16.99   13.93   -0.39  -67.75   -0.40  -67.82  -17.29   21.67
  18.086  -16.25   15.00   -0.41  -68.44   -0.39  -68.65  -16.61   20.98
  18.167  -15.70   15.75   -0.40  -69.28   -0.40  -69.11  -15.88   20.53
  18.249  -15.10   16.37   -0.42  -69.78   -0.39  -69.83  -15.35   19.61
  18.330  -14.65   16.65   -0.43  -70.51   -0.41  -70.40  -14.81   19.07
  18.412  -14.20   16.31   -0.43  -71.10   -0.46  -70.96  -14.32   18.69
  18.493  -13.72   16.56   -0.44  -71.47   -0.45  -71.68  -13.95   18.07
  18.575  -13.40   16.93   -0.48  -72.07   -0.46  -72.14  -13.50   16.57
  18.656  -13.06   16.72   -0.49  -72.63   -0.48  -72.64  -13.08   16.03
  18.738  -12.73   16.72   -0.51  -73.12   -0.51  -73.13  -12.78   15.14
  18.819  -12.44   16.68   -0.53  -73.51   -0.52  -73.48  -12.41   14.32
  18.901  -12.12   16.55   -0.54  -73.94   -0.55  -74.00  -12.18   13.68
  18.982  -11.85   16.96   -0.57  -74.37   -0.55  -74.51  -11.91   12.23
  19.064  -11.66   16.66   -0.59  -75.01   -0.56  -74.88  -11.60   11.63
  19.145  -11.39   16.24   -0.57  -75.49   -0.58  -75.41  -11.36   11.12
  19.227  -11.12   16.14   -0.58  -75.96   -0.59  -75.91  -11.17   10.36
  19.308  -10.93   16.49   -0.61  -76.27   -0.60  -76.31  -10.92    9.55
  19.390  -10.71   16.07   -0.63  -76.84   -0.64  -76.94  -10.77    8.82
  19.471  -10.61   16.56   -0.66  -77.33   -0.61  -77.41  -10.49    7.46
  19.553  -10.50   15.70   -0.67  -78.05   -0.68  -77.79  -10.33    7.59
  19.634  -10.31   15.73   -0.69  -78.45   -0.68  -78.25  -10.17    6.91
  19.716  -10.04   15.80   -0.67  -78.69   -0.71  -78.77  -10.08    6.16
  19.797  -10.02   16.15   -0.72  -79.12   -0.71  -79.00   -9.85    5.54
  19.879   -9.84   16.18   -0.74  -79.50   -0.75  -79.73   -9.78    4.59
  19.960   -9.82   15.77   -0.77  -80.20   -0.70  -80.11   -9.51    4.19
  20.042   -9.72   15.32   -0.78  -80.63   -0.74  -80.39   -9.44    4.09
  20.123   -9.53   14.85   -0.77  -81.24   -0.79  -81.19   -9.40    3.33
  20.205   -9.46   15.56   -0.80  -81.41   -0.78  -81.50   -9.27    2.56
  20.286   -9.36   15.37   -0.82  -81.85   -0.82  -81.87   -9.16    2.25
  20.368   -9.34   15.26   -0.88  -82.36   -0.85  -82.52   -9.06    1.22
  20.449   -9.25   14.88   -0.87  -83.04   -0.80  -83.04   -8.86    0.83
  20.531   -9.15   14.08   -0.88  -83.41   -0.86  -83.04   -8.87    1.17
  20.612   -8.99   14.20   -0.87  -83.85   -0.88  -83.78   -8.83    0.01
  20.694   -9.01   14.16   -0.89  -84.09   -0.88  -84.24   -8.69   -0.63
  20.775   -8.96   13.57   -0.92  -84.48   -0.92  -84.50   -8.68   -0.97
  20.857   -8.99   13.33   -0.96  -84.95   -0.95  -85.20   -8.59   -2.00
  20.938   -9.01   12.72   -0.94  -85.46   -0.88  -85.45   -8.45   -1.87
  21.020   -8.93   11.79   -0.93  -85.88   -0.92  -85.75   -8.53   -1.94
  21.101   -8.84   12.53   -0.90  -86.09   -0.94  -86.19   -8.56   -3.11
  21.183   -8.94   11.68   -0.92  -86.51   -0.89  -86.45   -8.42   -2.80
  21.264   -8.88   11.57   -0.93  -86.79   -0.95  -86.89   -8.53   -3.85
  21.346   -8.91   10.93   -0.93  -87.63   -0.91  -87.91   -8.41   -4.23
  21.427   -8.97   10.34   -0.92  -88.01   -0.87  -88.20   -8.36   -4.12
  21.509   -8.81    9.60   -0.91  -88.78   -0.91  -88.63   -8.50   -4.21
  21.590   -8.94    9.57   -0.91  -89.10   -0.89  -89.31   -8.40   -4.81
  21.672   -8.89    8.75   -0.92  -89.50   -0.90  -89.58   -8.45   -4.73
