!    Infineon Technologies AG
!    BGB741L7ESD 
!    Vce = 3.5V, Ic = 6.0mA
!    DATUM: 30.06.2009 10:09:16
# GHz   S   MA   R  50
!f                S11                 S21                 S12                 S22
!GHz            Mag  Ang            Mag  Ang            Mag  Ang            Mag  Ang
 0.050000  0.382546   -48.239 10.021018   163.307  0.081872    22.515  0.419807   -44.559
 0.060000  0.336645   -51.406  9.699812   164.171  0.083935    19.001  0.371245   -44.152
 0.070000  0.305709   -49.235  9.409376   165.380  0.085215    16.292  0.335567   -43.202
 0.080000  0.277854   -48.025  9.222886   166.185  0.086223    14.135  0.308827   -41.887
 0.090000  0.259821   -49.380  9.154812   167.036  0.086922    12.401  0.287883   -40.497
 0.100000  0.240327   -46.986  9.010548   167.368  0.087246    11.129  0.272000   -38.932
 0.110000  0.230135   -46.803  8.956643   167.877  0.087674     9.845  0.258965   -37.472
 0.120000  0.220575   -45.749  8.906488   168.242  0.087987     8.942  0.249380   -36.150
 0.130000  0.208706   -45.051  8.870635   168.573  0.088166     8.056  0.241009   -34.832
 0.140000  0.200600   -42.915  8.816726   168.730  0.088250     7.200  0.233591   -33.585
 0.150000  0.195974   -42.507  8.787550   168.905  0.088435     6.544  0.228297   -32.484
 0.200000  0.180022   -40.178  8.715387   168.927  0.088793     4.066  0.209873   -28.190
 0.250000  0.169844   -38.426  8.655012   168.351  0.088812     2.341  0.200397   -25.295
 0.300000  0.164102   -39.430  8.625633   167.565  0.088949     0.997  0.195077   -23.408
 0.350000  0.160387   -38.928  8.605323   166.554  0.088941    -0.181  0.191087   -22.228
 0.400000  0.159535   -40.330  8.579451   165.345  0.088865    -1.118  0.188880   -21.738
 0.450000  0.156590   -42.199  8.567605   164.051  0.088751    -2.002  0.187300   -21.368
 0.500000  0.156814   -43.670  8.542679   162.802  0.088643    -2.803  0.186081   -21.129
 0.600000  0.156414   -47.464  8.497546   160.068  0.088302    -4.258  0.184623   -21.643
 0.700000  0.156983   -51.681  8.465909   157.239  0.087977    -5.615  0.184101   -22.460
 0.800000  0.158804   -56.162  8.401498   154.465  0.087454    -6.826  0.184628   -23.749
 0.900000  0.161335   -60.442  8.340399   151.587  0.086960    -8.063  0.185306   -25.048
 1.000000  0.165236   -65.048  8.284547   148.745  0.086435    -9.174  0.186695   -26.801
 1.100000  0.166665   -69.574  8.218346   145.794  0.085748   -10.316  0.187437   -28.565
 1.200000  0.170638   -73.673  8.128291   142.862  0.085081   -11.478  0.189682   -30.832
 1.300000  0.174014   -78.659  8.053993   140.066  0.084246   -12.530  0.191536   -32.984
 1.400000  0.179051   -82.434  7.968553   137.216  0.083433   -13.489  0.194415   -35.422
 1.500000  0.183676   -86.017  7.876747   134.256  0.082554   -14.572  0.197128   -37.624
 1.600000  0.187616   -90.209  7.765976   131.461  0.081523   -15.604  0.200514   -40.387
 1.700000  0.193646   -93.781  7.667205   128.746  0.080556   -16.589  0.204333   -42.832
 1.800000  0.200154   -97.243  7.572873   125.979  0.079518   -17.519  0.208480   -45.584
 1.900000  0.205481  -100.576  7.461966   123.125  0.078486   -18.503  0.213282   -48.273
 2.000000  0.211620  -103.973  7.339605   120.482  0.077326   -19.381  0.217737   -51.151
 2.200000  0.225216  -109.979  7.123704   115.280  0.074830   -21.059  0.228434   -56.804
 2.400000  0.240544  -115.402  6.881764   110.081  0.072280   -22.805  0.240973   -62.462
 2.600000  0.255494  -120.285  6.649682   105.195  0.069581   -24.289  0.253349   -68.060
 2.800000  0.268343  -125.351  6.431872   100.261  0.066744   -25.714  0.266879   -73.583
 3.000000  0.283661  -129.293  6.197624    95.616  0.063774   -26.888  0.280235   -78.856
 3.500000  0.317021  -139.038  5.651884    84.318  0.055947   -29.325  0.315949   -91.288
 4.000000  0.347731  -147.510  5.150377    73.774  0.047723   -30.381  0.350054  -102.866
 4.500000  0.379160  -155.109  4.693145    63.743  0.039399   -29.017  0.384450  -114.460
 5.000000  0.410150  -162.585  4.281764    54.133  0.031522   -23.443  0.420373  -125.847
 5.500000  0.440708  -169.515  3.906018    44.924  0.025386   -10.646  0.457382  -136.480
 6.000000  0.471685  -176.146  3.563104    35.896  0.023285     9.853  0.495676  -146.508
!
!  f       Fmin   Gammaopt  rn/50
! GHz       dB    MAG  ANG    -
 0.450      1.02  0.04   44   0.14
 0.900      1.03  0.07   73   0.16
 1.800      1.06  0.09   84   0.20
 2.400      1.11  0.11   92   0.26
 3.000      1.18  0.14  132   0.22
 5.500      1.82  0.18  160   0.17
!
! (c) 2009  Infineon Technologies AG, Munich
