!    Infineon Technologies AG
!    BGB741L7ESD 
!    Vce = 4.0V, Ic = 20.0mA
!    DATUM: 30.06.2009 10:10:18
# GHz   S   MA   R  50
!f                S11                 S21                 S12                 S22
!GHz            Mag  Ang            Mag  Ang            Mag  Ang            Mag  Ang
 0.050000  0.326426  -117.959 15.739633   157.403  0.056193    16.817  0.308634  -102.537
 0.060000  0.310409  -128.680 14.983196   159.008  0.057001    14.214  0.271626  -109.946
 0.070000  0.287045  -133.179 14.504104   160.867  0.057625    12.148  0.246457  -116.629
 0.080000  0.279428  -137.208 14.186231   162.210  0.057976    10.552  0.227221  -122.225
 0.090000  0.279385  -141.419 14.023678   163.201  0.058118     9.197  0.212833  -127.452
 0.100000  0.264578  -145.971 13.784708   164.040  0.058380     8.230  0.201946  -131.923
 0.110000  0.267180  -148.600 13.666989   164.717  0.058431     7.409  0.193514  -136.112
 0.120000  0.262579  -150.477 13.593457   165.291  0.058503     6.730  0.186596  -139.736
 0.130000  0.263256  -152.892 13.507284   165.834  0.058676     6.064  0.181181  -143.080
 0.140000  0.257800  -155.117 13.426278   166.177  0.058644     5.537  0.176607  -146.299
 0.150000  0.257923  -156.380 13.370824   166.445  0.058686     5.039  0.173101  -148.958
 0.200000  0.253517  -161.434 13.228476   166.765  0.058755     3.397  0.162161  -160.332
 0.250000  0.249920  -165.348 13.148819   166.475  0.058802     2.130  0.156245  -168.862
 0.300000  0.251874  -167.848 13.063794   165.695  0.058707     1.353  0.153346  -175.796
 0.350000  0.250241  -170.111 13.032030   164.744  0.058624     0.699  0.152004   178.292
 0.400000  0.251308  -171.200 12.989672   163.457  0.058577     0.152  0.150516   173.286
 0.450000  0.252617  -172.718 12.935620   162.186  0.058434    -0.319  0.149486   168.528
 0.500000  0.253940  -173.567 12.891844   160.864  0.058328    -0.775  0.149032   163.958
 0.600000  0.256029  -175.471 12.787883   158.127  0.058062    -1.499  0.147746   156.174
 0.700000  0.258162  -176.826 12.709746   155.133  0.057814    -2.092  0.146655   148.719
 0.800000  0.259606  -177.801 12.591297   152.199  0.057493    -2.617  0.144318   141.931
 0.900000  0.260840  -178.909 12.473035   149.229  0.057171    -3.163  0.142953   134.922
 1.000000  0.263247  -179.707 12.353166   146.254  0.056816    -3.528  0.140482   128.677
 1.100000  0.266337   179.087 12.209798   143.206  0.056454    -3.998  0.138816   122.232
 1.200000  0.267033   178.203 12.043678   140.176  0.056057    -4.421  0.135316   116.197
 1.300000  0.270987   177.303 11.890615   137.264  0.055581    -4.770  0.132303   109.953
 1.400000  0.271778   176.746 11.735376   134.337  0.055118    -5.061  0.127850   103.957
 1.500000  0.272335   175.739 11.569802   131.320  0.054678    -5.324  0.124253    97.470
 1.600000  0.274776   175.093 11.367958   128.473  0.054146    -5.627  0.118916    91.069
 1.700000  0.275694   174.716 11.192672   125.655  0.053639    -5.922  0.114788    84.057
 1.800000  0.277707   174.277 11.019135   122.870  0.053126    -6.087  0.109486    77.203
 1.900000  0.279547   173.545 10.830379   119.992  0.052551    -6.273  0.104935    69.558
 2.000000  0.281085   173.094 10.620562   117.289  0.051982    -6.454  0.099566    61.852
 2.200000  0.284305   172.567 10.240653   112.106  0.050772    -6.666  0.091045    44.323
 2.400000  0.287661   172.270  9.839447   106.852  0.049485    -6.768  0.086083    24.136
 2.600000  0.292173   172.071  9.457350   101.976  0.048117    -6.712  0.086060     3.150
 2.800000  0.296528   171.467  9.088050    97.087  0.046751    -6.450  0.091701   -16.599
 3.000000  0.300430   171.498  8.710843    92.508  0.045288    -5.902  0.102032   -33.525
 3.500000  0.315723   170.747  7.847228    81.627  0.041701    -3.400  0.141793   -64.677
 4.000000  0.331483   169.181  7.091104    71.400  0.038540     0.933  0.186806   -85.182
 4.500000  0.352150   167.454  6.419450    61.845  0.036313     7.450  0.231986  -102.120
 5.000000  0.375973   164.698  5.832336    52.690  0.035665    15.723  0.278617  -116.909
 5.500000  0.401226   161.481  5.304951    43.905  0.037004    24.252  0.326440  -129.629
 6.000000  0.428042   158.133  4.833832    35.304  0.040270    31.540  0.375639  -141.039
!
!                    Infineon Technologies AG
