!    Infineon Technologies AG
!    BGB741L7ESD 
!    Vce = 3.0V, Ic = 15.0mA
!    DATUM: 30.06.2009 10:00:14
# GHz   S   MA   R  50
!f                S11                 S21                 S12                 S22
!GHz            Mag  Ang            Mag  Ang            Mag  Ang            Mag  Ang
 0.050000  0.300067  -103.318 14.657882   158.433  0.061730    18.004  0.310179   -89.605
 0.060000  0.281407  -114.490 14.000930   159.884  0.062704    14.902  0.265598   -95.539
 0.070000  0.253684  -118.233 13.552197   161.623  0.063310    12.882  0.233858  -100.929
 0.080000  0.233678  -123.316 13.255689   162.864  0.063727    11.079  0.209070  -105.681
 0.090000  0.231247  -127.024 13.113408   163.833  0.063809     9.795  0.189978  -110.163
 0.100000  0.216569  -131.363 12.889391   164.576  0.064161     8.684  0.174725  -114.070
 0.110000  0.214505  -135.586 12.784702   165.216  0.064270     7.802  0.162716  -117.956
 0.120000  0.208047  -137.164 12.714121   165.756  0.064370     7.123  0.152558  -121.434
 0.130000  0.205269  -140.642 12.634418   166.257  0.064497     6.341  0.144465  -124.711
 0.140000  0.198030  -143.442 12.558410   166.569  0.064726     5.882  0.137192  -127.987
 0.150000  0.197235  -145.351 12.506763   166.829  0.064668     5.278  0.131515  -130.878
 0.200000  0.188831  -151.363 12.379924   167.090  0.064737     3.298  0.112526  -143.932
 0.250000  0.183226  -156.844 12.303916   166.716  0.064774     2.153  0.102201  -154.624
 0.300000  0.184230  -159.495 12.223938   165.972  0.064844     1.167  0.096263  -163.818
 0.350000  0.183555  -161.947 12.194987   165.009  0.064663     0.351  0.093069  -171.871
 0.400000  0.183203  -163.421 12.152564   163.721  0.064593    -0.281  0.090840  -178.493
 0.450000  0.185570  -164.745 12.109918   162.445  0.064470    -0.843  0.089101   175.094
 0.500000  0.186542  -165.535 12.067095   161.133  0.064415    -1.429  0.087962   168.865
 0.600000  0.190303  -167.553 11.981802   158.362  0.064039    -2.235  0.086592   158.675
 0.700000  0.192244  -168.690 11.906301   155.424  0.063759    -3.053  0.085817   149.057
 0.800000  0.194600  -169.545 11.794226   152.542  0.063399    -3.727  0.084104   140.516
 0.900000  0.198158  -170.600 11.688592   149.551  0.063055    -4.470  0.083600   131.579
 1.000000  0.202138  -170.840 11.584180   146.610  0.062627    -5.004  0.082004   123.935
 1.100000  0.206833  -171.872 11.452360   143.560  0.062133    -5.637  0.081527   116.023
 1.200000  0.208737  -172.665 11.302124   140.538  0.061631    -6.196  0.079178   108.610
 1.300000  0.214327  -173.380 11.165960   137.660  0.061117    -6.709  0.077620   100.813
 1.400000  0.217728  -173.761 11.023681   134.743  0.060562    -7.141  0.074615    93.139
 1.500000  0.220144  -174.594 10.874264   131.740  0.060032    -7.632  0.072853    84.681
 1.600000  0.223453  -175.229 10.686577   128.889  0.059377    -8.095  0.069626    76.087
 1.700000  0.227263  -175.462 10.528224   126.082  0.058702    -8.504  0.067854    66.684
 1.800000  0.231073  -175.747 10.369574   123.299  0.058101    -8.826  0.065272    57.030
 1.900000  0.234442  -176.435 10.194165   120.418  0.057425    -9.245  0.064071    46.391
 2.000000  0.238069  -176.776  9.998517   117.784  0.056709    -9.577  0.062442    35.448
 2.200000  0.245971  -177.331  9.653378   112.518  0.055233   -10.024  0.063589    12.123
 2.400000  0.253086  -177.598  9.279970   107.292  0.053641   -10.428  0.070319   -10.130
 2.600000  0.261255  -177.774  8.924864   102.470  0.051989   -10.615  0.081246   -28.269
 2.800000  0.269742  -178.739  8.585009    97.523  0.050298   -10.637  0.095888   -43.271
 3.000000  0.276972  -178.834  8.236188    92.948  0.048512   -10.433  0.112347   -55.424
 3.500000  0.299650   179.394  7.435311    81.977  0.044143    -8.816  0.159454   -77.860
 4.000000  0.321100   177.028  6.723505    71.723  0.039997    -5.133  0.205868   -94.096
 4.500000  0.345109   174.251  6.091043    62.118  0.036772     0.968  0.251236  -108.595
 5.000000  0.372131   170.787  5.536602    52.883  0.034976     9.430  0.297538  -121.869
 5.500000  0.399466   166.847  5.037969    44.057  0.035306    18.966  0.344453  -133.588
 6.000000  0.427493   162.784  4.591352    35.381  0.037959    27.715  0.392553  -144.302
!
!                    Infineon Technologies AG
