!    Infineon Technologies AG
!    BGB741L7ESD 
!    Vce = 3.0V, Ic = 25.0mA
!    DATUM: 30.06.2009 10:00:30
# GHz   S   MA   R  50
!f                S11                 S21                 S12                 S22
!GHz            Mag  Ang            Mag  Ang            Mag  Ang            Mag  Ang
 0.050000  0.352082  -128.115 16.621033   156.493  0.052136    15.802  0.324097  -112.334
 0.060000  0.350194  -136.948 15.798859   158.194  0.052784    13.522  0.292516  -120.194
 0.070000  0.332314  -142.147 15.289837   160.136  0.053281    11.432  0.271749  -126.981
 0.080000  0.322247  -146.181 14.952232   161.554  0.053541     9.946  0.256455  -132.754
 0.090000  0.325930  -148.963 14.773448   162.579  0.053712     8.760  0.245599  -137.791
 0.100000  0.315852  -152.011 14.513837   163.472  0.053694     7.911  0.237010  -141.990
 0.110000  0.316630  -155.050 14.388335   164.167  0.053982     7.039  0.230876  -145.878
 0.120000  0.313799  -156.695 14.305367   164.757  0.053982     6.348  0.225818  -149.186
 0.130000  0.315789  -158.823 14.213991   165.327  0.054008     5.901  0.221799  -152.129
 0.140000  0.312909  -160.785 14.128294   165.694  0.054079     5.293  0.218616  -154.960
 0.150000  0.313320  -161.943 14.066075   165.959  0.054065     5.034  0.215975  -157.301
 0.200000  0.309176  -166.045 13.908755   166.290  0.054122     3.443  0.208318  -166.866
 0.250000  0.305277  -169.860 13.830662   165.973  0.054137     2.438  0.204537  -173.989
 0.300000  0.307819  -171.751 13.727880   165.201  0.053974     1.693  0.202102  -179.685
 0.350000  0.306932  -173.597 13.693885   164.223  0.053968     1.108  0.201061   175.279
 0.400000  0.306843  -174.943 13.639709   162.890  0.053924     0.654  0.199627   171.080
 0.450000  0.309826  -176.009 13.578765   161.611  0.053798     0.254  0.198543   167.043
 0.500000  0.308945  -176.689 13.527675   160.235  0.053739    -0.018  0.197747   163.206
 0.600000  0.312445  -178.777 13.415942   157.409  0.053500    -0.568  0.195688   156.442
 0.700000  0.312830   179.742 13.318628   154.386  0.053293    -0.976  0.193600   149.951
 0.800000  0.313630   178.515 13.181190   151.364  0.053003    -1.299  0.190095   143.994
 0.900000  0.314894   177.319 13.042811   148.344  0.052747    -1.662  0.187354   137.840
 1.000000  0.316544   176.437 12.906841   145.315  0.052510    -1.926  0.183420   132.274
 1.100000  0.318914   175.087 12.744080   142.200  0.052159    -2.107  0.180115   126.598
 1.200000  0.318713   173.941 12.558905   139.112  0.051874    -2.327  0.175081   121.209
 1.300000  0.321021   173.063 12.384501   136.161  0.051509    -2.486  0.170217   115.696
 1.400000  0.321730   172.353 12.209802   133.189  0.051206    -2.611  0.163966   110.398
 1.500000  0.321480   171.204 12.024330   130.129  0.050825    -2.760  0.158325   104.710
 1.600000  0.321868   170.419 11.797359   127.262  0.050459    -2.883  0.150903    99.177
 1.700000  0.322408   169.927 11.604614   124.408  0.050002    -2.901  0.144397    93.225
 1.800000  0.323649   169.332 11.415477   121.586  0.049619    -2.940  0.136725    87.411
 1.900000  0.324220   168.610 11.207120   118.680  0.049223    -3.067  0.129449    80.921
 2.000000  0.324019   167.952 10.975848   115.952  0.048747    -3.037  0.121311    74.543
 2.200000  0.325483   167.212 10.562447   110.754  0.047788    -2.876  0.106258    59.828
 2.400000  0.326462   166.809 10.128896   105.465  0.046830    -2.687  0.093421    41.848
 2.600000  0.328092   166.409  9.713136   100.583  0.045748    -2.333  0.084856    21.123
 2.800000  0.331219   165.762  9.315964    95.690  0.044680    -1.733  0.082577    -1.719
 3.000000  0.332880   165.599  8.918406    91.130  0.043559    -0.884  0.087384   -22.880
 3.500000  0.343114   164.733  8.001655    80.265  0.040932     2.262  0.122499   -61.965
 4.000000  0.354690   163.434  7.201457    70.125  0.038858     7.000  0.168193   -85.360
 4.500000  0.371599   161.960  6.506320    60.671  0.037797    13.334  0.215077  -103.378
 5.000000  0.393113   159.563  5.897407    51.595  0.038240    20.523  0.263565  -118.558
 5.500000  0.415405   156.794  5.356743    42.896  0.040311    27.360  0.313094  -131.384
 6.000000  0.440964   153.624  4.874085    34.370  0.044046    32.986  0.363922  -142.739
!
!                    Infineon Technologies AG
