!    Infineon Technologies AG
!    BGB741L7ESD 
!    Vce = 4.0V, Ic = 10.0mA
!    DATUM: 30.06.2009 10:10:03
# GHz   S   MA   R  50
!f                S11                 S21                 S12                 S22
!GHz            Mag  Ang            Mag  Ang            Mag  Ang            Mag  Ang
 0.050000  0.312704   -76.785 12.649530   160.514  0.070409    19.829  0.332891   -67.178
 0.060000  0.267252   -84.881 12.152096   161.688  0.072029    16.628  0.282637   -69.614
 0.070000  0.230913   -86.122 11.771752   163.223  0.072688    14.217  0.244769   -71.401
 0.080000  0.204138   -88.363 11.522478   164.303  0.073383    12.272  0.215462   -72.553
 0.090000  0.196685   -92.387 11.413480   165.206  0.073863    10.782  0.191549   -73.392
 0.100000  0.170683   -93.408 11.224746   165.799  0.074131     9.631  0.172651   -73.795
 0.110000  0.161120   -97.406 11.147109   166.392  0.074429     8.601  0.156805   -74.254
 0.120000  0.152665   -97.955 11.080084   166.841  0.074647     7.685  0.143850   -74.325
 0.130000  0.140503  -102.195 11.025071   167.279  0.074698     7.002  0.132632   -74.360
 0.140000  0.131461  -102.248 10.956722   167.528  0.074821     6.257  0.122458   -74.284
 0.150000  0.127955  -104.522 10.915342   167.749  0.074853     5.710  0.114295   -74.084
 0.200000  0.109984  -110.346 10.814681   167.916  0.075065     3.530  0.084223   -72.653
 0.250000  0.095608  -114.505 10.744948   167.491  0.075117     2.015  0.065278   -69.564
 0.300000  0.093755  -117.233 10.687750   166.752  0.075159     0.896  0.052352   -65.326
 0.350000  0.088578  -120.723 10.666527   165.762  0.075032    -0.071  0.042885   -60.379
 0.400000  0.088081  -122.711 10.632674   164.525  0.074989    -0.915  0.036753   -54.327
 0.450000  0.089900  -125.969 10.603432   163.252  0.074803    -1.585  0.031910   -46.372
 0.500000  0.091605  -127.220 10.572492   161.984  0.074759    -2.275  0.028710   -36.310
 0.600000  0.094255  -130.419 10.504638   159.236  0.074375    -3.458  0.027062   -19.092
 0.700000  0.099040  -131.566 10.454165   156.378  0.074051    -4.582  0.029176    -4.620
 0.800000  0.104171  -132.956 10.366397   153.532  0.073578    -5.563  0.033732     2.710
 0.900000  0.110399  -134.624 10.282527   150.654  0.073095    -6.580  0.039122     7.752
 1.000000  0.116832  -136.010 10.201574   147.758  0.072636    -7.436  0.044435     8.265
 1.100000  0.123911  -138.125 10.102469   144.772  0.072021    -8.286  0.049527     8.678
 1.200000  0.129355  -139.529  9.984460   141.795  0.071396    -9.157  0.054578     5.697
 1.300000  0.136870  -141.338  9.877413   138.976  0.070715    -9.967  0.059839     3.148
 1.400000  0.143585  -142.214  9.765538   136.095  0.070057   -10.710  0.064793    -0.988
 1.500000  0.149071  -143.428  9.640123   133.120  0.069320   -11.495  0.070403    -4.294
 1.600000  0.155926  -145.188  9.490213   130.303  0.068444   -12.188  0.075630    -8.926
 1.700000  0.162885  -145.841  9.362018   127.529  0.067625   -12.938  0.081633   -12.933
 1.800000  0.170232  -146.907  9.232303   124.783  0.066791   -13.583  0.087291   -17.714
 1.900000  0.176451  -148.449  9.090632   121.918  0.065861   -14.229  0.093606   -22.085
 2.000000  0.183016  -149.598  8.928555   119.252  0.064930   -14.852  0.099601   -26.931
 2.200000  0.197074  -151.414  8.647632   114.068  0.062972   -15.998  0.113152   -36.125
 2.400000  0.211704  -153.088  8.332283   108.854  0.060861   -16.992  0.128559   -44.824
 2.600000  0.226164  -154.483  8.031012   103.967  0.058628   -17.789  0.143943   -52.942
 2.800000  0.239779  -156.635  7.747226    99.066  0.056374   -18.515  0.160494   -60.595
 3.000000  0.252311  -158.067  7.448885    94.458  0.053963   -18.948  0.177241   -67.663
 3.500000  0.284366  -162.701  6.758203    83.387  0.047840   -19.173  0.221250   -83.209
 4.000000  0.314008  -167.463  6.137943    72.955  0.041640   -17.316  0.263115   -96.557
 4.500000  0.343901  -172.022  5.579129    63.177  0.035919   -12.545  0.304111  -109.497
 5.000000  0.374350  -176.981  5.081604    53.761  0.031470    -3.682  0.346141  -121.901
 5.500000  0.405683   177.835  4.631905    44.746  0.029436     9.190  0.389021  -133.202
 6.000000  0.436457   172.531  4.225026    35.894  0.030704    22.960  0.433194  -143.724
!
!  f       Fmin   Gammaopt  rn/50 
! GHz       dB    MAG  ANG    -
 0.450      0.98  0.04  152   0.13
 0.900      1.00  0.06  126   0.13
 1.800      1.04  0.08  120   0.22
 2.400      1.07  0.10  119   0.29
 3.000      1.12  0.12  135   0.20
 5.500      1.75  0.17  172   0.16
!
! (c) 2009  Infineon Technologies AG, Munich

