!    Infineon Technologies AG
!    BGB741L7ESD 
!    Vce = 1.8V, Ic = 15.0mA
!    DATUM: 30.06.2009 10:08:15
# GHz   S   MA   R  50
!f                S11                 S21                 S12                 S22
!GHz            Mag  Ang            Mag  Ang            Mag  Ang            Mag  Ang
 0.050000  0.314980  -104.145 14.726893   158.384  0.061548    17.802  0.313200   -90.747
 0.060000  0.288424  -114.696 14.057496   159.779  0.062538    14.895  0.269080   -96.835
 0.070000  0.256026  -118.831 13.603634   161.532  0.062989    12.569  0.237295  -102.462
 0.080000  0.238687  -124.484 13.305604   162.790  0.063467    11.161  0.213257  -107.244
 0.090000  0.239897  -128.049 13.162370   163.722  0.063763     9.575  0.194163  -111.818
 0.100000  0.223883  -132.224 12.931014   164.464  0.064010     8.678  0.179366  -115.812
 0.110000  0.218454  -136.129 12.829323   165.104  0.064090     7.679  0.167351  -119.755
 0.120000  0.213118  -138.072 12.755337   165.622  0.064221     7.025  0.157793  -123.221
 0.130000  0.210479  -141.649 12.676580   166.127  0.064360     6.256  0.149775  -126.523
 0.140000  0.204117  -144.137 12.599490   166.442  0.064322     5.721  0.142858  -129.782
 0.150000  0.203826  -145.560 12.550424   166.665  0.064317     5.373  0.137341  -132.613
 0.200000  0.195785  -151.967 12.416457   166.916  0.064457     3.446  0.119325  -145.230
 0.250000  0.188471  -157.765 12.334916   166.515  0.064482     2.139  0.109377  -155.323
 0.300000  0.190146  -159.430 12.255958   165.732  0.064479     1.280  0.103521  -163.693
 0.350000  0.189435  -162.195 12.225452   164.732  0.064408     0.549  0.100369  -171.059
 0.400000  0.189305  -163.605 12.180599   163.428  0.064368    -0.138  0.098029  -177.030
 0.450000  0.192268  -165.024 12.133333   162.122  0.064202    -0.659  0.096152   177.244
 0.500000  0.192478  -165.708 12.090533   160.776  0.064136    -1.132  0.094617   171.763
 0.600000  0.196857  -167.556 11.997048   157.943  0.063810    -1.980  0.092468   162.727
 0.700000  0.199278  -168.500 11.914210   154.994  0.063568    -2.711  0.090620   154.206
 0.800000  0.202401  -169.411 11.801461   151.978  0.063196    -3.389  0.087854   146.646
 0.900000  0.205726  -170.215 11.683744   148.980  0.062786    -4.008  0.085887   138.719
 1.000000  0.209921  -170.548 11.566185   146.013  0.062392    -4.565  0.082960   131.930
 1.100000  0.215024  -171.870 11.431426   142.894  0.061967    -5.128  0.081012   124.733
 1.200000  0.217168  -172.594 11.272633   139.818  0.061455    -5.646  0.077084   118.226
 1.300000  0.223627  -173.186 11.126046   136.888  0.060965    -6.098  0.073745   111.102
 1.400000  0.226416  -173.466 10.976506   133.937  0.060446    -6.484  0.069021   104.317
 1.500000  0.229319  -174.305 10.816961   130.898  0.059866    -6.884  0.065133    96.271
 1.600000  0.233621  -175.058 10.621450   128.033  0.059259    -7.310  0.059798    88.202
 1.700000  0.237023  -175.283 10.453002   125.212  0.058596    -7.660  0.055623    78.635
 1.800000  0.241478  -175.713 10.291123   122.394  0.058001    -7.907  0.050561    68.331
 1.900000  0.245391  -176.345 10.106794   119.501  0.057406    -8.243  0.047000    56.001
 2.000000  0.249398  -176.843  9.905377   116.804  0.056692    -8.464  0.043308    42.356
 2.200000  0.257278  -177.560  9.547679   111.559  0.055281    -8.873  0.041868    10.001
 2.400000  0.265075  -177.994  9.166924   106.333  0.053778    -9.130  0.049482   -20.111
 2.600000  0.273190  -178.377  8.803294   101.452  0.052249    -9.160  0.062995   -41.395
 2.800000  0.281174  -179.396  8.454634    96.560  0.050687    -9.109  0.080355   -56.713
 3.000000  0.289387  -179.534  8.099507    91.996  0.049001    -8.697  0.099332   -68.120
 3.500000  0.311095   178.334  7.286975    81.043  0.045068    -6.800  0.150332   -88.032
 4.000000  0.332782   175.752  6.576088    70.863  0.041399    -3.029  0.198826  -102.465
 4.500000  0.355584   172.882  5.946219    61.320  0.038705     2.761  0.246032  -115.736
 5.000000  0.381692   169.296  5.393470    52.166  0.037393    10.322  0.293819  -128.027
 5.500000  0.407838   165.363  4.900845    43.399  0.037962    18.667  0.341537  -138.926
 6.000000  0.434986   161.275  4.460196    34.821  0.040535    26.227  0.390233  -148.936
!
!                    Infineon Technologies AG
