!    Infineon Technologies AG
!    BGB741L7ESD 
!    Vce = 1.8V, Ic = 6.0mA
!    DATUM: 30.06.2009 10:07:59
# GHz   S   MA   R  50
!f                S11                 S21                 S12                 S22
!GHz            Mag  Ang            Mag  Ang            Mag  Ang            Mag  Ang
 0.050000  0.393111   -49.223 10.066568   163.336  0.081911    22.657  0.420132   -45.164
 0.060000  0.333552   -52.069  9.744500   164.137  0.083870    18.743  0.371451   -44.885
 0.070000  0.302408   -50.738  9.454900   165.341  0.085134    16.151  0.335127   -44.000
 0.080000  0.273987   -48.713  9.262499   166.147  0.086120    14.183  0.308389   -42.785
 0.090000  0.261360   -50.384  9.197268   166.972  0.086670    12.443  0.287123   -41.415
 0.100000  0.240521   -47.428  9.051032   167.329  0.087152    11.077  0.270924   -39.932
 0.110000  0.227440   -47.931  8.999964   167.819  0.087522     9.919  0.257730   -38.546
 0.120000  0.219240   -46.587  8.948833   168.169  0.087826     8.944  0.247891   -37.263
 0.130000  0.207286   -46.317  8.910822   168.485  0.087981     8.091  0.239328   -35.992
 0.140000  0.198381   -44.311  8.856211   168.638  0.088099     7.283  0.232103   -34.753
 0.150000  0.196464   -44.372  8.821441   168.812  0.088279     6.645  0.226499   -33.643
 0.200000  0.180088   -41.879  8.750554   168.786  0.088617     4.151  0.207829   -29.579
 0.250000  0.167676   -40.041  8.695234   168.194  0.088790     2.496  0.198101   -26.848
 0.300000  0.161896   -40.510  8.657726   167.367  0.088847     1.134  0.192588   -25.154
 0.350000  0.157579   -40.199  8.641807   166.306  0.088861     0.089  0.188538   -24.203
 0.400000  0.157574   -41.433  8.608760   165.095  0.088726    -0.844  0.186466   -23.888
 0.450000  0.155137   -43.574  8.598239   163.746  0.088666    -1.670  0.184633   -23.738
 0.500000  0.155423   -45.147  8.570909   162.493  0.088538    -2.427  0.183328   -23.727
 0.600000  0.153988   -49.192  8.521556   159.647  0.088226    -3.839  0.181565   -24.690
 0.700000  0.155503   -53.548  8.487144   156.810  0.087942    -5.091  0.180843   -25.917
 0.800000  0.157517   -57.976  8.414948   153.985  0.087424    -6.254  0.181234   -27.647
 0.900000  0.160010   -62.781  8.353781   151.074  0.086872    -7.447  0.181456   -29.354
 1.000000  0.164039   -67.298  8.292134   148.187  0.086445    -8.465  0.182611   -31.499
 1.100000  0.165688   -72.101  8.219408   145.189  0.085806    -9.541  0.183012   -33.638
 1.200000  0.169829   -76.172  8.122962   142.212  0.085139   -10.638  0.185076   -36.266
 1.300000  0.173569   -80.906  8.043097   139.376  0.084344   -11.626  0.186680   -38.752
 1.400000  0.179333   -84.847  7.955500   136.492  0.083604   -12.577  0.189330   -41.551
 1.500000  0.183488   -88.499  7.857155   133.487  0.082794   -13.549  0.191766   -44.018
 1.600000  0.188067   -92.462  7.738508   130.664  0.081745   -14.473  0.195115   -46.967
 1.700000  0.194715   -96.174  7.636090   127.899  0.080859   -15.423  0.198614   -49.654
 1.800000  0.200614   -99.692  7.533733   125.128  0.079882   -16.266  0.202703   -52.583
 1.900000  0.206925  -103.126  7.420372   122.261  0.078843   -17.142  0.207171   -55.378
 2.000000  0.212596  -106.414  7.293418   119.602  0.077715   -17.999  0.211940   -58.440
 2.200000  0.226900  -112.193  7.065101   114.390  0.075456   -19.521  0.222635   -64.244
 2.400000  0.241866  -117.680  6.814275   109.148  0.073020   -21.035  0.235062   -69.937
 2.600000  0.256341  -122.672  6.577470   104.265  0.070444   -22.353  0.247630   -75.523
 2.800000  0.270649  -127.359  6.352485    99.326  0.067804   -23.661  0.261370   -80.986
 3.000000  0.284673  -131.353  6.109850    94.684  0.064976   -24.698  0.274988   -86.203
 3.500000  0.318271  -140.904  5.557043    83.438  0.057564   -26.667  0.310814   -98.235
 4.000000  0.348575  -149.291  5.050115    72.928  0.049873   -27.257  0.344980  -109.386
 4.500000  0.379432  -156.715  4.591893    63.013  0.042204   -25.562  0.379711  -120.556
 5.000000  0.409490  -164.013  4.181166    53.471  0.035075   -20.256  0.416068  -131.470
 5.500000  0.439985  -170.857  3.806640    44.362  0.029616    -9.525  0.453168  -141.601
 6.000000  0.469877  -177.312  3.469102    35.433  0.027425     6.521  0.491692  -151.160
!
!  f       Fmin   Gammaopt  rn/50
! GHz       dB    MAG  ANG    -
 0.450      1.02  0.04   44   0.14
 0.900      1.03  0.07   73   0.16
 1.800      1.06  0.09   84   0.20
 2.400      1.11  0.11   92   0.26
 3.000      1.18  0.14  132   0.22
 5.500      1.82  0.18  160   0.17
!
! (c) 2009  Infineon Technologies AG, Munich
