!    Infineon Technologies AG
!    BGB741L7ESD 
!    Vce = 4.0V, Ic = 6.0mA
!    DATUM: 30.06.2009 10:09:55
# GHz   S   MA   R  50
!f                S11                 S21                 S12                 S22
!GHz            Mag  Ang            Mag  Ang            Mag  Ang            Mag  Ang
 0.050000  0.387175   -48.611 10.007744   163.341  0.081954    22.718  0.418490   -44.468
 0.060000  0.334201   -51.188  9.687810   164.157  0.084112    18.812  0.369786   -44.052
 0.070000  0.305534   -49.689  9.396705   165.362  0.085501    16.198  0.334184   -43.126
 0.080000  0.277183   -47.430  9.207994   166.210  0.086421    14.075  0.307898   -41.779
 0.090000  0.261230   -49.053  9.142180   167.040  0.086935    12.391  0.287200   -40.349
 0.100000  0.241192   -46.773  8.996164   167.392  0.087236    10.975  0.271275   -38.772
 0.110000  0.230670   -46.353  8.945799   167.891  0.087752     9.829  0.258264   -37.336
 0.120000  0.221413   -45.907  8.896527   168.264  0.088105     8.816  0.248553   -36.002
 0.130000  0.209677   -44.654  8.858285   168.580  0.088283     7.979  0.240183   -34.710
 0.140000  0.201496   -42.899  8.804924   168.743  0.088403     7.202  0.232956   -33.406
 0.150000  0.195734   -42.841  8.774714   168.927  0.088528     6.556  0.227632   -32.301
 0.200000  0.180826   -40.539  8.704411   168.950  0.088961     4.072  0.209418   -27.965
 0.250000  0.171380   -37.813  8.644244   168.387  0.089146     2.358  0.200028   -25.062
 0.300000  0.164801   -39.114  8.613253   167.610  0.089121     0.962  0.194562   -23.126
 0.350000  0.161438   -38.776  8.595525   166.598  0.089137    -0.205  0.190673   -21.955
 0.400000  0.160554   -40.161  8.569742   165.387  0.089095    -1.190  0.188505   -21.399
 0.450000  0.157390   -41.653  8.557595   164.099  0.088984    -2.088  0.186971   -21.017
 0.500000  0.158949   -43.451  8.531950   162.858  0.088844    -2.859  0.185748   -20.709
 0.600000  0.156288   -47.203  8.488338   160.117  0.088488    -4.346  0.184345   -21.150
 0.700000  0.157915   -51.318  8.460469   157.296  0.088139    -5.684  0.183751   -21.870
 0.800000  0.159860   -55.684  8.394808   154.526  0.087603    -6.915  0.184546   -23.098
 0.900000  0.161636   -60.041  8.332800   151.698  0.087114    -8.184  0.185237   -24.322
 1.000000  0.165400   -64.665  8.280629   148.826  0.086555    -9.288  0.186546   -26.008
 1.100000  0.166846   -69.375  8.214939   145.906  0.085910   -10.479  0.187473   -27.721
 1.200000  0.170714   -73.366  8.124213   142.967  0.085155   -11.578  0.189652   -29.877
 1.300000  0.173940   -78.156  8.050188   140.176  0.084367   -12.679  0.191819   -32.003
 1.400000  0.179705   -82.036  7.966112   137.321  0.083563   -13.700  0.194773   -34.456
 1.500000  0.183952   -85.669  7.875483   134.369  0.082662   -14.801  0.197418   -36.624
 1.600000  0.187823   -89.613  7.765397   131.574  0.081657   -15.822  0.200960   -39.289
 1.700000  0.194078   -93.220  7.668016   128.839  0.080660   -16.797  0.204738   -41.702
 1.800000  0.200203   -96.858  7.575029   126.092  0.079610   -17.721  0.208929   -44.415
 1.900000  0.205533  -100.127  7.465683   123.251  0.078528   -18.716  0.213596   -47.028
 2.000000  0.211487  -103.591  7.344553   120.592  0.077342   -19.640  0.218293   -49.961
 2.200000  0.224917  -109.361  7.126218   115.454  0.074903   -21.397  0.229145   -55.615
 2.400000  0.240287  -115.011  6.886777   110.202  0.072280   -23.075  0.241524   -61.219
 2.600000  0.255356  -119.902  6.659450   105.333  0.069542   -24.596  0.253881   -66.807
 2.800000  0.268529  -124.995  6.440400   100.387  0.066736   -26.033  0.267401   -72.323
 3.000000  0.282611  -128.966  6.204533    95.747  0.063705   -27.301  0.280852   -77.661
 3.500000  0.317019  -138.814  5.664212    84.461  0.055766   -29.827  0.316643   -90.163
 4.000000  0.347797  -147.272  5.164589    73.865  0.047440   -31.004  0.350700  -101.776
 4.500000  0.379134  -154.920  4.706622    63.836  0.039069   -29.747  0.385165  -113.446
 5.000000  0.410176  -162.343  4.295193    54.228  0.031001   -24.157  0.420929  -124.905
 5.500000  0.441346  -169.321  3.918450    45.009  0.024719   -11.008  0.457800  -135.612
 6.000000  0.472020  -175.905  3.576595    35.961  0.022593    10.338  0.496022  -145.714
!
!  f       Fmin   Gammaopt  rn/50
! GHz       dB    MAG  ANG    -
 0.450      1.02  0.04   44   0.14
 0.900      1.03  0.07   73   0.16
 1.800      1.06  0.09   84   0.20
 2.400      1.11  0.11   92   0.26
 3.000      1.18  0.14  132   0.22
 5.500      1.82  0.18  160   0.17
!
! (c) 2009  Infineon Technologies AG, Munich
