!    Infineon Technologies AG
!    BGB741L7ESD 
!    Vce = 2.5V, Ic = 25.0mA
!    DATUM: 30.06.2009 10:09:09
# GHz   S   MA   R  50
!f                S11                 S21                 S12                 S22
!GHz            Mag  Ang            Mag  Ang            Mag  Ang            Mag  Ang
 0.050000  0.357764  -127.744 16.663067   156.431  0.052256    15.886  0.326602  -112.788
 0.060000  0.356001  -137.620 15.832496   158.101  0.052933    13.456  0.295361  -120.719
 0.070000  0.338287  -141.794 15.317913   160.075  0.052978    11.448  0.274508  -127.541
 0.080000  0.326364  -146.296 14.973857   161.490  0.053175    10.149  0.259624  -133.212
 0.090000  0.328268  -149.094 14.789630   162.496  0.053300     8.816  0.248620  -138.243
 0.100000  0.320439  -152.614 14.533568   163.403  0.053447     7.888  0.240291  -142.460
 0.110000  0.320879  -155.301 14.405388   164.087  0.053836     7.038  0.234158  -146.327
 0.120000  0.319186  -156.851 14.328133   164.686  0.053679     6.317  0.229237  -149.627
 0.130000  0.319350  -159.157 14.229177   165.258  0.053812     5.732  0.225223  -152.497
 0.140000  0.316314  -161.013 14.143476   165.646  0.053829     5.409  0.222028  -155.305
 0.150000  0.314014  -161.895 14.083666   165.879  0.053827     4.906  0.219525  -157.639
 0.200000  0.312016  -166.548 13.921999   166.184  0.053896     3.380  0.212129  -167.126
 0.250000  0.307820  -169.780 13.832670   165.898  0.053892     2.480  0.208028  -174.081
 0.300000  0.310770  -171.606 13.742389   165.089  0.053862     1.749  0.205773  -179.688
 0.350000  0.311533  -173.517 13.697319   164.097  0.053784     1.148  0.204608   175.427
 0.400000  0.311813  -174.925 13.649544   162.757  0.053774     0.658  0.203212   171.283
 0.450000  0.313233  -176.057 13.581260   161.467  0.053629     0.311  0.201839   167.306
 0.500000  0.314053  -176.909 13.535147   160.067  0.053587     0.036  0.201064   163.503
 0.600000  0.316413  -178.727 13.419062   157.207  0.053338    -0.491  0.198748   156.896
 0.700000  0.316654   179.897 13.314535   154.170  0.053130    -0.890  0.196343   150.516
 0.800000  0.317019   178.594 13.176136   151.122  0.052877    -1.180  0.192535   144.679
 0.900000  0.318987   177.417 13.028112   148.117  0.052618    -1.520  0.189504   138.592
 1.000000  0.320263   176.682 12.892604   145.028  0.052351    -1.703  0.185118   133.211
 1.100000  0.322774   175.196 12.726883   141.894  0.051994    -1.925  0.181455   127.612
 1.200000  0.323039   174.255 12.534883   138.785  0.051720    -2.169  0.175935   122.326
 1.300000  0.324958   173.370 12.356159   135.816  0.051371    -2.292  0.170682   116.934
 1.400000  0.325305   172.549 12.177559   132.824  0.051036    -2.391  0.163977   111.769
 1.500000  0.326267   171.560 11.989304   129.759  0.050697    -2.528  0.157819   106.192
 1.600000  0.326328   170.587 11.758955   126.871  0.050275    -2.575  0.149928   100.824
 1.700000  0.326602   170.210 11.558816   124.003  0.049888    -2.652  0.142917    94.951
 1.800000  0.328583   169.601 11.368099   121.167  0.049469    -2.670  0.134621    89.324
 1.900000  0.328835   168.784 11.155977   118.259  0.049083    -2.714  0.126894    82.998
 2.000000  0.329509   168.161 10.923620   115.552  0.048630    -2.666  0.118110    76.730
 2.200000  0.331456   167.417 10.502359   110.291  0.047715    -2.481  0.101835    62.053
 2.400000  0.331570   166.987 10.063993   105.073  0.046723    -2.227  0.087486    43.882
 2.600000  0.334248   166.565  9.648386   100.149  0.045702    -1.745  0.077834    22.134
 2.800000  0.336958   165.983  9.246054    95.265  0.044677    -1.155  0.075062    -2.628
 3.000000  0.338947   165.808  8.845030    90.696  0.043603    -0.283  0.080213   -25.385
 3.500000  0.349350   164.785  7.927788    79.839  0.041127     2.981  0.117649   -65.471
 4.000000  0.361570   163.256  7.132002    69.749  0.039237     7.726  0.164955   -88.406
 4.500000  0.377556   161.517  6.435257    60.301  0.038367    13.925  0.213135  -105.957
 5.000000  0.399370   159.263  5.828569    51.244  0.038875    20.907  0.262538  -120.744
 5.500000  0.421832   156.354  5.288667    42.565  0.041091    27.472  0.312562  -133.245
 6.000000  0.445823   153.173  4.808964    34.056  0.044832    32.750  0.363639  -144.339
!
!                    Infineon Technologies AG
