!    Infineon Technologies AG
!    BGB741L7ESD 
!    Vce = 2.5V, Ic = 20.0mA
!    DATUM: 30.06.2009 10:09:01
# GHz   S   MA   R  50
!f                S11                 S21                 S12                 S22
!GHz            Mag  Ang            Mag  Ang            Mag  Ang            Mag  Ang
 0.050000  0.332966  -118.900 15.875859   157.197  0.055733    16.554  0.315710  -104.010
 0.060000  0.316955  -128.470 15.115509   158.815  0.056763    14.208  0.278999  -111.450
 0.070000  0.299637  -133.774 14.623250   160.643  0.057232    11.965  0.253768  -118.174
 0.080000  0.281947  -138.606 14.301700   162.018  0.057623    10.290  0.234965  -123.829
 0.090000  0.289326  -142.231 14.130329   163.009  0.057621     9.104  0.220854  -128.998
 0.100000  0.274894  -146.444 13.885297   163.864  0.057935     8.257  0.210097  -133.454
 0.110000  0.276304  -148.904 13.767126   164.528  0.057951     7.402  0.201879  -137.537
 0.120000  0.272014  -150.859 13.685025   165.133  0.058095     6.630  0.195260  -141.118
 0.130000  0.267486  -153.222 13.601092   165.637  0.058178     5.983  0.190051  -144.312
 0.140000  0.265106  -155.467 13.518510   165.979  0.058084     5.475  0.185617  -147.485
 0.150000  0.266035  -156.942 13.463778   166.244  0.058304     4.931  0.182108  -150.145
 0.200000  0.260492  -161.913 13.311699   166.539  0.058260     3.419  0.171398  -160.987
 0.250000  0.257259  -166.085 13.228359   166.248  0.058371     2.329  0.165737  -169.127
 0.300000  0.258761  -168.218 13.143390   165.450  0.058316     1.515  0.162699  -175.637
 0.350000  0.259149  -170.011 13.104728   164.477  0.058207     0.814  0.161142   178.723
 0.400000  0.258723  -171.569 13.060219   163.166  0.058134     0.275  0.159520   174.071
 0.450000  0.261714  -172.649 13.001448   161.872  0.058047    -0.193  0.158233   169.578
 0.500000  0.260929  -173.411 12.957594   160.519  0.057928    -0.553  0.157395   165.342
 0.600000  0.263843  -175.357 12.849051   157.702  0.057657    -1.220  0.155487   158.061
 0.700000  0.265685  -176.702 12.760382   154.745  0.057394    -1.795  0.153594   151.107
 0.800000  0.266877  -177.950 12.633980   151.723  0.057084    -2.275  0.150528   144.822
 0.900000  0.269816  -178.981 12.505441   148.720  0.056814    -2.764  0.148110   138.281
 1.000000  0.271642  -179.596 12.383613   145.719  0.056482    -3.139  0.144725   132.444
 1.100000  0.274685   179.051 12.233160   142.629  0.056074    -3.510  0.141978   126.404
 1.200000  0.275785   178.056 12.056672   139.554  0.055724    -3.890  0.137408   120.819
 1.300000  0.279336   177.384 11.896777   136.621  0.055267    -4.176  0.133182   115.009
 1.400000  0.280994   176.828 11.732575   133.665  0.054873    -4.405  0.127553   109.463
 1.500000  0.281681   175.709 11.560996   130.636  0.054408    -4.684  0.122566   103.332
 1.600000  0.283185   174.935 11.351431   127.761  0.053940    -4.876  0.115866    97.425
 1.700000  0.284678   174.779 11.165845   124.925  0.053440    -5.107  0.110178    90.800
 1.800000  0.287486   174.184 10.985271   122.118  0.052947    -5.216  0.103241    84.362
 1.900000  0.288931   173.454 10.791791   119.216  0.052450    -5.422  0.096967    76.937
 2.000000  0.290176   173.069 10.572509   116.550  0.051853    -5.596  0.089816    69.408
 2.200000  0.294524   172.328 10.184850   111.266  0.050730    -5.542  0.077581    51.395
 2.400000  0.297853   172.156  9.770204   106.082  0.049477    -5.641  0.068960    28.534
 2.600000  0.302218   171.874  9.381934   101.164  0.048229    -5.405  0.066870     3.166
 2.800000  0.307745   171.182  9.006197    96.292  0.046954    -4.935  0.072423   -20.861
 3.000000  0.310992   170.925  8.624278    91.708  0.045622    -4.408  0.084180   -40.430
 3.500000  0.325498   169.881  7.753640    80.807  0.042370    -1.731  0.128664   -72.545
 4.000000  0.342020   168.199  6.988209    70.661  0.039602     2.633  0.176755   -92.017
 4.500000  0.360900   166.221  6.317349    61.162  0.037871     8.905  0.224478  -108.036
 5.000000  0.384417   163.517  5.729923    52.050  0.037579    16.412  0.273111  -122.020
 5.500000  0.408759   160.310  5.207222    43.303  0.039021    24.027  0.322304  -134.066
 6.000000  0.434176   156.857  4.740613    34.758  0.042298    30.478  0.372437  -144.886
!
!                    Infineon Technologies AG
