!    Infineon Technologies AG
!    BGB741L7ESD 
!    Vce = 3.0V, Ic = 20.0mA
!    DATUM: 30.06.2009 10:00:22
# GHz   S   MA   R  50
!f                S11                 S21                 S12                 S22
!GHz            Mag  Ang            Mag  Ang            Mag  Ang            Mag  Ang
 0.050000  0.321255  -117.903 15.835866   157.249  0.056047    16.646  0.313923  -103.517
 0.060000  0.313273  -128.760 15.081030   158.838  0.056832    14.052  0.276893  -110.941
 0.070000  0.296061  -133.199 14.598730   160.719  0.057601    11.895  0.251618  -117.625
 0.080000  0.282336  -138.384 14.275087   162.068  0.057670    10.563  0.232645  -123.256
 0.090000  0.283351  -142.191 14.113288   163.069  0.057978     9.098  0.218381  -128.505
 0.100000  0.272273  -145.786 13.858494   163.951  0.058065     8.179  0.207492  -132.861
 0.110000  0.271661  -148.523 13.746493   164.583  0.058120     7.333  0.199265  -137.004
 0.120000  0.267938  -150.683 13.667556   165.152  0.058208     6.677  0.192572  -140.613
 0.130000  0.267260  -153.417 13.581215   165.696  0.058341     5.992  0.187167  -143.898
 0.140000  0.263836  -155.265 13.500818   166.036  0.058387     5.404  0.182587  -147.023
 0.150000  0.263633  -156.523 13.440907   166.299  0.058323     5.086  0.178905  -149.675
 0.200000  0.259683  -161.473 13.298782   166.627  0.058483     3.410  0.168121  -160.784
 0.250000  0.254950  -165.996 13.212662   166.353  0.058495     2.220  0.162643  -169.009
 0.300000  0.255669  -168.053 13.128348   165.537  0.058405     1.416  0.159330  -175.695
 0.350000  0.255623  -170.241 13.092059   164.559  0.058396     0.787  0.157969   178.548
 0.400000  0.256116  -171.397 13.045088   163.265  0.058284     0.220  0.156374   173.794
 0.450000  0.258952  -172.758 12.991490   161.990  0.058123    -0.231  0.155252   169.184
 0.500000  0.258470  -173.613 12.945836   160.648  0.058069    -0.649  0.154437   164.848
 0.600000  0.260965  -175.604 12.843719   157.845  0.057818    -1.302  0.152823   157.375
 0.700000  0.262342  -176.851 12.759640   154.864  0.057561    -1.913  0.151268   150.232
 0.800000  0.264186  -177.974 12.635230   151.908  0.057195    -2.398  0.148371   143.749
 0.900000  0.266677  -179.109 12.508383   148.926  0.056938    -2.926  0.146409   137.014
 1.000000  0.268320  -179.738 12.385676   145.924  0.056591    -3.292  0.143355   131.063
 1.100000  0.272076   179.090 12.240117   142.852  0.056207    -3.702  0.141006   124.893
 1.200000  0.272466   178.074 12.069234   139.798  0.055840    -4.066  0.136804   119.128
 1.300000  0.276034   177.192 11.910310   136.872  0.055380    -4.355  0.133039   113.159
 1.400000  0.277153   176.757 11.750264   133.938  0.054988    -4.617  0.127888   107.434
 1.500000  0.278230   175.709 11.581694   130.911  0.054550    -4.932  0.123411   101.150
 1.600000  0.279788   174.886 11.372817   128.048  0.054047    -5.167  0.117222    95.006
 1.700000  0.281793   174.609 11.195043   125.227  0.053544    -5.346  0.112092    88.260
 1.800000  0.283860   173.932 11.016091   122.404  0.053009    -5.525  0.105803    81.640
 1.900000  0.284943   173.274 10.826770   119.526  0.052550    -5.738  0.100204    74.076
 2.000000  0.287412   172.787 10.609367   116.831  0.051902    -5.874  0.093688    66.519
 2.200000  0.290421   172.169 10.228235   111.597  0.050752    -5.980  0.082877    48.587
 2.400000  0.293952   171.975  9.818081   106.367  0.049498    -6.006  0.075801    26.908
 2.600000  0.298296   171.827  9.424940   101.535  0.048225    -5.824  0.074380     3.587
 2.800000  0.302049   171.191  9.051755    96.607  0.046895    -5.599  0.079837   -18.635
 3.000000  0.305927   171.088  8.675209    92.028  0.045482    -4.911  0.090731   -37.137
 3.500000  0.320794   170.028  7.803714    81.158  0.042161    -2.383  0.133121   -69.121
 4.000000  0.337066   168.469  7.041531    70.942  0.039246     1.966  0.180108   -89.207
 4.500000  0.356621   166.517  6.371098    61.429  0.037339     8.341  0.226742  -105.609
 5.000000  0.380196   163.870  5.782407    52.305  0.036863    16.069  0.274686  -119.953
 5.500000  0.404853   160.752  5.256707    43.536  0.038282    24.052  0.323346  -132.285
 6.000000  0.431495   157.261  4.787158    34.956  0.041528    30.783  0.373215  -143.359
!
!                    Infineon Technologies AG
