!    Infineon Technologies AG
!    BGB741L7ESD 
!    Vce = 4.0V, Ic = 15.0mA
!    DATUM: 30.06.2009 10:10:11
# GHz   S   MA   R  50
!f                S11                 S21                 S12                 S22
!GHz            Mag  Ang            Mag  Ang            Mag  Ang            Mag  Ang
 0.050000  0.303345  -102.588 14.562737   158.569  0.062042    17.856  0.306545   -88.790
 0.060000  0.275953  -113.217 13.909733   159.995  0.062821    15.116  0.262139   -94.552
 0.070000  0.249149  -117.499 13.469079   161.721  0.063466    12.985  0.230039   -99.994
 0.080000  0.230451  -122.315 13.177714   162.974  0.063815    11.144  0.205436  -104.550
 0.090000  0.229324  -126.681 13.035627   163.938  0.064200     9.767  0.186166  -109.028
 0.100000  0.215047  -131.205 12.813085   164.687  0.064320     8.653  0.170849  -112.872
 0.110000  0.209661  -135.260 12.713573   165.347  0.064542     7.816  0.158735  -116.738
 0.120000  0.204639  -136.987 12.638385   165.864  0.064717     6.994  0.148602  -120.142
 0.130000  0.201169  -140.474 12.565269   166.363  0.064703     6.296  0.140330  -123.480
 0.140000  0.194486  -142.537 12.487356   166.681  0.064835     5.758  0.133074  -126.737
 0.150000  0.195174  -144.362 12.440049   166.954  0.064886     5.355  0.127281  -129.677
 0.200000  0.186288  -150.952 12.309645   167.220  0.065041     3.288  0.108177  -142.955
 0.250000  0.179061  -156.525 12.234802   166.848  0.065048     2.077  0.097353  -153.988
 0.300000  0.180230  -158.571 12.165510   166.110  0.065004     1.131  0.091451  -163.608
 0.350000  0.179830  -161.401 12.131176   165.155  0.064960     0.287  0.088268  -172.191
 0.400000  0.180193  -162.876 12.095681   163.880  0.064859    -0.381  0.085999  -179.153
 0.450000  0.181330  -164.545 12.051543   162.623  0.064698    -1.015  0.084506   173.906
 0.500000  0.183113  -165.410 12.015252   161.326  0.064629    -1.450  0.083647   167.301
 0.600000  0.186596  -167.277 11.927815   158.573  0.064317    -2.385  0.082754   156.411
 0.700000  0.188348  -168.698 11.858564   155.648  0.063988    -3.240  0.082516   146.188
 0.800000  0.191467  -169.338 11.753618   152.761  0.063604    -3.934  0.081581   137.052
 0.900000  0.194407  -170.153 11.646283   149.834  0.063209    -4.666  0.081830   127.736
 1.000000  0.197752  -170.582 11.546399   146.902  0.062814    -5.306  0.081088   119.566
 1.100000  0.202508  -171.977 11.420229   143.876  0.062339    -5.902  0.081468   111.377
 1.200000  0.204898  -172.501 11.274235   140.868  0.061847    -6.543  0.080088   103.637
 1.300000  0.210003  -173.231 11.140405   137.993  0.061252    -7.059  0.079482    95.641
 1.400000  0.212882  -173.488 11.003956   135.090  0.060722    -7.537  0.077572    87.818
 1.500000  0.215652  -174.304 10.854379   132.098  0.060161    -8.046  0.076828    79.296
 1.600000  0.219353  -174.979 10.673551   129.266  0.059491    -8.500  0.074675    70.798
 1.700000  0.222705  -174.915 10.518118   126.474  0.058800    -8.946  0.074107    61.705
 1.800000  0.227113  -175.523 10.362535   123.699  0.058161    -9.362  0.072530    52.447
 1.900000  0.230203  -176.042 10.192542   120.834  0.057462    -9.764  0.072369    42.657
 2.000000  0.233419  -176.565  9.999067   118.198  0.056731   -10.098  0.071699    32.678
 2.200000  0.240953  -176.918  9.660591   112.944  0.055205   -10.706  0.074083    12.036
 2.400000  0.248944  -177.145  9.295823   107.731  0.053579   -11.182  0.081141    -7.835
 2.600000  0.256898  -177.317  8.942804   102.895  0.051851   -11.357  0.091531   -24.461
 2.800000  0.265671  -178.052  8.608165    97.978  0.050108   -11.476  0.105319   -38.773
 3.000000  0.272962  -178.327  8.263201    93.375  0.048279   -11.330  0.120927   -50.739
 3.500000  0.295609  -179.872  7.465804    82.394  0.043659    -9.840  0.166100   -73.609
 4.000000  0.317189   177.791  6.758126    72.131  0.039352    -6.247  0.211359   -90.401
 4.500000  0.342131   175.096  6.129372    62.490  0.035805    -0.019  0.255505  -105.328
 5.000000  0.369211   171.615  5.575268    53.249  0.033800     8.899  0.300926  -119.018
 5.500000  0.397427   167.674  5.075243    44.378  0.034003    19.132  0.347176  -131.100
 6.000000  0.425459   163.531  4.629009    35.685  0.036638    28.620  0.394687  -142.105
!
!                    Infineon Technologies AG
