!    Infineon Technologies AG
!    BGB741L7ESD 
!    Vce = 4.0V, Ic = 25.0mA
!    DATUM: 30.06.2009 10:10:26
# GHz   S   MA   R  50
!f                S11                 S21                 S12                 S22
!GHz            Mag  Ang            Mag  Ang            Mag  Ang            Mag  Ang
 0.050000  0.344513  -128.473 16.503624   156.682  0.052249    16.232  0.317982  -111.308
 0.060000  0.341648  -136.895 15.704001   158.391  0.052897    13.560  0.286298  -119.262
 0.070000  0.326805  -141.431 15.199783   160.334  0.053542    11.522  0.265563  -126.051
 0.080000  0.317092  -146.176 14.861621   161.737  0.053604    10.226  0.250022  -131.784
 0.090000  0.319704  -148.681 14.690852   162.754  0.053933     8.984  0.238949  -136.879
 0.100000  0.308927  -152.329 14.435809   163.647  0.054116     8.230  0.230536  -141.185
 0.110000  0.311031  -154.748 14.314384   164.338  0.054202     7.267  0.224016  -145.127
 0.120000  0.308308  -156.774 14.234943   164.930  0.054354     6.308  0.218891  -148.497
 0.130000  0.307560  -159.002 14.142404   165.498  0.054462     5.744  0.214961  -151.486
 0.140000  0.304236  -160.314 14.057030   165.894  0.054264     5.401  0.211659  -154.347
 0.150000  0.307116  -161.423 13.999129   166.155  0.054431     4.969  0.209050  -156.760
 0.200000  0.303688  -165.920 13.846139   166.449  0.054421     3.318  0.201388  -166.604
 0.250000  0.299742  -169.851 13.764502   166.180  0.054331     2.325  0.197377  -173.902
 0.300000  0.301212  -171.594 13.676329   165.389  0.054360     1.559  0.195333  -179.814
 0.350000  0.301785  -173.399 13.640172   164.432  0.054290     1.033  0.194338   175.092
 0.400000  0.301557  -174.803 13.590097   163.126  0.054192     0.533  0.193116   170.713
 0.450000  0.304086  -175.972 13.530304   161.834  0.054116     0.111  0.192151   166.487
 0.500000  0.303114  -176.880 13.482078   160.479  0.054052    -0.166  0.191555   162.549
 0.600000  0.306858  -178.900 13.374081   157.664  0.053827    -0.726  0.189851   155.580
 0.700000  0.307043   179.747 13.279190   154.687  0.053475    -1.199  0.188326   148.839
 0.800000  0.307169   178.418 13.149695   151.706  0.053291    -1.540  0.185243   142.654
 0.900000  0.308887   177.336 13.016013   148.706  0.053062    -1.935  0.183194   136.237
 1.000000  0.310341   176.304 12.885536   145.694  0.052741    -2.140  0.179818   130.532
 1.100000  0.312299   175.116 12.725163   142.604  0.052421    -2.413  0.177155   124.618
 1.200000  0.312030   173.826 12.544100   139.535  0.052112    -2.761  0.172701   118.984
 1.300000  0.314464   173.069 12.379034   136.602  0.051736    -2.910  0.168585   113.254
 1.400000  0.314930   172.287 12.207979   133.645  0.051387    -3.069  0.163051   107.762
 1.500000  0.314796   171.178 12.029287   130.608  0.051037    -3.235  0.158207   101.850
 1.600000  0.315309   170.415 11.810258   127.749  0.050619    -3.421  0.151556    96.096
 1.700000  0.315712   170.019 11.620268   124.909  0.050173    -3.517  0.146012    89.904
 1.800000  0.316789   169.362 11.432714   122.088  0.049746    -3.505  0.139133    83.873
 1.900000  0.316726   168.387 11.229665   119.200  0.049315    -3.609  0.132923    77.257
 2.000000  0.317526   168.097 11.002474   116.531  0.048856    -3.706  0.125770    70.614
 2.200000  0.317977   167.399 10.597539   111.246  0.047834    -3.666  0.112850    55.649
 2.400000  0.319393   166.907 10.172353   106.025  0.046760    -3.441  0.102254    38.170
 2.600000  0.320465   166.707  9.759367   101.173  0.045680    -3.233  0.095792    18.769
 2.800000  0.324045   166.112  9.369201    96.246  0.044555    -2.605  0.094827    -1.870
 3.000000  0.325627   166.082  8.971499    91.671  0.043356    -1.831  0.099721   -20.844
 3.500000  0.335303   165.333  8.064206    80.776  0.040445     1.164  0.132377   -57.640
 4.000000  0.347696   164.150  7.267403    70.654  0.038101     5.977  0.175703   -81.211
 4.500000  0.364996   162.669  6.570385    61.169  0.036819    12.599  0.220707   -99.692
 5.000000  0.386665   160.426  5.960643    52.062  0.037036    20.175  0.267725  -115.372
 5.500000  0.410036   157.640  5.415848    43.329  0.039020    27.609  0.316175  -128.598
 6.000000  0.434924   154.490  4.933245    34.776  0.042743    33.598  0.366099  -140.319
!
!                    Infineon Technologies AG
