!    Infineon Technologies AG
!    BGB741L7ESD 
!    Vce = 2.5V, Ic = 10.0mA
!    DATUM: 30.06.2009 10:08:46
# GHz   S   MA   R  50
!f                S11                 S21                 S12                 S22
!GHz            Mag  Ang            Mag  Ang            Mag  Ang            Mag  Ang
 0.050000  0.313374   -77.732 12.744044   160.475  0.070342    19.847  0.336000   -68.055
 0.060000  0.267668   -84.724 12.237411   161.642  0.071758    16.493  0.285377   -70.630
 0.070000  0.232069   -86.628 11.848306   163.156  0.072441    14.195  0.246897   -72.568
 0.080000  0.206566   -90.264 11.595990   164.236  0.073071    12.289  0.217408   -73.847
 0.090000  0.197011   -92.997 11.493256   165.125  0.073474    10.881  0.193440   -74.915
 0.100000  0.173307   -95.275 11.299928   165.704  0.073838     9.648  0.174262   -75.493
 0.110000  0.165044   -97.989 11.217754   166.290  0.074020     8.561  0.158214   -76.100
 0.120000  0.156076   -99.699 11.150735   166.753  0.074297     7.785  0.145212   -76.284
 0.130000  0.142857  -102.720 11.095309   167.176  0.074396     7.052  0.133871   -76.466
 0.140000  0.134708  -104.555 11.026723   167.433  0.074433     6.365  0.123627   -76.599
 0.150000  0.130470  -105.160 10.985908   167.622  0.074513     5.719  0.115460   -76.596
 0.200000  0.112437  -111.867 10.879184   167.784  0.074786     3.620  0.085178   -76.069
 0.250000  0.098896  -115.849 10.805172   167.386  0.074767     2.139  0.066120   -73.987
 0.300000  0.094830  -120.040 10.751465   166.559  0.074780     0.970  0.052861   -71.022
 0.350000  0.091961  -123.091 10.724581   165.589  0.074796     0.062  0.043195   -67.644
 0.400000  0.091201  -124.888 10.692785   164.317  0.074667    -0.688  0.036772   -62.980
 0.450000  0.092368  -128.302 10.660249   163.037  0.074511    -1.480  0.031364   -56.875
 0.500000  0.093803  -128.254 10.627952   161.749  0.074452    -2.036  0.027239   -48.412
 0.600000  0.098401  -131.771 10.555803   158.977  0.074100    -3.216  0.023855   -32.488
 0.700000  0.102726  -133.351 10.500098   156.072  0.073717    -4.255  0.024193   -16.287
 0.800000  0.108411  -135.047 10.409486   153.198  0.073332    -5.197  0.027449    -6.906
 0.900000  0.113997  -136.481 10.319911   150.267  0.072817    -6.194  0.031663    -0.146
 1.000000  0.121592  -137.423 10.235004   147.353  0.072366    -7.020  0.036285     0.795
 1.100000  0.127670  -139.760 10.130518   144.338  0.071785    -7.879  0.040661     1.610
 1.200000  0.134236  -140.998 10.008096   141.334  0.071219    -8.651  0.045205    -1.348
 1.300000  0.141254  -142.909  9.895909   138.477  0.070536    -9.391  0.049947    -3.850
 1.400000  0.149014  -143.731  9.778400   135.588  0.069820   -10.132  0.054635    -8.201
 1.500000  0.153629  -144.864  9.650700   132.589  0.069119   -10.844  0.059897   -11.482
 1.600000  0.160270  -146.437  9.494418   129.759  0.068300   -11.560  0.065059   -16.439
 1.700000  0.167715  -147.257  9.361155   126.975  0.067451   -12.206  0.070810   -20.450
 1.800000  0.175147  -148.450  9.226724   124.193  0.066710   -12.769  0.076603   -25.417
 1.900000  0.181139  -149.670  9.077127   121.337  0.065819   -13.406  0.082985   -29.897
 2.000000  0.188338  -150.865  8.913588   118.655  0.064896   -13.992  0.089167   -34.872
 2.200000  0.202264  -152.767  8.618657   113.435  0.062985   -14.943  0.103182   -43.996
 2.400000  0.216553  -154.465  8.300613   108.224  0.060935   -15.901  0.119132   -52.530
 2.600000  0.230524  -155.803  7.993933   103.352  0.058880   -16.631  0.135295   -60.383
 2.800000  0.243975  -157.979  7.704498    98.445  0.056668   -17.217  0.152469   -67.732
 3.000000  0.256682  -159.530  7.400724    93.828  0.054344   -17.536  0.169745   -74.447
 3.500000  0.288456  -163.995  6.702531    82.743  0.048526   -17.433  0.214929   -89.134
 4.000000  0.317170  -168.583  6.074131    72.376  0.042738   -15.411  0.257585  -101.832
 4.500000  0.346817  -173.042  5.514363    62.649  0.037489   -10.617  0.299503  -114.229
 5.000000  0.376734  -177.988  5.017058    53.287  0.033473    -2.381  0.342401  -126.139
 5.500000  0.407114   176.886  4.566616    44.320  0.031714     9.093  0.385835  -136.979
 6.000000  0.436973   171.484  4.163212    35.544  0.032904    21.274  0.430356  -147.090
!
!  f       Fmin   Gammaopt  rn/50 
! GHz       dB    MAG  ANG    -
 0.450      0.98  0.04  152   0.13
 0.900      1.00  0.06  126   0.13
 1.800      1.04  0.08  120   0.22
 2.400      1.07  0.10  119   0.29
 3.000      1.12  0.12  135   0.20
 5.500      1.75  0.17  172   0.16
!
! (c) 2009  Infineon Technologies AG, Munich

