!    Infineon Technologies AG
!    BGB741L7ESD 
!    Vce = 2.5V, Ic = 6.0mA
!    DATUM: 30.06.2009 10:08:38
# GHz   S   MA   R  50
!f                S11                 S21                 S12                 S22
!GHz            Mag  Ang            Mag  Ang            Mag  Ang            Mag  Ang
 0.050000  0.390144   -49.558 10.047255   163.350  0.082103    22.675  0.420468   -44.843
 0.060000  0.334425   -51.985  9.730241   164.155  0.083878    18.985  0.371818   -44.484
 0.070000  0.305429   -50.359  9.440008   165.363  0.085224    16.146  0.335465   -43.602
 0.080000  0.278048   -48.557  9.249418   166.163  0.086055    14.065  0.308704   -42.351
 0.090000  0.261955   -49.830  9.184492   167.012  0.086778    12.392  0.287665   -40.976
 0.100000  0.239386   -47.016  9.035523   167.349  0.087216    11.084  0.271498   -39.457
 0.110000  0.227648   -47.460  8.981174   167.851  0.087613     9.827  0.258607   -37.966
 0.120000  0.219770   -46.383  8.934788   168.216  0.087874     8.820  0.248791   -36.698
 0.130000  0.208630   -45.510  8.895341   168.539  0.088045     7.974  0.240174   -35.439
 0.140000  0.200772   -43.457  8.842756   168.692  0.088095     7.249  0.232818   -34.157
 0.150000  0.196729   -43.480  8.809896   168.855  0.088254     6.652  0.227366   -33.053
 0.200000  0.178985   -41.550  8.738546   168.859  0.088668     4.077  0.208837   -28.876
 0.250000  0.167715   -39.118  8.679909   168.275  0.088778     2.418  0.199170   -26.023
 0.300000  0.163111   -39.955  8.646837   167.474  0.088840     1.108  0.193812   -24.200
 0.350000  0.158824   -40.138  8.627224   166.456  0.088804    -0.036  0.189788   -23.116
 0.400000  0.158337   -41.037  8.600657   165.238  0.088727    -1.011  0.187644   -22.705
 0.450000  0.156582   -42.780  8.585919   163.924  0.088559    -1.843  0.185840   -22.456
 0.500000  0.156233   -44.409  8.560935   162.664  0.088610    -2.649  0.184676   -22.279
 0.600000  0.154885   -48.387  8.515899   159.885  0.088228    -4.090  0.183183   -22.973
 0.700000  0.156093   -52.727  8.481144   157.042  0.087919    -5.427  0.182541   -24.009
 0.800000  0.158351   -57.156  8.416060   154.251  0.087389    -6.569  0.182960   -25.472
 0.900000  0.160767   -61.483  8.351661   151.359  0.086867    -7.789  0.183432   -26.935
 1.000000  0.163866   -65.951  8.293120   148.505  0.086355    -8.881  0.184639   -28.882
 1.100000  0.165617   -70.938  8.227520   145.521  0.085717   -10.023  0.185199   -30.806
 1.200000  0.169402   -74.924  8.133116   142.573  0.085039   -11.085  0.187312   -33.170
 1.300000  0.173187   -79.810  8.056345   139.773  0.084198   -12.120  0.189162   -35.503
 1.400000  0.179070   -83.539  7.967482   136.889  0.083425   -13.099  0.191794   -38.085
 1.500000  0.183272   -87.130  7.874665   133.914  0.082563   -14.160  0.194525   -40.478
 1.600000  0.187079   -91.279  7.759709   131.098  0.081587   -15.130  0.197777   -43.296
 1.700000  0.193914   -94.804  7.659763   128.356  0.080574   -16.078  0.201450   -45.830
 1.800000  0.199925   -98.448  7.564386   125.601  0.079605   -16.934  0.205675   -48.606
 1.900000  0.205053  -101.614  7.449144   122.724  0.078512   -17.868  0.210202   -51.366
 2.000000  0.211996  -105.022  7.325844   120.078  0.077389   -18.773  0.214782   -54.345
 2.200000  0.224421  -111.112  7.104505   114.876  0.075049   -20.418  0.225637   -60.104
 2.400000  0.240139  -116.472  6.856420   109.651  0.072516   -21.999  0.238087   -65.764
 2.600000  0.255626  -121.309  6.624155   104.777  0.069852   -23.432  0.250577   -71.367
 2.800000  0.268802  -126.171  6.402039    99.837  0.067106   -24.747  0.264001   -76.843
 3.000000  0.283316  -130.241  6.165383    95.190  0.064205   -25.930  0.277637   -82.140
 3.500000  0.317007  -139.900  5.614739    83.895  0.056569   -28.141  0.313612   -94.410
 4.000000  0.347596  -148.233  5.111254    73.352  0.048573   -28.961  0.347707  -105.788
 4.500000  0.379182  -155.790  4.651894    63.407  0.040516   -27.423  0.382254  -117.195
 5.000000  0.409604  -163.130  4.240953    53.808  0.032997   -21.932  0.418640  -128.390
 5.500000  0.439742  -170.112  3.865189    44.648  0.027180    -9.965  0.455648  -138.806
 6.000000  0.469848  -176.606  3.523642    35.662  0.025082     8.577  0.494050  -148.609
!
!  f       Fmin   Gammaopt  rn/50
! GHz       dB    MAG  ANG    -
 0.450      1.02  0.04   44   0.14
 0.900      1.03  0.07   73   0.16
 1.800      1.06  0.09   84   0.20
 2.400      1.11  0.11   92   0.26
 3.000      1.18  0.14  132   0.22
 5.500      1.82  0.18  160   0.17
!
! (c) 2009  Infineon Technologies AG, Munich
