!    Infineon Technologies AG
!    BGB741L7ESD 
!    Vce = 1.8V, Ic = 20.0mA
!    DATUM: 30.06.2009 10:08:22
# GHz   S   MA   R  50
!f                S11                 S21                 S12                 S22
!GHz            Mag  Ang            Mag  Ang            Mag  Ang            Mag  Ang
 0.050000  0.330148  -119.236 15.906093   157.137  0.055848    16.607  0.318768  -104.770
 0.060000  0.325829  -129.097 15.143993   158.698  0.056551    13.587  0.282218  -112.370
 0.070000  0.304548  -133.993 14.651306   160.556  0.056932    11.814  0.257021  -119.031
 0.080000  0.288766  -138.937 14.323230   161.921  0.057571    10.348  0.238896  -124.706
 0.090000  0.287147  -142.269 14.158154   162.916  0.057615     9.201  0.225094  -129.829
 0.100000  0.279244  -146.146 13.908143   163.747  0.057724     8.137  0.214354  -134.227
 0.110000  0.279362  -149.023 13.789292   164.412  0.057862     7.234  0.206165  -138.307
 0.120000  0.275410  -151.003 13.706570   164.971  0.057921     6.608  0.199855  -141.862
 0.130000  0.275514  -153.564 13.621238   165.519  0.057919     5.982  0.194626  -145.051
 0.140000  0.270485  -155.801 13.539482   165.850  0.058117     5.541  0.190204  -148.111
 0.150000  0.269753  -156.806 13.480871   166.110  0.058060     5.025  0.186765  -150.682
 0.200000  0.265680  -161.994 13.327806   166.389  0.058111     3.337  0.176401  -161.371
 0.250000  0.262421  -166.177 13.244277   166.031  0.058192     2.268  0.170743  -169.220
 0.300000  0.264532  -168.237 13.155841   165.232  0.058177     1.533  0.167687  -175.519
 0.350000  0.263205  -170.185 13.111808   164.257  0.058029     0.925  0.165993   179.126
 0.400000  0.263368  -171.395 13.065792   162.882  0.057984     0.403  0.164321   174.627
 0.450000  0.265576  -172.652 13.001657   161.598  0.057878    -0.085  0.162934   170.357
 0.500000  0.266361  -173.447 12.956429   160.186  0.057721    -0.426  0.161792   166.268
 0.600000  0.269105  -175.242 12.846133   157.323  0.057464    -1.079  0.159495   159.313
 0.700000  0.271603  -176.474 12.751828   154.261  0.057267    -1.635  0.157141   152.679
 0.800000  0.273089  -177.589 12.618917   151.236  0.056963    -2.053  0.153293   146.709
 0.900000  0.275111  -178.546 12.485535   148.177  0.056639    -2.519  0.150289   140.465
 1.000000  0.277832  -179.056 12.348254   145.130  0.056316    -2.826  0.146199   134.975
 1.100000  0.281256   179.503 12.193598   141.989  0.055954    -3.224  0.142753   129.223
 1.200000  0.282889   178.687 12.008886   138.880  0.055587    -3.535  0.137289   123.964
 1.300000  0.286513   177.979 11.842100   135.910  0.055138    -3.799  0.132196   118.451
 1.400000  0.288179   177.441 11.670413   132.915  0.054710    -3.946  0.125669   113.325
 1.500000  0.289573   176.491 11.490774   129.856  0.054291    -4.243  0.119719   107.519
 1.600000  0.291760   175.688 11.270089   126.956  0.053801    -4.435  0.112052   101.989
 1.700000  0.293087   175.266 11.078774   124.100  0.053339    -4.624  0.105236    95.761
 1.800000  0.296174   174.803 10.892913   121.264  0.052822    -4.691  0.097202    89.696
 1.900000  0.298319   174.028 10.692137   118.353  0.052329    -4.785  0.089709    82.604
 2.000000  0.300252   173.544 10.469058   115.640  0.051795    -4.834  0.081286    75.413
 2.200000  0.304587   172.932 10.069464   110.390  0.050696    -4.836  0.066057    57.107
 2.400000  0.308075   172.307  9.646856   105.165  0.049494    -4.748  0.054642    31.473
 2.600000  0.313365   171.997  9.249847   100.247  0.048325    -4.407  0.051440     0.138
 2.800000  0.319022   171.122  8.869323    95.358  0.047126    -3.960  0.058481   -28.700
 3.000000  0.323001   170.930  8.482893    90.798  0.045853    -3.200  0.072785   -50.008
 3.500000  0.338596   169.495  7.605308    79.934  0.042936    -0.413  0.122208   -80.694
 4.000000  0.353722   167.614  6.842433    69.848  0.040517     3.988  0.172789   -98.545
 4.500000  0.373122   165.353  6.176429    60.363  0.039100    10.061  0.222090  -113.384
 5.000000  0.396186   162.616  5.593605    51.301  0.039105    16.990  0.272000  -126.548
 5.500000  0.419199   159.217  5.075556    42.601  0.040758    23.966  0.321861  -137.926
 6.000000  0.445066   155.714  4.614666    34.097  0.044114    29.760  0.372514  -148.233
!
!                    Infineon Technologies AG
