!    Infineon Technologies AG
!    BGB741L7ESD 
!    Vce = 3.0V, Ic = 10.0mA
!    DATUM: 30.06.2009 10:00:07
# GHz   S   MA   R  50
!f                S11                 S21                 S12                 S22
!GHz            Mag  Ang            Mag  Ang            Mag  Ang            Mag  Ang
 0.050000  0.311331   -76.896 12.726068   160.488  0.070414    19.991  0.335617   -67.776
 0.060000  0.267568   -84.841 12.215639   161.644  0.071834    16.570  0.284634   -70.256
 0.070000  0.236852   -86.718 11.832203   163.169  0.072810    14.214  0.246706   -72.236
 0.080000  0.206469   -88.569 11.582394   164.215  0.073302    12.203  0.217065   -73.373
 0.090000  0.193992   -93.225 11.473240   165.141  0.073654    10.841  0.193161   -74.419
 0.100000  0.172236   -94.454 11.277039   165.718  0.073818     9.588  0.173955   -74.871
 0.110000  0.160540   -98.199 11.200252   166.298  0.074156     8.586  0.157967   -75.361
 0.120000  0.153051   -98.566 11.134593   166.759  0.074323     7.733  0.144919   -75.571
 0.130000  0.143591  -102.587 11.079658   167.204  0.074475     6.947  0.133648   -75.714
 0.140000  0.133142  -103.268 11.008159   167.455  0.074542     6.352  0.123538   -75.719
 0.150000  0.130368  -105.985 10.965866   167.666  0.074590     5.747  0.115203   -75.650
 0.200000  0.112692  -110.572 10.862083   167.818  0.074857     3.631  0.084950   -74.744
 0.250000  0.097382  -115.749 10.795032   167.462  0.074942     2.075  0.065862   -72.324
 0.300000  0.095307  -119.173 10.736501   166.647  0.074858     0.998  0.052658   -68.909
 0.350000  0.090725  -122.765 10.713595   165.641  0.074860     0.021  0.043090   -64.763
 0.400000  0.089809  -124.331 10.675460   164.383  0.074743    -0.737  0.036721   -59.538
 0.450000  0.091231  -126.448 10.648817   163.117  0.074625    -1.545  0.031531   -52.494
 0.500000  0.093615  -127.840 10.615917   161.826  0.074515    -2.178  0.027729   -43.543
 0.600000  0.097543  -131.120 10.548177   159.058  0.074192    -3.390  0.025064   -26.857
 0.700000  0.101416  -133.194 10.493098   156.177  0.073864    -4.365  0.026141   -11.139
 0.800000  0.107175  -134.316 10.401294   153.331  0.073418    -5.330  0.029814    -2.547
 0.900000  0.113193  -135.720 10.315318   150.395  0.072922    -6.308  0.034624     3.429
 1.000000  0.119450  -136.966 10.233523   147.502  0.072468    -7.174  0.039503     4.017
 1.100000  0.126038  -139.300 10.132085   144.495  0.071884    -8.032  0.044235     4.629
 1.200000  0.131963  -140.455 10.006888   141.513  0.071291    -8.821  0.048869     1.822
 1.300000  0.139901  -142.469  9.897993   138.663  0.070581    -9.626  0.053736    -0.772
 1.400000  0.146536  -143.144  9.782486   135.776  0.069909   -10.325  0.058615    -5.077
 1.500000  0.151988  -144.370  9.656992   132.790  0.069179   -11.111  0.064005    -8.379
 1.600000  0.158795  -145.815  9.502187   129.970  0.068370   -11.838  0.069236   -13.198
 1.700000  0.165924  -146.634  9.368917   127.190  0.067544   -12.499  0.075114   -17.236
 1.800000  0.173484  -147.977  9.238898   124.428  0.066717   -13.063  0.080731   -22.077
 1.900000  0.179636  -149.139  9.093595   121.549  0.065814   -13.718  0.087163   -26.520
 2.000000  0.185520  -150.345  8.929677   118.880  0.064913   -14.358  0.093136   -31.516
 2.200000  0.199808  -152.183  8.639800   113.679  0.062951   -15.337  0.107007   -40.646
 2.400000  0.213902  -153.913  8.319630   108.491  0.060873   -16.321  0.122680   -49.283
 2.600000  0.228478  -155.456  8.022402   103.601  0.058723   -17.089  0.138582   -57.258
 2.800000  0.241929  -157.542  7.728727    98.711  0.056588   -17.745  0.155573   -64.775
 3.000000  0.254971  -159.103  7.428339    94.068  0.054234   -18.118  0.172474   -71.635
 3.500000  0.286177  -163.558  6.737025    82.971  0.048302   -18.138  0.217317   -86.702
 4.000000  0.315320  -168.102  6.108484    72.610  0.042321   -16.192  0.259595   -99.655
 4.500000  0.345246  -172.704  5.546311    62.837  0.036876   -11.327  0.301212  -112.311
 5.000000  0.375402  -177.634  5.048832    53.444  0.032706    -2.921  0.343810  -124.421
 5.500000  0.406124   177.293  4.599975    44.463  0.030793     9.134  0.386998  -135.467
 6.000000  0.436049   171.881  4.192877    35.661  0.032076    22.008  0.431486  -145.735
!
!  f       Fmin   Gammaopt  rn/50 
! GHz       dB    MAG  ANG    -
 0.450      0.98  0.04  152   0.13
 0.900      1.00  0.06  126   0.13
 1.800      1.04  0.08  120   0.22
 2.400      1.07  0.10  119   0.29
 3.000      1.12  0.12  135   0.20
 5.500      1.75  0.17  172   0.16
!
! (c) 2009  Infineon Technologies AG, Munich

