!    Infineon Technologies AG
!    BGB741L7ESD 
!    Vce = 3.5V, Ic = 20.0mA
!    DATUM: 30.06.2009 10:09:40
# GHz   S   MA   R  50
!f                S11                 S21                 S12                 S22
!GHz            Mag  Ang            Mag  Ang            Mag  Ang            Mag  Ang
 0.050000  0.327665  -117.610 15.795300   157.322  0.056171    17.009  0.311536  -102.854
 0.060000  0.314872  -128.384 15.042842   158.912  0.056987    13.985  0.274455  -110.379
 0.070000  0.295599  -133.313 14.558739   160.773  0.057469    12.059  0.248723  -116.953
 0.080000  0.277529  -138.132 14.237136   162.145  0.057708    10.555  0.229694  -122.630
 0.090000  0.280819  -141.789 14.075668   163.138  0.057913     9.406  0.215566  -127.807
 0.100000  0.270804  -145.975 13.829116   163.982  0.058087     8.169  0.204275  -132.259
 0.110000  0.268984  -148.149 13.713896   164.651  0.058196     7.335  0.196093  -136.394
 0.120000  0.263780  -150.373 13.637968   165.212  0.058504     6.666  0.189166  -140.033
 0.130000  0.265591  -152.791 13.552950   165.773  0.058444     6.121  0.183729  -143.372
 0.140000  0.259322  -155.481 13.471115   166.106  0.058423     5.561  0.179251  -146.532
 0.150000  0.259515  -156.366 13.416190   166.363  0.058449     5.142  0.175675  -149.285
 0.200000  0.256518  -161.490 13.270483   166.693  0.058494     3.326  0.164672  -160.469
 0.250000  0.252783  -165.610 13.183610   166.412  0.058561     2.235  0.159040  -168.890
 0.300000  0.253161  -167.801 13.100769   165.626  0.058543     1.408  0.155868  -175.710
 0.350000  0.252715  -170.188 13.069312   164.665  0.058444     0.714  0.154468   178.454
 0.400000  0.252771  -171.746 13.023574   163.370  0.058410     0.187  0.152987   173.565
 0.450000  0.255344  -172.590 12.969205   162.107  0.058274    -0.279  0.151931   168.890
 0.500000  0.255822  -173.615 12.921696   160.805  0.058163    -0.682  0.151246   164.397
 0.600000  0.258253  -175.341 12.826925   157.989  0.057914    -1.443  0.149735   156.775
 0.700000  0.260012  -176.737 12.742597   155.025  0.057660    -1.989  0.148467   149.455
 0.800000  0.261472  -177.873 12.619381   152.064  0.057311    -2.508  0.145839   142.792
 0.900000  0.263093  -178.969 12.493913   149.085  0.057022    -2.999  0.144238   135.931
 1.000000  0.265542  -179.737 12.376956   146.115  0.056688    -3.410  0.141486   129.803
 1.100000  0.268562   179.036 12.229834   143.046  0.056285    -3.873  0.139559   123.465
 1.200000  0.269234   178.072 12.059876   140.003  0.055934    -4.273  0.135713   117.541
 1.300000  0.273115   177.248 11.907625   137.092  0.055464    -4.577  0.132363   111.400
 1.400000  0.273875   176.720 11.749632   134.158  0.055032    -4.837  0.127595   105.542
 1.500000  0.274755   175.716 11.582716   131.140  0.054597    -5.122  0.123544    99.105
 1.600000  0.276798   174.912 11.378385   128.287  0.054077    -5.404  0.117906    92.837
 1.700000  0.278364   174.505 11.200446   125.456  0.053550    -5.649  0.113283    85.907
 1.800000  0.279784   174.098 11.024426   122.666  0.053052    -5.809  0.107435    79.161
 1.900000  0.281479   173.416 10.834538   119.784  0.052505    -6.020  0.102508    71.545
 2.000000  0.283585   173.065 10.622344   117.105  0.051915    -6.124  0.096628    63.881
 2.200000  0.286954   172.496 10.238706   111.861  0.050732    -6.290  0.087119    46.166
 2.400000  0.290553   172.111  9.835301   106.645  0.049469    -6.412  0.081254    25.211
 2.600000  0.294396   171.938  9.449298   101.774  0.048147    -6.258  0.080551     3.231
 2.800000  0.299284   171.401  9.076875    96.882  0.046765    -5.926  0.086111   -17.517
 3.000000  0.303206   171.258  8.699563    92.305  0.045341    -5.413  0.096738   -35.164
 3.500000  0.317893   170.393  7.832119    81.396  0.041869    -2.934  0.137776   -66.747
 4.000000  0.334111   168.836  7.071246    71.227  0.038865     1.476  0.183569   -87.045
 4.500000  0.353855   166.993  6.401561    61.688  0.036776     7.951  0.229421  -103.715
 5.000000  0.378055   164.386  5.812157    52.542  0.036229    15.944  0.276639  -118.312
 5.500000  0.403176   161.269  5.285362    43.766  0.037563    24.171  0.324871  -130.844
 6.000000  0.428920   157.704  4.815418    35.167  0.040862    31.197  0.374350  -142.089
!
!                    Infineon Technologies AG
