!    Infineon Technologies AG
!    BGB741L7ESD 
!    Vce = 1.8V, Ic = 25.0mA
!    DATUM: 30.06.2009 10:08:30
# GHz   S   MA   R  50
!f                S11                 S21                 S12                 S22
!GHz            Mag  Ang            Mag  Ang            Mag  Ang            Mag  Ang
 0.050000  0.359590  -128.379 16.685583   156.334  0.051723    15.762  0.330029  -113.587
 0.060000  0.354353  -138.006 15.848385   158.011  0.052324    13.150  0.298846  -121.593
 0.070000  0.341481  -142.390 15.336594   159.931  0.052832    11.393  0.278855  -128.343
 0.080000  0.331535  -146.503 14.989428   161.350  0.053143     9.990  0.264079  -134.030
 0.090000  0.334712  -149.165 14.808351   162.347  0.053343     8.629  0.253291  -139.024
 0.100000  0.324213  -152.712 14.544934   163.246  0.053335     7.677  0.245037  -143.180
 0.110000  0.325394  -155.132 14.415286   163.926  0.053547     6.963  0.239086  -146.965
 0.120000  0.323023  -156.941 14.332895   164.515  0.053551     6.296  0.234225  -150.228
 0.130000  0.324227  -159.070 14.238105   165.068  0.053741     5.836  0.230288  -153.115
 0.140000  0.320083  -161.028 14.150257   165.454  0.053621     5.288  0.227371  -155.850
 0.150000  0.319957  -162.027 14.089840   165.700  0.053713     4.906  0.224767  -158.150
 0.200000  0.316967  -165.852 13.923723   165.955  0.053755     3.362  0.217468  -167.449
 0.250000  0.314976  -170.117 13.838974   165.610  0.053862     2.419  0.213335  -174.296
 0.300000  0.316759  -171.400 13.737852   164.751  0.053651     1.746  0.210951  -179.765
 0.350000  0.317313  -173.252 13.695639   163.713  0.053589     1.189  0.209550   175.499
 0.400000  0.316717  -174.347 13.640051   162.338  0.053620     0.730  0.208027   171.465
 0.450000  0.318813  -175.534 13.570064   160.993  0.053449     0.412  0.206452   167.582
 0.500000  0.319834  -176.569 13.516032   159.562  0.053319     0.153  0.205410   163.879
 0.600000  0.322205  -178.172 13.388737   156.613  0.053153    -0.406  0.202623   157.452
 0.700000  0.323043  -179.469 13.276726   153.482  0.052935    -0.763  0.199643   151.229
 0.800000  0.324280   179.401 13.126440   150.368  0.052638    -1.022  0.195138   145.554
 0.900000  0.325691   178.383 12.973031   147.277  0.052387    -1.346  0.191376   139.651
 1.000000  0.328292   177.502 12.823864   144.126  0.052133    -1.524  0.186201   134.433
 1.100000  0.331093   176.274 12.640700   140.929  0.051795    -1.684  0.181697   129.011
 1.200000  0.330917   175.215 12.435605   137.783  0.051509    -1.944  0.175392   123.912
 1.300000  0.334074   174.414 12.249598   134.734  0.051174    -2.016  0.169198   118.678
 1.400000  0.335824   173.763 12.061501   131.694  0.050817    -2.064  0.161596   113.736
 1.500000  0.335773   172.718 11.858763   128.583  0.050438    -2.143  0.154466   108.367
 1.600000  0.337388   171.837 11.621612   125.650  0.050027    -2.199  0.145585   103.213
 1.700000  0.338044   171.402 11.410049   122.751  0.049627    -2.216  0.137521    97.559
 1.800000  0.340177   170.843 11.202732   119.890  0.049274    -2.127  0.128310    92.159
 1.900000  0.341538   170.009 10.986054   116.958  0.048850    -2.084  0.119393    86.038
 2.000000  0.342728   169.446 10.743862   114.223  0.048409    -2.036  0.109558    79.912
 2.200000  0.344948   168.541 10.309982   108.921  0.047524    -1.727  0.090889    65.283
 2.400000  0.346979   167.972  9.859950   103.655  0.046570    -1.382  0.074211    45.959
 2.600000  0.350220   167.567  9.432162    98.750  0.045613    -0.786  0.062872    20.929
 2.800000  0.354176   166.728  9.026760    93.872  0.044670    -0.030  0.060515    -8.715
 3.000000  0.357188   166.369  8.618320    89.311  0.043706     1.007  0.068181   -34.822
 3.500000  0.368107   165.006  7.696301    78.484  0.041484     4.439  0.112432   -74.670
 4.000000  0.380827   163.185  6.902919    68.421  0.039933     9.285  0.163119   -95.614
 4.500000  0.397134   161.097  6.214185    59.027  0.039470    15.347  0.213390  -111.813
 5.000000  0.418466   158.355  5.617125    50.026  0.040403    21.826  0.264352  -125.664
 5.500000  0.440217   155.276  5.087325    41.420  0.042869    27.811  0.315242  -137.440
 6.000000  0.463820   152.015  4.618775    32.948  0.046760    32.434  0.366692  -147.968
!
!                    Infineon Technologies AG
