!    Infineon Technologies AG
!    BGB741L7ESD 
!    Vce = 2.5V, Ic = 15.0mA
!    DATUM: 30.06.2009 10:08:53
# GHz   S   MA   R  50
!f                S11                 S21                 S12                 S22
!GHz            Mag  Ang            Mag  Ang            Mag  Ang            Mag  Ang
 0.050000  0.306764  -103.331 14.684475   158.419  0.061585    18.075  0.311295   -89.945
 0.060000  0.283722  -113.762 14.032961   159.847  0.062496    15.002  0.266922   -96.012
 0.070000  0.256441  -118.443 13.577563   161.587  0.063246    12.792  0.235001  -101.490
 0.080000  0.235875  -123.808 13.277778   162.846  0.063573    10.925  0.210477  -106.217
 0.090000  0.233408  -128.125 13.134438   163.805  0.063843     9.644  0.191531  -110.788
 0.100000  0.213718  -132.262 12.911303   164.538  0.063977     8.684  0.176548  -114.742
 0.110000  0.215993  -136.089 12.806584   165.183  0.064347     7.799  0.164382  -118.686
 0.120000  0.211616  -137.967 12.730605   165.721  0.064336     6.954  0.154618  -122.164
 0.130000  0.206092  -141.196 12.655608   166.213  0.064430     6.303  0.146374  -125.433
 0.140000  0.200111  -142.750 12.577037   166.526  0.064434     5.760  0.139265  -128.691
 0.150000  0.200498  -145.181 12.527701   166.765  0.064474     5.230  0.133622  -131.567
 0.200000  0.191388  -151.560 12.395710   167.045  0.064673     3.429  0.115147  -144.503
 0.250000  0.185960  -156.608 12.315789   166.659  0.064676     2.189  0.104825  -154.948
 0.300000  0.186291  -159.098 12.243587   165.904  0.064599     1.223  0.099038  -163.863
 0.350000  0.186597  -162.006 12.208691   164.932  0.064537     0.410  0.095870  -171.647
 0.400000  0.185317  -163.471 12.165702   163.642  0.064440    -0.206  0.093398  -178.027
 0.450000  0.187808  -164.814 12.122616   162.355  0.064297    -0.781  0.091632   175.829
 0.500000  0.188465  -165.610 12.080488   161.033  0.064250    -1.285  0.090563   169.817
 0.600000  0.191445  -167.562 11.986574   158.283  0.063958    -2.182  0.088883   160.057
 0.700000  0.195122  -168.753 11.915317   155.290  0.063666    -2.957  0.087720   150.752
 0.800000  0.197495  -169.524 11.804631   152.362  0.063272    -3.630  0.085552   142.551
 0.900000  0.201220  -170.475 11.693974   149.390  0.062903    -4.310  0.084561   134.040
 1.000000  0.204112  -170.828 11.585197   146.438  0.062500    -4.812  0.082577   126.587
 1.100000  0.209655  -171.944 11.453494   143.380  0.062025    -5.456  0.081569   118.873
 1.200000  0.212200  -172.843 11.300940   140.331  0.061576    -6.003  0.078589   111.731
 1.300000  0.217149  -173.417 11.160364   137.440  0.061037    -6.531  0.076404   104.089
 1.400000  0.220295  -173.759 11.013463   134.513  0.060477    -6.961  0.072947    96.690
 1.500000  0.222983  -174.509 10.860968   131.497  0.059926    -7.434  0.070427    88.328
 1.600000  0.226064  -175.140 10.672471   128.650  0.059283    -7.821  0.066426    79.784
 1.700000  0.230427  -175.500 10.511514   125.834  0.058644    -8.190  0.063936    70.267
 1.800000  0.234997  -175.874 10.352250   123.030  0.058049    -8.536  0.060521    60.363
 1.900000  0.237997  -176.453 10.175093   120.164  0.057355    -8.867  0.058571    49.223
 2.000000  0.241250  -176.830  9.976192   117.480  0.056631    -9.201  0.056325    37.491
 2.200000  0.248938  -177.382  9.624528   112.246  0.055195    -9.607  0.056578    12.045
 2.400000  0.256495  -177.804  9.253093   107.038  0.053681    -9.981  0.063377   -12.308
 2.600000  0.264942  -178.117  8.894886   102.190  0.052023   -10.149  0.074843   -31.606
 2.800000  0.273087  -178.843  8.550764    97.254  0.050344   -10.118  0.090215   -46.965
 3.000000  0.281069  -179.107  8.201828    92.685  0.048628    -9.862  0.107496   -59.100
 3.500000  0.302789   178.935  7.395462    81.702  0.044352    -8.110  0.155856   -80.955
 4.000000  0.324558   176.521  6.680486    71.501  0.040456    -4.489  0.203161   -96.701
 4.500000  0.347776   173.854  6.051295    61.900  0.037330     1.600  0.249138  -110.829
 5.000000  0.374948   170.296  5.495899    52.696  0.035718     9.756  0.295926  -123.808
 5.500000  0.401333   166.435  4.998189    43.869  0.036123    18.897  0.343252  -135.280
 6.000000  0.429174   162.374  4.553149    35.258  0.038755    27.281  0.391560  -145.763
!
!                    Infineon Technologies AG
