!    Infineon Technologies AG
!    BGB741L7ESD 
!    Vce = 3.5V, Ic = 15.0mA
!    DATUM: 30.06.2009 10:09:32
# GHz   S   MA   R  50
!f                S11                 S21                 S12                 S22
!GHz            Mag  Ang            Mag  Ang            Mag  Ang            Mag  Ang
 0.050000  0.304132  -103.107 14.619698   158.482  0.061736    17.911  0.308652   -89.077
 0.060000  0.279198  -113.270 13.957167   159.931  0.062773    15.140  0.263907   -94.927
 0.070000  0.248384  -117.344 13.515062   161.671  0.063255    12.755  0.232044  -100.332
 0.080000  0.232987  -122.876 13.223199   162.920  0.063720    11.126  0.207457  -104.988
 0.090000  0.230793  -127.226 13.077245   163.904  0.064043     9.845  0.188084  -109.414
 0.100000  0.213135  -131.199 12.853770   164.630  0.064225     8.788  0.172667  -113.291
 0.110000  0.211407  -135.188 12.753594   165.281  0.064376     7.842  0.160496  -117.156
 0.120000  0.204820  -137.107 12.679435   165.806  0.064503     7.076  0.150486  -120.632
 0.130000  0.204047  -140.700 12.605794   166.318  0.064657     6.394  0.142129  -123.885
 0.140000  0.196084  -143.115 12.529386   166.638  0.064665     5.850  0.134952  -127.228
 0.150000  0.195925  -144.867 12.478549   166.869  0.064645     5.303  0.129104  -130.057
 0.200000  0.187437  -150.776 12.348258   167.152  0.064865     3.338  0.110026  -143.215
 0.250000  0.180858  -156.374 12.269772   166.818  0.064892     2.060  0.099324  -154.137
 0.300000  0.181596  -159.134 12.201261   166.041  0.064808     1.151  0.093423  -163.580
 0.350000  0.181552  -161.805 12.167500   165.081  0.064806     0.376  0.090227  -171.958
 0.400000  0.181002  -163.383 12.128696   163.808  0.064686    -0.331  0.087938  -178.728
 0.450000  0.183977  -164.556 12.083256   162.544  0.064527    -0.879  0.086176   174.611
 0.500000  0.184257  -165.503 12.045053   161.238  0.064451    -1.407  0.085330   168.112
 0.600000  0.188193  -167.315 11.958042   158.519  0.064133    -2.313  0.084208   157.525
 0.700000  0.189772  -168.546 11.887918   155.559  0.063836    -3.161  0.083656   147.553
 0.800000  0.193024  -169.377 11.782276   152.651  0.063447    -3.824  0.082375   138.610
 0.900000  0.195586  -170.351 11.670855   149.702  0.063103    -4.553  0.082242   129.486
 1.000000  0.199830  -170.574 11.568008   146.771  0.062709    -5.132  0.081162   121.487
 1.100000  0.204032  -171.946 11.444362   143.727  0.062203    -5.779  0.081199   113.429
 1.200000  0.206383  -172.543 11.292090   140.721  0.061720    -6.384  0.079306   105.782
 1.300000  0.211821  -173.315 11.158107   137.842  0.061185    -6.895  0.078296    97.826
 1.400000  0.215106  -173.557 11.017772   134.939  0.060638    -7.354  0.075884    90.034
 1.500000  0.216971  -174.358 10.869826   131.941  0.060055    -7.872  0.074750    81.562
 1.600000  0.220396  -175.038 10.685167   129.100  0.059450    -8.299  0.072029    72.940
 1.700000  0.224528  -175.197 10.528083   126.309  0.058741    -8.771  0.070979    63.632
 1.800000  0.228304  -175.607 10.370461   123.513  0.058121    -9.083  0.069005    54.223
 1.900000  0.231874  -176.103 10.198070   120.649  0.057377    -9.468  0.068405    44.083
 2.000000  0.235856  -176.558 10.006732   117.967  0.056691    -9.842  0.067373    33.602
 2.200000  0.243532  -177.061  9.661725   112.761  0.055138   -10.353  0.069244    11.933
 2.400000  0.250486  -177.308  9.294057   107.542  0.053563   -10.805  0.076177    -8.974
 2.600000  0.258630  -177.359  8.938623   102.669  0.051907   -11.022  0.086891   -26.234
 2.800000  0.267123  -178.319  8.602565    97.785  0.050184   -11.084  0.100982   -40.864
 3.000000  0.274643  -178.523  8.253160    93.237  0.048354   -10.856  0.117035   -52.902
 3.500000  0.296674   179.775  7.457101    82.219  0.043889    -9.244  0.163015   -75.537
 4.000000  0.319201   177.473  6.744520    71.967  0.039636    -5.681  0.208779   -92.079
 4.500000  0.343195   174.847  6.115003    62.347  0.036242     0.515  0.253591  -106.834
 5.000000  0.370638   171.196  5.561369    53.109  0.034326     9.182  0.299315  -120.320
 5.500000  0.398135   167.317  5.061300    44.253  0.034617    19.091  0.345836  -132.227
 6.000000  0.426628   163.208  4.614116    35.548  0.037216    28.242  0.393598  -143.098
!
!                    Infineon Technologies AG
