!    Infineon Technologies AG
!    BGB741L7ESD 
!    Vce = 3.0V, Ic = 6.0mA
!    DATUM: 30.06.2009 09:59:59
# GHz   S   MA   R  50
!f                S11                 S21                 S12                 S22
!GHz            Mag  Ang            Mag  Ang            Mag  Ang            Mag  Ang
 0.050000  0.387215   -48.654 10.037638   163.293  0.081826    22.574  0.420185   -44.812
 0.060000  0.338474   -51.694  9.721814   164.158  0.083888    19.095  0.371699   -44.344
 0.070000  0.303260   -50.166  9.425513   165.340  0.085164    16.161  0.335389   -43.453
 0.080000  0.279910   -47.753  9.239937   166.183  0.086319    14.142  0.309084   -42.187
 0.090000  0.260631   -49.767  9.172273   167.016  0.086776    12.460  0.287735   -40.778
 0.100000  0.239287   -47.644  9.022460   167.364  0.087309    11.008  0.271728   -39.216
 0.110000  0.227123   -46.659  8.969125   167.848  0.087619     9.929  0.258665   -37.804
 0.120000  0.219044   -46.126  8.920811   168.227  0.087821     8.840  0.248957   -36.441
 0.130000  0.208176   -45.460  8.885575   168.557  0.088120     8.007  0.240570   -35.164
 0.140000  0.200552   -43.664  8.831267   168.703  0.088216     7.240  0.233250   -33.881
 0.150000  0.194958   -44.096  8.802334   168.871  0.088391     6.574  0.227983   -32.801
 0.200000  0.180005   -41.271  8.728955   168.875  0.088685     4.059  0.209237   -28.528
 0.250000  0.168629   -38.533  8.676034   168.308  0.088936     2.330  0.199780   -25.661
 0.300000  0.164313   -39.349  8.635633   167.513  0.088931     1.035  0.194316   -23.790
 0.350000  0.160049   -39.478  8.618928   166.500  0.088878    -0.145  0.190503   -22.680
 0.400000  0.159237   -40.904  8.591417   165.289  0.088870    -1.097  0.188405   -22.209
 0.450000  0.156560   -42.623  8.580465   163.975  0.088776    -1.944  0.186477   -21.873
 0.500000  0.156305   -44.161  8.557070   162.732  0.088623    -2.794  0.185412   -21.720
 0.600000  0.154941   -48.105  8.509194   159.956  0.088294    -4.178  0.183903   -22.262
 0.700000  0.156797   -52.077  8.474867   157.123  0.087960    -5.488  0.183350   -23.143
 0.800000  0.158490   -56.462  8.412230   154.336  0.087447    -6.712  0.183750   -24.533
 0.900000  0.160045   -60.954  8.348965   151.481  0.086937    -7.955  0.184224   -25.885
 1.000000  0.164113   -65.420  8.292970   148.628  0.086396    -9.024  0.185669   -27.745
 1.100000  0.165895   -70.331  8.225285   145.675  0.085759   -10.220  0.186437   -29.581
 1.200000  0.169910   -74.160  8.136424   142.716  0.085059   -11.341  0.188542   -31.893
 1.300000  0.172854   -79.041  8.058709   139.913  0.084268   -12.355  0.190351   -34.103
 1.400000  0.178505   -82.938  7.973284   137.065  0.083462   -13.336  0.193185   -36.655
 1.500000  0.182629   -86.538  7.880496   134.109  0.082579   -14.379  0.195882   -38.915
 1.600000  0.187083   -90.635  7.768117   131.306  0.081552   -15.378  0.199224   -41.644
 1.700000  0.193676   -94.359  7.669169   128.545  0.080607   -16.382  0.202897   -44.137
 1.800000  0.199881   -97.775  7.572948   125.793  0.079610   -17.254  0.207143   -46.922
 1.900000  0.205520  -101.245  7.460083   122.947  0.078544   -18.216  0.211816   -49.639
 2.000000  0.211279  -104.642  7.338165   120.283  0.077367   -19.110  0.216419   -52.573
 2.200000  0.225129  -110.489  7.120113   115.088  0.074928   -20.829  0.227038   -58.264
 2.400000  0.239680  -115.810  6.872953   109.894  0.072412   -22.457  0.239496   -63.903
 2.600000  0.255042  -120.618  6.639736   105.029  0.069727   -23.893  0.251977   -69.483
 2.800000  0.268573  -125.750  6.423535   100.052  0.066968   -25.282  0.265596   -75.003
 3.000000  0.283198  -129.728  6.187332    95.405  0.063984   -26.470  0.278954   -80.314
 3.500000  0.316561  -139.523  5.639674    84.125  0.056234   -28.824  0.314816   -92.682
 4.000000  0.347952  -147.829  5.137218    73.532  0.048122   -29.787  0.349085  -104.154
 4.500000  0.378572  -155.538  4.677645    63.552  0.039902   -28.289  0.383509  -115.681
 5.000000  0.409269  -162.849  4.266450    53.934  0.032158   -22.670  0.419554  -126.973
 5.500000  0.440068  -169.839  3.891980    44.750  0.026192   -10.360  0.456689  -137.525
 6.000000  0.471038  -176.379  3.548263    35.740  0.024068     9.201  0.495081  -147.451
!
!  f       Fmin   Gammaopt  rn/50
! GHz       dB    MAG  ANG    -
 0.450      1.02  0.04   44   0.14
 0.900      1.03  0.07   73   0.16
 1.800      1.06  0.09   84   0.20
 2.400      1.11  0.11   92   0.26
 3.000      1.18  0.14  132   0.22
 5.500      1.82  0.18  160   0.17
!
! (c) 2009  Infineon Technologies AG, Munich
