!    Infineon Technologies AG
!    BGB741L7ESD 
!    Vce = 3.5V, Ic = 25.0mA
!    DATUM: 30.06.2009 10:09:47
# GHz   S   MA   R  50
!f                S11                 S21                 S12                 S22
!GHz            Mag  Ang            Mag  Ang            Mag  Ang            Mag  Ang
 0.050000  0.351547  -128.326 16.579470   156.565  0.052523    16.076  0.321202  -111.651
 0.060000  0.347134  -136.942 15.760659   158.272  0.052917    13.474  0.289517  -119.649
 0.070000  0.330874  -141.625 15.256336   160.226  0.053303    11.515  0.268533  -126.414
 0.080000  0.318813  -145.873 14.918882   161.642  0.053616    10.077  0.253085  -132.145
 0.090000  0.322264  -148.806 14.737357   162.661  0.053790     8.865  0.241997  -137.218
 0.100000  0.315279  -152.730 14.483173   163.569  0.053817     7.909  0.233516  -141.448
 0.110000  0.315153  -154.928 14.359056   164.251  0.053955     7.104  0.227118  -145.385
 0.120000  0.313588  -156.888 14.278656   164.850  0.054036     6.467  0.222028  -148.738
 0.130000  0.311851  -158.856 14.183419   165.409  0.054116     5.949  0.217966  -151.732
 0.140000  0.307985  -160.642 14.095421   165.805  0.054097     5.402  0.214663  -154.558
 0.150000  0.307222  -161.448 14.035745   166.077  0.054225     5.009  0.212033  -156.946
 0.200000  0.305809  -165.992 13.885041   166.372  0.054296     3.368  0.204413  -166.723
 0.250000  0.303955  -169.839 13.800733   166.112  0.054281     2.354  0.200377  -173.893
 0.300000  0.304408  -171.588 13.709479   165.308  0.054176     1.725  0.198242  -179.716
 0.350000  0.305369  -173.572 13.671297   164.349  0.054100     1.085  0.197061   175.228
 0.400000  0.303956  -174.727 13.622992   163.021  0.054072     0.616  0.195859   170.940
 0.450000  0.306013  -176.060 13.561327   161.736  0.053940     0.233  0.194781   166.815
 0.500000  0.306655  -176.782 13.510987   160.385  0.053833    -0.072  0.194159   162.891
 0.600000  0.308753  -178.707 13.401406   157.560  0.053615    -0.587  0.192261   156.011
 0.700000  0.309972   179.677 13.305702   154.547  0.053354    -1.048  0.190453   149.400
 0.800000  0.310262   178.508 13.171823   151.559  0.053102    -1.380  0.187227   143.297
 0.900000  0.311598   177.276 13.034472   148.583  0.052867    -1.819  0.184826   137.008
 1.000000  0.312773   176.228 12.903355   145.530  0.052589    -2.022  0.181241   131.374
 1.100000  0.315232   175.024 12.741238   142.472  0.052279    -2.258  0.178219   125.543
 1.200000  0.315098   173.875 12.558062   139.349  0.051974    -2.531  0.173530   120.036
 1.300000  0.317745   172.981 12.391032   136.411  0.051618    -2.696  0.169081   114.393
 1.400000  0.318415   172.343 12.216709   133.455  0.051246    -2.826  0.163177   109.014
 1.500000  0.317821   171.185 12.035010   130.403  0.050890    -2.954  0.157953   103.223
 1.600000  0.318151   170.401 11.814243   127.539  0.050459    -3.086  0.150994    97.560
 1.700000  0.318567   169.900 11.623156   124.696  0.050044    -3.216  0.145005    91.422
 1.800000  0.319731   169.264 11.431570   121.876  0.049676    -3.282  0.137742    85.472
 1.900000  0.319851   168.551 11.225692   118.992  0.049276    -3.334  0.131081    78.936
 2.000000  0.320216   168.001 10.997259   116.283  0.048779    -3.359  0.123422    72.407
 2.200000  0.321376   167.284 10.588479   111.062  0.047770    -3.198  0.109621    57.568
 2.400000  0.322294   166.708 10.160136   105.793  0.046745    -3.075  0.097905    39.790
 2.600000  0.323917   166.594  9.745077   100.900  0.045715    -2.638  0.090499    19.854
 2.800000  0.326508   165.911  9.350529    96.025  0.044597    -2.191  0.089060    -1.867
 3.000000  0.328144   165.993  8.948914    91.493  0.043385    -1.342  0.093878   -21.818
 3.500000  0.338207   164.955  8.042953    80.576  0.040688     1.672  0.127613   -59.614
 4.000000  0.350808   163.836  7.240839    70.470  0.038447     6.510  0.171942   -83.081
 4.500000  0.367677   162.246  6.545547    60.980  0.037327    12.955  0.217832  -101.379
 5.000000  0.389869   160.080  5.937457    51.894  0.037585    20.361  0.265526  -116.847
 5.500000  0.412576   157.260  5.393034    43.183  0.039594    27.570  0.314443  -129.872
 6.000000  0.437497   154.164  4.909874    34.640  0.043355    33.287  0.364849  -141.429
!
!                    Infineon Technologies AG
