!    Infineon Technologies AG
!    BGB741L7ESD 
!    Vce = 3.5V, Ic = 10.0mA
!    DATUM: 30.06.2009 10:09:24
# GHz   S   MA   R  50
!f                S11                 S21                 S12                 S22
!GHz            Mag  Ang            Mag  Ang            Mag  Ang            Mag  Ang
 0.050000  0.308665   -76.026 12.689778   160.516  0.070493    19.983  0.334672   -67.426
 0.060000  0.275745   -83.848 12.189700   161.680  0.071871    16.551  0.284074   -69.832
 0.070000  0.230528   -86.745 11.801839   163.212  0.072768    14.156  0.245903   -71.670
 0.080000  0.204221   -88.623 11.554103   164.265  0.073302    12.388  0.216424   -72.783
 0.090000  0.193635   -92.259 11.444285   165.182  0.073778    10.799  0.192763   -73.745
 0.100000  0.173790   -94.843 11.254764   165.761  0.073934     9.651  0.173445   -74.163
 0.110000  0.161512   -96.801 11.174472   166.342  0.074260     8.589  0.157533   -74.508
 0.120000  0.150466   -98.165 11.109445   166.806  0.074440     7.771  0.144559   -74.752
 0.130000  0.142245  -101.783 11.053474   167.242  0.074446     6.931  0.133273   -74.809
 0.140000  0.131365  -102.898 10.984131   167.524  0.074700     6.338  0.123144   -74.716
 0.150000  0.130719  -104.358 10.942137   167.714  0.074750     5.790  0.114948   -74.550
 0.200000  0.111172  -109.516 10.842955   167.877  0.074925     3.573  0.084790   -73.372
 0.250000  0.094583  -115.294 10.772135   167.450  0.074913     2.032  0.065737   -70.402
 0.300000  0.093686  -118.609 10.718288   166.713  0.074945     0.908  0.052692   -66.614
 0.350000  0.089969  -121.511 10.690450   165.701  0.074841    -0.017  0.043298   -62.068
 0.400000  0.089341  -123.291 10.654622   164.463  0.074789    -0.814  0.037046   -56.233
 0.450000  0.090609  -126.988 10.627768   163.191  0.074678    -1.566  0.032117   -48.553
 0.500000  0.091527  -126.743 10.593799   161.949  0.074572    -2.184  0.028575   -39.335
 0.600000  0.095996  -130.594 10.527257   159.206  0.074231    -3.382  0.026396   -22.466
 0.700000  0.099833  -132.667 10.475901   156.293  0.073930    -4.441  0.028170    -7.816
 0.800000  0.105844  -133.733 10.388798   153.455  0.073401    -5.437  0.032312    -0.001
 0.900000  0.111208  -135.423 10.301146   150.542  0.072971    -6.428  0.037385     5.440
 1.000000  0.118195  -136.615 10.218534   147.648  0.072503    -7.252  0.042433     6.080
 1.100000  0.124866  -138.782 10.120565   144.650  0.071908    -8.160  0.047387     6.529
 1.200000  0.130205  -140.068  9.998282   141.671  0.071305    -9.032  0.052291     3.597
 1.300000  0.138725  -141.808  9.892934   138.835  0.070580    -9.775  0.057340     1.134
 1.400000  0.144832  -142.574  9.777487   135.951  0.069925   -10.547  0.062221    -3.078
 1.500000  0.150524  -143.852  9.650942   132.971  0.069167   -11.290  0.067693    -6.267
 1.600000  0.156972  -145.418  9.498000   130.152  0.068321   -12.020  0.072926   -11.012
 1.700000  0.164279  -146.200  9.368898   127.386  0.067549   -12.728  0.078875   -14.996
 1.800000  0.171471  -147.363  9.238324   124.615  0.066697   -13.328  0.084454   -19.737
 1.900000  0.177558  -148.419  9.091903   121.762  0.065786   -13.980  0.090855   -24.214
 2.000000  0.184690  -149.698  8.929095   119.130  0.064844   -14.633  0.096931   -29.163
 2.200000  0.198152  -151.584  8.644144   113.907  0.062910   -15.648  0.110605   -38.242
 2.400000  0.212658  -153.257  8.329151   108.683  0.060824   -16.645  0.125906   -46.893
 2.600000  0.226758  -155.000  8.029069   103.822  0.058625   -17.470  0.141596   -54.930
 2.800000  0.239949  -157.206  7.742763    98.901  0.056408   -18.147  0.158391   -62.534
 3.000000  0.253819  -158.493  7.441254    94.320  0.054040   -18.584  0.175249   -69.527
 3.500000  0.284819  -163.081  6.750280    83.198  0.047983   -18.621  0.219490   -84.811
 4.000000  0.314588  -167.699  6.126050    72.817  0.041933   -16.717  0.261578   -97.973
 4.500000  0.344551  -172.212  5.566292    63.038  0.036357   -11.928  0.302728  -110.765
 5.000000  0.374926  -177.276  5.069335    53.647  0.032057    -3.240  0.345086  -123.047
 5.500000  0.405461   177.625  4.617190    44.649  0.030075     9.246  0.388129  -134.238
 6.000000  0.436095   172.223  4.209871    35.843  0.031330    22.474  0.432371  -144.628
!
!  f       Fmin   Gammaopt  rn/50 
! GHz       dB    MAG  ANG    -
 0.450      0.98  0.04  152   0.13
 0.900      1.00  0.06  126   0.13
 1.800      1.04  0.08  120   0.22
 2.400      1.07  0.10  119   0.29
 3.000      1.12  0.12  135   0.20
 5.500      1.75  0.17  172   0.16
!
! (c) 2009  Infineon Technologies AG, Munich

