!    Infineon Technologies AG
!    BGB741L7ESD 
!    Vce = 1.8V, Ic = 10.0mA
!    DATUM: 30.06.2009 10:08:07
# GHz   S   MA   R  50
!f                S11                 S21                 S12                 S22
!GHz            Mag  Ang            Mag  Ang            Mag  Ang            Mag  Ang
 0.050000  0.311320   -78.239 12.774189   160.446  0.070280    19.516  0.336833   -68.643
 0.060000  0.272511   -85.924 12.261354   161.597  0.071848    16.506  0.285789   -71.266
 0.070000  0.234815   -86.856 11.876663   163.118  0.072520    14.170  0.247592   -73.364
 0.080000  0.210494   -90.436 11.623422   164.188  0.073053    12.400  0.217954   -74.761
 0.090000  0.197022   -94.582 11.511871   165.103  0.073596    10.806  0.193846   -75.994
 0.100000  0.172853   -95.920 11.319349   165.661  0.073570     9.660  0.175084   -76.634
 0.110000  0.164739   -98.737 11.237227   166.228  0.073871     8.665  0.158910   -77.268
 0.120000  0.154537  -100.920 11.171804   166.682  0.074167     7.787  0.145882   -77.646
 0.130000  0.145323  -103.619 11.115815   167.124  0.074316     6.905  0.134597   -77.964
 0.140000  0.135638  -105.579 11.046067   167.362  0.074335     6.329  0.124292   -78.240
 0.150000  0.133506  -106.498 11.004282   167.565  0.074571     5.831  0.116061   -78.244
 0.200000  0.112722  -112.246 10.896946   167.689  0.074694     3.659  0.085915   -78.412
 0.250000  0.102178  -117.163 10.822889   167.237  0.074763     2.253  0.066899   -77.125
 0.300000  0.097411  -121.190 10.765089   166.442  0.074742     1.127  0.053896   -75.250
 0.350000  0.094385  -124.871 10.739549   165.425  0.074669     0.167  0.044231   -73.059
 0.400000  0.094537  -126.052 10.705046   164.173  0.074561    -0.582  0.037640   -69.782
 0.450000  0.096008  -128.767 10.672400   162.843  0.074472    -1.316  0.032018   -65.296
 0.500000  0.098213  -129.643 10.636429   161.545  0.074333    -1.922  0.027572   -58.928
 0.600000  0.100589  -132.686 10.563469   158.726  0.074034    -3.078  0.022812   -46.038
 0.700000  0.105982  -134.291 10.505058   155.792  0.073700    -4.028  0.021489   -30.422
 0.800000  0.112072  -135.731 10.413340   152.893  0.073236    -4.900  0.023379   -19.631
 0.900000  0.118172  -137.154 10.317695   149.934  0.072810    -5.909  0.026477   -11.132
 1.000000  0.125331  -138.176 10.227717   146.987  0.072361    -6.609  0.030310    -9.228
 1.100000  0.131824  -140.322 10.123292   143.937  0.071829    -7.477  0.033830    -7.622
 1.200000  0.137813  -141.673  9.991495   140.912  0.071201    -8.262  0.038058   -10.525
 1.300000  0.145849  -143.693  9.878906   138.022  0.070535    -8.947  0.042349   -12.673
 1.400000  0.153420  -144.390  9.752385   135.114  0.069892    -9.628  0.047015   -17.231
 1.500000  0.159049  -145.788  9.622702   132.100  0.069207   -10.307  0.052011   -20.341
 1.600000  0.165801  -147.400  9.462505   129.255  0.068365   -10.980  0.057167   -25.379
 1.700000  0.173300  -148.000  9.322496   126.458  0.067611   -11.587  0.062989   -29.336
 1.800000  0.179878  -149.258  9.184389   123.661  0.066813   -12.109  0.068834   -34.281
 1.900000  0.187350  -150.492  9.034652   120.802  0.065976   -12.715  0.075293   -38.555
 2.000000  0.193591  -151.572  8.865953   118.097  0.065067   -13.216  0.081735   -43.480
 2.200000  0.206987  -153.734  8.563269   112.873  0.063201   -14.130  0.096297   -52.222
 2.400000  0.222052  -155.297  8.239861   107.663  0.061255   -15.015  0.112971   -60.284
 2.600000  0.235740  -156.651  7.927183   102.827  0.059226   -15.647  0.129609   -67.700
 2.800000  0.248858  -159.090  7.632685    97.874  0.057111   -16.131  0.147249   -74.559
 3.000000  0.262495  -160.690  7.328864    93.270  0.054945   -16.354  0.165065   -80.837
 3.500000  0.292850  -165.110  6.624460    82.201  0.049349   -16.060  0.210898   -94.582
 4.000000  0.321454  -169.623  5.995452    71.882  0.043896   -13.878  0.253882  -106.570
 4.500000  0.350554  -174.145  5.434360    62.200  0.039005    -9.208  0.296335  -118.440
 5.000000  0.379754  -178.911  4.938172    52.892  0.035352    -1.525  0.339772  -129.879
 5.500000  0.409679   175.760  4.491716    43.971  0.033812     8.841  0.383472  -140.296
 6.000000  0.438417   170.474  4.091228    35.292  0.034938    19.786  0.428239  -150.011
!
!  f       Fmin   Gammaopt  rn/50 
! GHz       dB    MAG  ANG    -
 0.450      0.98  0.04  152   0.13
 0.900      1.00  0.06  126   0.13
 1.800      1.04  0.08  120   0.22
 2.400      1.07  0.10  119   0.29
 3.000      1.12  0.12  135   0.20
 5.500      1.75  0.17  172   0.16
!
! (c) 2009  Infineon Technologies AG, Munich

