<Qucs Dataset 0.0.19>
<indep Z0 1>
  +5.00000000000000000000e+01
</indep>
<indep Arcs.0001 64>
  +0.00000000000000000000e+00
  +5.71428571428571441260e+00
  +1.14285714285714288252e+01
  +1.71428571428571423496e+01
  +2.28571428571428576504e+01
  +2.85714285714285729512e+01
  +3.42857142857142846992e+01
  +4.00000000000000000000e+01
  +4.57142857142857153008e+01
  +5.14285714285714306016e+01
  +5.71428571428571459023e+01
  +6.28571428571428612031e+01
  +6.85714285714285693984e+01
  +7.42857142857142918047e+01
  +8.00000000000000000000e+01
  +8.57142857142857224062e+01
  +9.14285714285714306016e+01
  +9.71428571428571387969e+01
  +1.02857142857142861203e+02
  +1.08571428571428569398e+02
  +1.14285714285714291805e+02
  +1.20000000000000000000e+02
  +1.25714285714285722406e+02
  +1.31428571428571444812e+02
  +1.37142857142857138797e+02
  +1.42857142857142861203e+02
  +1.48571428571428583609e+02
  +1.54285714285714277594e+02
  +1.60000000000000000000e+02
  +1.65714285714285722406e+02
  +1.71428571428571444812e+02
  +1.77142857142857138797e+02
  +1.82857142857142861203e+02
  +1.88571428571428583609e+02
  +1.94285714285714277594e+02
  +2.00000000000000000000e+02
  +2.05714285714285722406e+02
  +2.11428571428571444812e+02
  +2.17142857142857138797e+02
  +2.22857142857142861203e+02
  +2.28571428571428583609e+02
  +2.34285714285714277594e+02
  +2.40000000000000000000e+02
  +2.45714285714285722406e+02
  +2.51428571428571444812e+02
  +2.57142857142857167219e+02
  +2.62857142857142889625e+02
  +2.68571428571428555188e+02
  +2.74285714285714277594e+02
  +2.80000000000000000000e+02
  +2.85714285714285722406e+02
  +2.91428571428571444812e+02
  +2.97142857142857167219e+02
  +3.02857142857142889625e+02
  +3.08571428571428555188e+02
  +3.14285714285714277594e+02
  +3.20000000000000000000e+02
  +3.25714285714285722406e+02
  +3.31428571428571444812e+02
  +3.37142857142857167219e+02
  +3.42857142857142889625e+02
  +3.48571428571428555188e+02
  +3.54285714285714277594e+02
  +3.60000000000000000000e+02
</indep>
<indep Arcs.0002 64>
  +0.00000000000000000000e+00
  +5.71428571428571441260e+00
  +1.14285714285714288252e+01
  +1.71428571428571423496e+01
  +2.28571428571428576504e+01
  +2.85714285714285729512e+01
  +3.42857142857142846992e+01
  +4.00000000000000000000e+01
  +4.57142857142857153008e+01
  +5.14285714285714306016e+01
  +5.71428571428571459023e+01
  +6.28571428571428612031e+01
  +6.85714285714285693984e+01
  +7.42857142857142918047e+01
  +8.00000000000000000000e+01
  +8.57142857142857224062e+01
  +9.14285714285714306016e+01
  +9.71428571428571387969e+01
  +1.02857142857142861203e+02
  +1.08571428571428569398e+02
  +1.14285714285714291805e+02
  +1.20000000000000000000e+02
  +1.25714285714285722406e+02
  +1.31428571428571444812e+02
  +1.37142857142857138797e+02
  +1.42857142857142861203e+02
  +1.48571428571428583609e+02
  +1.54285714285714277594e+02
  +1.60000000000000000000e+02
  +1.65714285714285722406e+02
  +1.71428571428571444812e+02
  +1.77142857142857138797e+02
  +1.82857142857142861203e+02
  +1.88571428571428583609e+02
  +1.94285714285714277594e+02
  +2.00000000000000000000e+02
  +2.05714285714285722406e+02
  +2.11428571428571444812e+02
  +2.17142857142857138797e+02
  +2.22857142857142861203e+02
  +2.28571428571428583609e+02
  +2.34285714285714277594e+02
  +2.40000000000000000000e+02
  +2.45714285714285722406e+02
  +2.51428571428571444812e+02
  +2.57142857142857167219e+02
  +2.62857142857142889625e+02
  +2.68571428571428555188e+02
  +2.74285714285714277594e+02
  +2.80000000000000000000e+02
  +2.85714285714285722406e+02
  +2.91428571428571444812e+02
  +2.97142857142857167219e+02
  +3.02857142857142889625e+02
  +3.08571428571428555188e+02
  +3.14285714285714277594e+02
  +3.20000000000000000000e+02
  +3.25714285714285722406e+02
  +3.31428571428571444812e+02
  +3.37142857142857167219e+02
  +3.42857142857142889625e+02
  +3.48571428571428555188e+02
  +3.54285714285714277594e+02
  +3.60000000000000000000e+02
</indep>
<indep frequency 3>
  +4.00000000000000000000e+08
  +4.50000000000000000000e+08
  +5.00000000000000000000e+08
</indep>
<dep SL Arcs.0002 frequency>
  -1.79817822876031274681e+00-j3.02846093597926857566e-01
  -1.78967837777304739078e+00-j4.73156739909793011556e-01
  -1.76426330014908416821e+00-j6.41774762503284579296e-01
  -1.72218558234806140561e+00-j8.07024359714983541281e-01
  -1.66386341163370832241e+00-j9.67263206806246556013e-01
  -1.58987641994093875653e+00-j1.12089877812430205317e+00
  -1.50095992323327220852e+00-j1.26640417433766172550e+00
  -1.39799761360243191000e+00-j1.40233329744766455072e+00
  -1.28201277673932390044e+00-j1.52733522276007538387e+00
  -1.15415812206110812710e+00-j1.64016762498162460560e+00
  -1.01570432656713482977e+00-j1.73970912500691188285e+00
  -8.68027406280048596798e-01-j1.82497043468775599351e+00
  -7.12595040780353405907e-01-j1.89510418882326892032e+00
  -5.50951986747359900853e-01-j1.94941336665591613553e+00
  -3.84704725473293596139e-01-j1.98735821917695587580e+00
  -2.15505496930468415373e-01-j2.00856163339458104744e+00
  -4.50358790681456080951e-02-j2.01281288025225624239e+00
  +1.25009924464610677752e-01-j2.00006970894875513167e+00
  +2.92941922075951433069e-01-j1.97045876684560639092e+00
  +4.57091130126940303757e-01-j1.92427434078871528733e+00
  +6.15826160040783943117e-01-j1.86197543235347517943e+00
  +7.67569431775439126042e-01-j1.78418119608089620343e+00
  +9.10812852522828952928e-01-j1.69166478604160919197e+00
  +1.04413280481271009137e+00-j1.58534567188335739907e+00
  +1.16620429506267608843e+00-j1.46628050072854954067e+00
  +1.27581412195966348300e+00-j1.33565259574043548874e+00
  +1.37187293379965091766e+00-j1.19476019572588065820e+00
  +1.45342605495430654550e+00-j1.04500355265484667910e+00
  +1.51966297386629145549e+00-j8.87871015327218682245e-01
  +1.56992539827725008372e+00-j7.24924237493767886775e-01
  +1.60371379763202770441e+00-j5.57782657439570894731e-01
  +1.62069236763774915389e+00-j3.88107403278770857202e-01
  +1.62069236763774915389e+00-j2.17584783917082524862e-01
  +1.60371379763202770441e+00-j4.79095297562817656889e-02
  +1.56992539827725052781e+00+j1.19232050297913116932e-01
  +1.51966297386629167754e+00+j2.82178828131364467513e-01
  +1.45342605495430676754e+00+j4.39311365458992575395e-01
  +1.37187293379965025153e+00+j5.89068008530027720226e-01
  +1.27581412195966348300e+00+j7.29960408544581440538e-01
  +1.16620429506267586639e+00+j8.60588313532695936559e-01
  +1.04413280481271031341e+00+j9.79653484687503350870e-01
  +9.10812852522829397017e-01+j1.08597259884575514377e+00
  +7.67569431775440236265e-01+j1.17848900888504171114e+00
  +6.15826160040784165162e-01+j1.25628324515762113123e+00
  +4.57091130126941413980e-01+j1.31858215359286101709e+00
  +2.92941922075950322846e-01+j1.36476657964975278681e+00
  +1.25009924464610705508e-01+j1.39437752175290130552e+00
  -4.50358790681451917615e-02+j1.40712069305640241623e+00
  -2.15505496930468748440e-01+j1.40286944619872744333e+00
  -3.84704725473292818982e-01+j1.38166603198110227169e+00
  -5.50951986747360233920e-01+j1.34372117946006208733e+00
  -7.12595040780354072041e-01+j1.28941200162741487212e+00
  -8.68027406280049484977e-01+j1.21927824749190150122e+00
  -1.01570432656713527386e+00+j1.13401693781105783465e+00
  -1.15415812206110790505e+00+j1.03447543778577100149e+00
  -1.28201277673932412249e+00+j9.21643035564221335676e-01
  -1.39799761360243146591e+00+j7.96641110251811168652e-01
  -1.50095992323327132034e+00+j6.60711987141809231616e-01
  -1.58987641994093853448e+00+j5.15206590928448893152e-01
  -1.66386341163370876650e+00+j3.61571019610391453103e-01
  -1.72218558234806162766e+00+j2.01332172519129326549e-01
  -1.76426330014908372412e+00+j3.60825753074325294989e-02
  -1.78967837777304739078e+00-j1.32535447286061119909e-01
  -1.79817822876031274681e+00-j3.02846093597926413477e-01
  -1.87607427718856478727e+00-j3.23496454184904413953e-01
  -1.86747703562365430230e+00-j4.95758505556493811461e-01
  -1.84177075417807056823e+00-j6.66308539269518829151e-01
  -1.79921091342586025874e+00-j8.33451552466062617341e-01
  -1.74022049218524466063e+00-j9.95526402788770914398e-01
  -1.66538576376509173116e+00-j1.15092231755989815589e+00
  -1.57545046931737964258e+00-j1.29809490236385172146e+00
  -1.47130842620348700756e+00-j1.43558148993273992922e+00
  -1.35399464483569209605e+00-j1.56201567679081554374e+00
  -1.22467504227869605771e+00-j1.67614090318609654240e+00
  -1.08463485484202459830e+00-j1.77682294134571794331e+00
  -9.35265864824166071045e-01-j1.86306116794111109591e+00
  -7.78052568354803741890e-01-j1.93399850873219225633e+00
  -6.14557421805341785870e-01-j1.98892995655621729334e+00
  -4.46405313395522806985e-01-j2.02730957800570354976e+00
  -2.75267414324284975802e-01-j2.04875593915990483751e+00
  -1.02844569919585709927e-01-j2.05305589644648023295e+00
  +6.91496041266080885279e-02-j2.04016671495807822012e+00
  +2.39005752440941993120e-01-j2.01021649317104289523e+00
  +4.05035768310331723008e-01-j1.96350288984520493507e+00
  +5.65589570844895583868e-01-j1.90049016575740048474e+00
  +7.19071504223167234926e-01-j1.82180456966928971951e+00
  +8.63956196036528401017e-01-j1.72822811438581114274e+00
  +9.98803717125509193941e-01-j1.62069080476059035334e+00
  +1.12227389224268847556e+00-j1.50026139488988419224e+00
  +1.23313961931640636571e+00-j1.36813676635421188621e+00
  +1.33029906494244798409e+00-j1.22563003307148599141e+00
  +1.41278661489943480056e+00-j1.07415749098095769654e+00
  +1.47978247085677971917e+00-j9.15224542257868201034e-01
  +1.53062079789880423064e+00-j7.50410733950306552131e-01
  +1.56479634189127003729e+00-j5.81354059730999850331e-01
  +1.58196945092396079602e+00-j4.09734680780297400027e-01
  +1.58196945092396079602e+00-j2.37258227589511094813e-01
  +1.56479634189127003729e+00-j6.56388486388078673528e-02
  +1.53062079789880445269e+00+j1.03417825580496558491e-01
  +1.47978247085677994122e+00+j2.68231633888058984549e-01
  +1.41278661489943480056e+00+j4.27164582611148369029e-01
  +1.33029906494244754001e+00+j5.78637124701678162708e-01
  +1.23313961931640658776e+00+j7.21143857984402725236e-01
  +1.12227389224268825352e+00+j8.53268486520075697399e-01
  +9.98803717125509638031e-01+j9.73697896390781414411e-01
  +8.63956196036528623061e-01+j1.08123520601600220381e+00
  +7.19071504223168345149e-01+j1.17481166129948055854e+00
  +5.65589570844896027957e-01+j1.25349725738759154581e+00
  +4.05035768310332944253e-01+j1.31650998147539577410e+00
  +2.39005752440940938408e-01+j1.36322358480123395630e+00
  +6.91496041266081162835e-02+j1.39317380658826950324e+00
  -1.02844569919585293594e-01+j1.40606298807667151607e+00
  -2.75267414324285308869e-01+j1.40176303079009589858e+00
  -4.46405313395522029829e-01+j1.38031666963589505492e+00
  -6.14557421805342118937e-01+j1.34193704818640857646e+00
  -7.78052568354804408024e-01+j1.28700560036238331740e+00
  -9.35265864824167181268e-01+j1.21606825957130171290e+00
  -1.08463485484202504239e+00+j1.12983003297590900438e+00
  -1.22467504227869583566e+00+j1.02914799481628804756e+00
  -1.35399464483569209605e+00+j9.15022768421006604811e-01
  -1.47130842620348656347e+00+j7.88588581562931878466e-01
  -1.57545046931737875440e+00+j6.51101993994043892755e-01
  -1.66538576376509128707e+00+j5.03929409190090105142e-01
  -1.74022049218524510472e+00+j3.48533494418960587691e-01
  -1.79921091342586048079e+00+j1.86458644096253289835e-01
  -1.84177075417807012414e+00+j1.93156308997117220905e-02
  -1.86747703562365430230e+00-j1.51234402813315432779e-01
  -1.87607427718856478727e+00-j3.23496454184903969864e-01
  -1.96006238891671769053e+00-j3.47110163820578132565e-01
  -1.95132093549467744431e+00-j5.22261773447999733122e-01
  -1.92518345171993066067e+00-j6.95672647688720835468e-01
  -1.88190970364899734513e+00-j8.65619351366373135370e-01
  -1.82192976523176830561e+00-j1.03041287778798906771e+00
  -1.74583974404337260999e+00-j1.18841543485133471769e+00
  -1.65439585689928359002e+00-j1.33805672215863324936e+00
  -1.54850691423286068726e+00-j1.47784953736740343189e+00
  -1.42922528792896330607e+00-j1.60640455667549497676e+00
  -1.29773645237935997265e+00-j1.72244414254521327479e+00
  -1.15534720270562596411e+00-j1.82481504143917350191e+00
  -1.00347266724212347278e+00-j1.91249984537207584623e+00
  -8.43622243354838263762e-01-j1.98462710336835446157e+00
  -6.77384596372234470962e-01-j2.04047998233348648611e+00
  -5.06411870715480105787e-01-j2.07950339126333805240e+00
  -3.32403270144929763319e-01-j2.10130949798794919303e+00
  -1.57088170309758912158e-01-j2.10568158362187807242e+00
  +1.77910685641963217662e-02-j2.09257619641385206322e+00
  +1.90496418033152509208e-01-j2.06212358358979086503e+00
  +3.59311454742892388836e-01-j2.01462639689736100479e+00
  +5.22558419015198727386e-01-j1.95055668471693444133e+00
  +6.78614889177300728562e-01-j1.87055120063270896580e+00
  +8.25929905917362705559e-01-j1.77540507508951295179e+00
  +9.63039386414923037627e-01-j1.66606391302921785780e+00
  +1.08858067505372924089e+00-j1.54361439604399564018e+00
  +1.20130608610545608350e+00-j1.40927348244644123909e+00
  +1.30009530379101656550e+00-j1.26437631259112093218e+00
  +1.38396651648209778607e+00-j1.11036293964989418726e+00
  +1.45208617438622522577e+00-j9.48764017716512864098e-01
  +1.50377727373908243180e+00-j7.81185589478569974986e-01
  +1.53852608517208255812e+00-j6.09293124643719319344e-01
  +1.55598725938563364757e+00-j4.34794967753480643413e-01
  +1.55598725938563364757e+00-j2.59425359887675288650e-01
  +1.53852608517208255812e+00-j8.49272029974358355631e-02
  +1.50377727373908287589e+00+j8.69652618374125996326e-02
  +1.45208617438622544782e+00+j2.54543690075356265901e-01
  +1.38396651648209800811e+00+j4.16142612008737367013e-01
  +1.30009530379101589936e+00+j5.70155984949965666253e-01
  +1.20130608610545630555e+00+j7.15053154805284640894e-01
  +1.08858067505372901884e+00+j8.49394068402839486076e-01
  +9.63039386414923481716e-01+j9.71843585388061481645e-01
  +8.25929905917363149648e-01+j1.08118474744835646462e+00
  +6.78614889177301949807e-01+j1.17633087299155203453e+00
  +5.22558419015199060453e-01+j1.25633635707577795415e+00
  +3.59311454742893499059e-01+j1.32040606925620407353e+00
  +1.90496418033151398985e-01+j1.36790325594863482195e+00
  +1.77910685641963495218e-02+j1.39835586877269557604e+00
  -1.57088170309758495824e-01+j1.41146125598072202934e+00
  -3.32403270144930096386e-01+j1.40708917034679270586e+00
  -5.06411870715479328631e-01+j1.38528306362218200931e+00
  -6.77384596372234804029e-01+j1.34625965469232999894e+00
  -8.43622243354838929896e-01+j1.29040677572719797439e+00
  -1.00347266724212436095e+00+j1.21827951773091935905e+00
  -1.15534720270562640820e+00+j1.13059471379801701474e+00
  -1.29773645237935952856e+00+j1.02822381490405723170e+00
  -1.42922528792896352812e+00+j9.12184229034338378561e-01
  -1.54850691423286024317e+00+j7.83629209726247721868e-01
  -1.65439585689928292389e+00+j6.43836394517478316502e-01
  -1.74583974404337238795e+00+j4.94195107210179118695e-01
  -1.82192976523176874970e+00+j3.36192550146831248270e-01
  -1.88190970364899734513e+00+j1.71399023725216315128e-01
  -1.92518345171993043863e+00+j1.45232004756634669462e-03
  -1.95132093549467744431e+00-j1.71958554193157031609e-01
  -1.96006238891671769053e+00-j3.47110163820577688476e-01
</dep>
<dep SS Arcs.0001 frequency>
  -1.97980840549958281294e+00-j7.46579023880967307392e-01
  -1.96977820187827279419e+00-j9.47553189656848648958e-01
  -1.93978727568419251348e+00-j1.14652998388174709454e+00
  -1.89013369021585808660e+00-j1.34153188578051096869e+00
  -1.82131092511348069429e+00-j1.53062087884372299840e+00
  -1.73400297193659591599e+00-j1.71191771170645989919e+00
  -1.62907753634864960190e+00-j1.88362057499265000970e+00
  -1.50757741446828097409e+00-j2.04402300850614704331e+00
  -1.37071012909299949634e+00-j2.19153086079882264414e+00
  -1.21983592879512015017e+00-j2.32467813256385591458e+00
  -1.05645426916033380316e+00-j2.44214154639547942338e+00
  -8.82188910524438596461e-01-j2.54275369811433993306e+00
  -6.98771780313614976343e-01-j2.62551465895471602963e+00
  -5.08025760371565326956e-01-j2.68960191330582443214e+00
  -3.11846570340785833597e-01-j2.73437853324149493517e+00
  -1.12183927149068121687e-01-j2.75939950859605165334e+00
  +8.89778321532719851383e-02-j2.76441616967526559989e+00
  +2.89639471626505662361e-01-j2.74937865864750197176e+00
  +4.87806725746455616122e-01-j2.71443642505324378433e+00
  +6.81510119311233175665e-01-j2.65993674050842088263e+00
  +8.68824540970624115133e-01-j2.58642124736306966426e+00
  +1.04788837584757743571e+00-j2.49462057561631400660e+00
  +1.21692200710322073753e+00-j2.38544708158718865576e+00
  +1.37424550256853206243e+00-j2.25998578050764109548e+00
  +1.51829531066497547265e+00-j2.11948356315369990099e+00
  +1.64763979968254759001e+00-j1.96533680368474605871e+00
  +1.76099348597889715506e+00-j1.79907748184977234196e+00
  +1.85722980969329043432e+00-j1.62235795748436872898e+00
  +1.93539233100463947679e+00-j1.43693454861631542130e+00
  +1.99470423566013765893e+00-j1.24465007638796998357e+00
  +2.03457605530430774010e+00-j1.04741555027182720039e+00
  +2.05461152588034456912e+00-j8.47191175599828039111e-01
  +2.05461152588034456912e+00-j6.45966872162106242605e-01
  +2.03457605530430774010e+00-j4.45742497490106248659e-01
  +1.99470423566013832506e+00-j2.48507971373966018991e-01
  +1.93539233100463969883e+00-j5.62234991456196375736e-02
  +1.85722980969329065637e+00+j1.29199909722433670112e-01
  +1.76099348597889648893e+00+j3.05919434087838837399e-01
  +1.64763979968254781205e+00+j4.72178755922810999834e-01
  +1.51829531066497525060e+00+j6.26325515391765508255e-01
  +1.37424550256853250652e+00+j7.66827732745706258655e-01
  +1.21692200710322118162e+00+j8.92289033825253596888e-01
  +1.04788837584757876797e+00+j1.00146252785437894772e+00
  +8.68824540970624559222e-01+j1.09326319960113482743e+00
  +6.81510119311234507933e-01+j1.16677869274648604581e+00
  +4.87806725746454339365e-01+j1.22127837729130939159e+00
  +2.89639471626505717872e-01+j1.25622061088556713493e+00
  +8.89778321532724847387e-02+j1.27125812191333076306e+00
  -1.12183927149068510265e-01+j1.26624146083411681651e+00
  -3.11846570340784945419e-01+j1.24122048547956076447e+00
  -5.08025760371565660023e-01+j1.19644386554388981736e+00
  -6.98771780313615753499e-01+j1.13235661119278119280e+00
  -8.82188910524439817706e-01+j1.04959565035240487418e+00
  -1.05645426916033424725e+00+j9.48983498633544364509e-01
  -1.21983592879511970608e+00+j8.31520084801921521844e-01
  -1.37071012909299971838e+00+j6.98372813036887585270e-01
  -1.50757741446828053000e+00+j5.50864960744213316701e-01
  -1.62907753634864871373e+00+j3.90462527230716727189e-01
  -1.73400297193659547190e+00+j2.18759663944526061563e-01
  -1.82131092511348136043e+00+j3.74628310817866072568e-02
  -1.89013369021585830865e+00-j1.51626161981424201208e-01
  -1.93978727568419206939e+00-j3.46628063880185521839e-01
  -1.96977820187827279419e+00-j5.45604858105086520936e-01
  -1.97980840549958281294e+00-j7.46579023880966863302e-01
  -1.83641118903099442861e+00-j7.00601838533065457426e-01
  -1.82651355207716381557e+00-j8.98919779529043894151e-01
  -1.79691900837842277738e+00-j1.09526674772926213564e+00
  -1.74792168180596618754e+00-j1.28769135875110163347e+00
  -1.68000852980426063077e+00-j1.47428121035977710562e+00
  -1.59385450378918669401e+00-j1.65318188878092797722e+00
  -1.49031584117763182817e+00-j1.82261539869784172652e+00
  -1.37042155571536139469e+00-j1.98089783376770611767e+00
  -1.23536321067610943558e+00-j2.12645611203937523470e+00
  -1.08648307657043008412e+00-j2.25784360994853328108e+00
  -9.25260791058323484037e-01-j2.37375453951260428909e+00
  -7.53298653645416149693e-01-j2.47303692583836953744e+00
  -5.72305701310608427868e-01-j2.55470405596600613762e+00
  -3.84080723328762418944e-01-j2.61794428526577993566e+00
  -1.90494384094747282177e-01-j2.66212910392702184481e+00
  +6.52936837975176542770e-03-j2.68681938337099879277e+00
  +2.05032423525938811704e-01-j2.69176974050801476324e+00
