<Qucs Dataset 0.0.19>
<indep Z0 1>
  +5.00000000000000000000e+01
</indep>
<indep Arcs.0001 64>
  +0.00000000000000000000e+00
  +5.71428571428571441260e+00
  +1.14285714285714288252e+01
  +1.71428571428571423496e+01
  +2.28571428571428576504e+01
  +2.85714285714285729512e+01
  +3.42857142857142846992e+01
  +4.00000000000000000000e+01
  +4.57142857142857153008e+01
  +5.14285714285714306016e+01
  +5.71428571428571459023e+01
  +6.28571428571428612031e+01
  +6.85714285714285693984e+01
  +7.42857142857142918047e+01
  +8.00000000000000000000e+01
  +8.57142857142857224062e+01
  +9.14285714285714306016e+01
  +9.71428571428571387969e+01
  +1.02857142857142861203e+02
  +1.08571428571428569398e+02
  +1.14285714285714291805e+02
  +1.20000000000000000000e+02
  +1.25714285714285722406e+02
  +1.31428571428571444812e+02
  +1.37142857142857138797e+02
  +1.42857142857142861203e+02
  +1.48571428571428583609e+02
  +1.54285714285714277594e+02
  +1.60000000000000000000e+02
  +1.65714285714285722406e+02
  +1.71428571428571444812e+02
  +1.77142857142857138797e+02
  +1.82857142857142861203e+02
  +1.88571428571428583609e+02
  +1.94285714285714277594e+02
  +2.00000000000000000000e+02
  +2.05714285714285722406e+02
  +2.11428571428571444812e+02
  +2.17142857142857138797e+02
  +2.22857142857142861203e+02
  +2.28571428571428583609e+02
  +2.34285714285714277594e+02
  +2.40000000000000000000e+02
  +2.45714285714285722406e+02
  +2.51428571428571444812e+02
  +2.57142857142857167219e+02
  +2.62857142857142889625e+02
  +2.68571428571428555188e+02
  +2.74285714285714277594e+02
  +2.80000000000000000000e+02
  +2.85714285714285722406e+02
  +2.91428571428571444812e+02
  +2.97142857142857167219e+02
  +3.02857142857142889625e+02
  +3.08571428571428555188e+02
  +3.14285714285714277594e+02
  +3.20000000000000000000e+02
  +3.25714285714285722406e+02
  +3.31428571428571444812e+02
  +3.37142857142857167219e+02
  +3.42857142857142889625e+02
  +3.48571428571428555188e+02
  +3.54285714285714277594e+02
  +3.60000000000000000000e+02
</indep>
<indep Arcs.0002 64>
  +0.00000000000000000000e+00
  +5.71428571428571441260e+00
  +1.14285714285714288252e+01
  +1.71428571428571423496e+01
  +2.28571428571428576504e+01
  +2.85714285714285729512e+01
  +3.42857142857142846992e+01
  +4.00000000000000000000e+01
  +4.57142857142857153008e+01
  +5.14285714285714306016e+01
  +5.71428571428571459023e+01
  +6.28571428571428612031e+01
  +6.85714285714285693984e+01
  +7.42857142857142918047e+01
  +8.00000000000000000000e+01
  +8.57142857142857224062e+01
  +9.14285714285714306016e+01
  +9.71428571428571387969e+01
  +1.02857142857142861203e+02
  +1.08571428571428569398e+02
  +1.14285714285714291805e+02
  +1.20000000000000000000e+02
  +1.25714285714285722406e+02
  +1.31428571428571444812e+02
  +1.37142857142857138797e+02
  +1.42857142857142861203e+02
  +1.48571428571428583609e+02
  +1.54285714285714277594e+02
  +1.60000000000000000000e+02
  +1.65714285714285722406e+02
  +1.71428571428571444812e+02
  +1.77142857142857138797e+02
  +1.82857142857142861203e+02
  +1.88571428571428583609e+02
  +1.94285714285714277594e+02
  +2.00000000000000000000e+02
  +2.05714285714285722406e+02
  +2.11428571428571444812e+02
  +2.17142857142857138797e+02
  +2.22857142857142861203e+02
  +2.28571428571428583609e+02
  +2.34285714285714277594e+02
  +2.40000000000000000000e+02
  +2.45714285714285722406e+02
  +2.51428571428571444812e+02
  +2.57142857142857167219e+02
  +2.62857142857142889625e+02
  +2.68571428571428555188e+02
  +2.74285714285714277594e+02
  +2.80000000000000000000e+02
  +2.85714285714285722406e+02
  +2.91428571428571444812e+02
  +2.97142857142857167219e+02
  +3.02857142857142889625e+02
  +3.08571428571428555188e+02
  +3.14285714285714277594e+02
  +3.20000000000000000000e+02
  +3.25714285714285722406e+02
  +3.31428571428571444812e+02
  +3.37142857142857167219e+02
  +3.42857142857142889625e+02
  +3.48571428571428555188e+02
  +3.54285714285714277594e+02
  +3.60000000000000000000e+02
</indep>
<indep frequency 3>
  +4.00000000000000000000e+08
  +4.50000000000000000000e+08
  +5.00000000000000000000e+08
</indep>
<dep S22_ang frequency>
  -1.12870080217245487120e+02
  -1.79216634663211891620e+02
  +1.64501050134909320377e+02
</dep>
<dep Ls_out frequency>
  +9.36498995698003365383e-09
  +8.18508560524977388174e-09
  +7.67994320530229559597e-09
</dep>
<dep Cp_out frequency>
  +0.00000000000000000000e+00-j3.15150448967691260076e-12
  +0.00000000000000000000e+00-j2.76555901163699779890e-12
  +0.00000000000000000000e+00-j2.56684611415250561285e-12
</dep>
<dep Zout_Im frequency>
  +1.56291876522469319610e+00
  +1.75758150257624712332e+00
  +1.60817091273303858223e+00
</dep>
<dep Zout_Re frequency>
  +4.32212055573097870820e+01
  +4.33704432386705249769e+01
  +4.30081766011808213079e+01
</dep>
<dep gamma_ML_imag frequency>
  +1.79798025212156709074e-02
  +2.01531424460514238528e-02
  +1.85848954471183672177e-02
</dep>
<dep gamma_ML_real frequency>
  -7.24158567954223258978e-02
  -7.06233765442432215309e-02
  -7.48529426654361007554e-02
</dep>
<dep Ls_in frequency>
  +9.24888614161888848188e-09
  +5.17451434784294363464e-09
  +6.71774442479888196374e-09
</dep>
<dep Cp_in frequency>
  +3.79440153122325470559e-12
  +1.82679436000074428755e-12
  +0.00000000000000000000e+00+j2.22430330958924554992e-12
</dep>
<dep Zin_Im frequency>
  +3.82036193095748322079e+00
  +2.52513965334423184927e+00
  +7.03097770468619742701e+00
</dep>
<dep Zin_Re frequency>
  +4.07379786442753726305e+01
  +4.68736818960096073283e+01
  +5.69524920740411886300e+01
</dep>
<dep gamma_Ms_imag frequency>
  +4.63187812579933522183e-02
  -2.68892572958887091095e-02
  -6.12013608418360693930e-02
</dep>
<dep gamma_Ms_real frequency>
  -1.00124192569187447921e-01
  -3.15712060725293133800e-02
  +6.90287559873370426544e-02
</dep>
<dep gamma_ML frequency>
  -7.23103998389112850864e-02+j1.71689030000951071975e-02
  -7.04815859147157192099e-02+j1.94449307614641443698e-02
  -7.46714216696501981163e-02+j1.80493884248044307583e-02
</dep>
<dep gamma_Ms frequency>
  -1.00019490510615968737e-01+j4.48125879487401498902e-02
  -3.16548871773153772669e-02-j2.73478691870662274366e-02
  +6.83498609739146417708e-02-j6.07779527819749254558e-02
</dep>
<dep B2 frequency>
  +6.26243733449640682664e-01
  +6.27811085346944741659e-01
  +6.21731527577458198408e-01
</dep>
<dep B1 frequency>
  +6.34424121310881883318e-01
  +6.23312227212254876818e-01
  +6.24803217381633579919e-01
</dep>
<dep S22_mag frequency>
  +1.36808408406704634652e-02
  +5.30687824205286207135e-02
  +1.08325669939182384072e-01
</dep>
<dep S12_ang frequency>
  -2.80169429254908592952e+01
  -3.55963778595357211998e+01
  -4.34809353655294330565e+01
</dep>
<dep GT_max_dB frequency>
  +2.41633958187696009645e+01
  +2.35754231316642659522e+01
  +2.30120980478842369621e+01
</dep>
<dep GT_max frequency>
  +2.60819214049481900020e+02
  +2.27794016999645805299e+02
  +2.00082822306008097257e+02
</dep>
<dep S12_mag frequency>
  +3.78126806366982926022e-02
  +4.05715410828067571392e-02
  +4.29239597464222966128e-02
</dep>
<dep S21_ang frequency>
  +5.60010570745091484923e+01
  +4.18906221404642948869e+01
  +2.76630646344705652950e+01
</dep>
<dep S21_mag frequency>
  +1.60874595039773140570e+01
  +1.50633478242579847972e+01
  +1.40249001801101762510e+01
</dep>
<dep S11_ang frequency>
  -1.49338240971594757411e+02
  +5.79857183175353938509e+01
  +1.91234944144147966938e+01
</dep>
<dep S11_mag frequency>
  +6.54015239633484457560e-02
  +2.38089605034006203399e-02
  +1.15196769355135092416e-01
</dep>
<dep S22_dB frequency>
  -3.72777441908543920590e+01
  -2.55032175291578155907e+01
  -1.93053723278952134024e+01
</dep>
<dep S12_dB frequency>
  -2.84472506662065498517e+01
  -2.78355699119485642257e+01
  -2.73460044215880415663e+01
</dep>
<dep S21_dB frequency>
  +2.41297493337934412239e+01
  +2.35584300880514376786e+01
  +2.29379955784119538009e+01
</dep>
<dep S11_dB frequency>
  -2.36882426356058743977e+01
  -3.24651913086113523832e+01
  -1.87711940069560689892e+01
</dep>
<dep SL Arcs.0002 frequency>
  -1.52451135226167489023e+00-j2.89403671567829562372e-02
  -1.51633002222679547089e+00-j1.92868841669872614908e-01
  -1.49186734185566383104e+00-j3.55168121355237009773e-01
  -1.45136643225613659602e+00-j5.14225203055295954080e-01
  -1.39522980966362530886e+00-j6.68459306032666900066e-01
  -1.32401538505390981015e+00-j8.16337582479328971452e-01
  -1.23843091937320837204e+00-j9.56390351646800973562e-01
  -1.13932698949192046101e+00-j1.08722570619370095812e+00
  -1.02768853478954902414e+00-j1.20754334558624765172e+00
  -9.04625068384645403263e-01-j1.31614749906914818567e+00
  -7.71359650294966003869e-01-j1.41195880977258902966e+00
  -6.29216732117533705804e-01-j1.49402506184572847481e+00
  -4.79608994033630220422e-01-j1.56153064400562469061e+00
  -3.24023304958481972449e-01-j1.61380465544859386107e+00
  -1.64005945369976036119e-01-j1.65032757356381232228e+00
  -1.14723967857245645607e-03-j1.67073641718242948961e+00
  +1.62934249131166719593e-01-j1.67482835404749819119e+00
  +3.26607805506691495356e-01-j1.66256271665207266963e+00
  +4.88246768111255780020e-01-j1.63406140641116159884e+00
  +6.46244696315087296945e-01-j1.58960768215069969678e+00
  +7.99031335724094349260e-01-j1.52964334495407650039e+00
  +9.45088224073499461042e-01-j1.45476434734448178965e+00
  +1.08296378238802515348e+00-j1.36571487044098693886e+00
  +1.21128774142590112106e+00-j1.26337992795224529630e+00
  +1.32878476003020540297e+00-j1.14877657051264847610e+00
  +1.43428710004225812291e+00-j1.02304377777618893397e+00
  +1.52674623180806801059e+00-j8.87431138724951829033e-01
  +1.60524325493710540158e+00-j7.43286432692411791479e-01
  +1.66899803074722075102e+00-j5.92042234526894639579e-01
  +1.71737693563335569458e+00-j4.35201677019129484769e-01
  +1.74989915830360009963e+00-j2.74323512093259169742e-01
  +1.76624147829782418562e+00-j1.11006619229922262604e-01
  +1.76624147829782418562e+00+j5.31258849163566693186e-02
  +1.74989915830360009963e+00+j2.16442777779694284224e-01
  +1.71737693563335613867e+00+j3.77320942705562545338e-01
  +1.66899803074722097307e+00+j5.34161500213328421793e-01
  +1.60524325493710562363e+00+j6.85405698378845462670e-01
  +1.52674623180806734446e+00+j8.29550404411386832493e-01
  +1.43428710004225834496e+00+j9.65163043462622605162e-01
  +1.32878476003020518093e+00+j1.09089583619908281342e+00
  +1.21128774142590134311e+00+j1.20549919363867941158e+00
  +1.08296378238802559757e+00+j1.30783413612742083210e+00
  +9.45088224073500571265e-01+j1.39688361303091546084e+00
  +7.99031335724094793349e-01+j1.47176261064051061567e+00
  +6.46244696315088407168e-01+j1.53172694783713336797e+00
  +4.88246768111254725309e-01+j1.57618067209759593617e+00
  +3.26607805506691550868e-01+j1.60468198233850678491e+00
  +1.62934249131167108171e-01+j1.61694761973393230647e+00
  -1.14723967857278952298e-03+j1.61285568286886360490e+00
  -1.64005945369975314474e-01+j1.59244683925024665960e+00
  -3.24023304958482250004e-01+j1.55592392113502775430e+00
  -4.79608994033630886555e-01+j1.50364990969205858384e+00
  -6.29216732117534705004e-01+j1.43614432753216192395e+00
  -7.71359650294966336936e-01+j1.35407807545902292290e+00
  -9.04625068384644959174e-01+j1.25826676475558252299e+00
  -1.02768853478954924618e+00+j1.14966261127268154496e+00
  -1.13932698949192001692e+00+j1.02934497188013551749e+00
  -1.23843091937320770590e+00+j8.98509617333236199066e-01
  -1.32401538505390936606e+00+j7.58456848165763752867e-01
  -1.39522980966362597499e+00+j6.10578571719099683079e-01
  -1.45136643225613681807e+00+j4.56344468741729514250e-01
  -1.49186734185566338695e+00+j2.97287387041672790389e-01
  -1.51633002222679547089e+00+j1.34988107356306286100e-01
  -1.52451135226167489023e+00-j2.89403671567825537814e-02
  -1.52609191106287078732e+00-j3.26752153186694108133e-02
  -1.51791987704330089137e+00-j1.96417426522221161278e-01
  -1.49348499233012055321e+00-j3.58532294066500223373e-01
  -1.45303010178545077835e+00-j5.17408647564635226779e-01
  -1.39695726428666056051e+00-j6.71467502437309904373e-01
  -1.32582375688461162611e+00-j8.19177752570901418494e-01
  -1.24033653633395912763e+00-j9.59071387137916842036e-01
  -1.14134521303931024683e+00-j1.08975808034812793323e+00
  -1.02983360724532002628e+00-j1.20993900913090635107e+00
  -9.06909971389098568118e-01-j1.31841976142241934511e+00
  -7.73795975789588030835e-01-j1.41412220676933308994e+00
  -6.31814567139074467761e-01-j1.49609521127362943282e+00
  -4.82376820464599731508e-01-j1.56352409038859874180e+00
  -3.26967915230391481529e-01-j1.61573870561987797956e+00
  -1.67132374957102203261e-01-j1.65222012466288026289e+00
  -4.45871705315126209968e-03-j1.67260577878517868733e+00
  +1.59436334584947159154e-01-j1.67669306619745928089e+00
  +3.22923917301015273029e-01-j1.66444136560112632139e+00
  +4.84379218048086923609e-01-j1.63597243990101803846e+00
  +6.42197621510443350523e-01-j1.59156922607095352440e+00
  +7.94810657491528349539e-01-j1.53167302319897213891e+00
  +9.40701589075426003461e-01-j1.45687910665873454619e+00
  +1.07842048663975376144e+00-j1.36793081199542054804e+00
  +1.20659863790765942149e+00-j1.26571214732312253837e+00
  +1.32396215082534585150e+00-j1.15123900765505227106e+00
  +1.42934461407362700669e+00-j1.02564907848248609845e+00
  +1.52169868938764674127e+00-j8.90190528945226877688e-01
  +1.60010652047509238649e+00-j7.46209606965931637745e-01
  +1.66378885508439422480e+00-j5.95137259633422011085e-01
  +1.71211278956369361559e+00-j4.38474911807641198891e-01
  +1.74459805894168007434e+00-j2.77779544284848523006e-01
  +1.76092181001664416229e+00-j1.14648219822965552472e-01
  +1.76092181001664416229e+00+j4.92977891856270430959e-02
  +1.74459805894168007434e+00+j2.12429113647510769969e-01
  +1.71211278956369405968e+00+j3.73124481170301336430e-01
  +1.66378885508439444685e+00+j5.29786828996082759247e-01
  +1.60010652047509238649e+00+j6.80859176328592385907e-01
  +1.52169868938764629718e+00+j8.24840098307888958118e-01
  +1.42934461407362722873e+00+j9.60298647845146846613e-01
  +1.32396215082534562946e+00+j1.08588857701771379638e+00
  +1.20659863790765964353e+00+j1.20036171668578361960e+00
  +1.07842048663975420553e+00+j1.30258038135808162927e+00
  +9.40701589075427113684e-01+j1.39152867602139518333e+00
  +7.94810657491528793628e-01+j1.46632259256163322014e+00
  +6.42197621510444349724e-01+j1.52621879543361460563e+00
  +4.84379218048085868897e-01+j1.57062200926367956377e+00
  +3.22923917301015328540e-01+j1.59909093496378762467e+00
  +1.59436334584947547732e-01+j1.61134263556012058416e+00
  -4.45871705315158128879e-03+j1.60725534814783999060e+00
  -1.67132374957101481616e-01+j1.58686969402554178821e+00
  -3.26967915230391759085e-01+j1.55038827498253906079e+00
  -4.82376820464600286620e-01+j1.49817365975125982303e+00
  -6.31814567139075466962e-01+j1.43074478063629029201e+00
  -7.73795975789588363902e-01+j1.34877177613199417117e+00
  -9.06909971389098346073e-01+j1.25306933078508087043e+00
  -1.02983360724532024832e+00+j1.14458857849356765435e+00
  -1.14134521303931002478e+00+j1.02440764971078968060e+00
  -1.24033653633395846150e+00+j8.93720956500579033488e-01
  -1.32582375688461118202e+00+j7.53827321933563054834e-01
  -1.39695726428666122665e+00+j6.06117071799969653334e-01
  -1.45303010178545100040e+00+j4.52058216927295808407e-01
  -1.49348499233012033116e+00+j2.93181863429163025447e-01
  -1.51791987704330089137e+00+j1.31066995884881937195e-01
  -1.52609191106287078732e+00-j3.26752153186690083575e-02
  -1.52288720031208502093e+00-j3.05646331165332803270e-02
  -1.51469128443185496735e+00-j1.94785362723552679665e-01
  -1.49018499148535532584e+00-j3.57373992940422102738e-01
  -1.44961187602181107437e+00-j5.16714644913983001118e-01
  -1.39337517189094972636e+00-j6.71223719658075479444e-01
  -1.32203378472384258657e+00-j8.19365636571724453852e-01
  -1.23629673727764410884e+00-j9.59668094729042353563e-01
  -1.13701612284888931015e+00-j1.09073670526728849772e+00
  -1.02517863678749332479e+00-j1.21126884944984514192e+00
  -9.01895770275071284594e-01-j1.32006662467644564352e+00
  -7.68392763826218461176e-01-j1.41604874977739947361e+00
  -6.25996430297812045396e-01-j1.49826131127164052792e+00
  -4.76121968426743480407e-01-j1.56588724378746801946e+00
  -3.20258897949066811961e-01-j1.61825445042529114659e+00
  -1.59956256083666481516e-01-j1.65484248235857012155e+00
  +3.19279749556129754939e-03-j1.67528771128807640878e+00
  +1.67566814196300845063e-01-j1.67938694334329685631e+00
  +3.31532171192397639992e-01-j1.66709943851440822726e+00
  +4.93459307101441257970e-01-j1.63854731554479760014e+00
  +6.51738917297892239588e-01-j1.59401433826012572936e+00
  +8.04797947905465105300e-01-j1.53394309539594320135e+00
  +9.51115229513274096362e-01-j1.45893060195199297802e+00
  +1.08923659524085314487e+00-j1.36972236578892392345e+00
  +1.21778933290192714622e+00-j1.26720497843623669532e+00
  +1.33549582763483343228e+00-j1.15239730374734761220e+00
  +1.44118625941301559124e+00-j1.02644035197286620509e+00
  +1.53381022924200571822e+00-j8.90585939888105304618e-01
  +1.61244719849654671862e+00-j7.46184249675567512483e-01
  +1.67631563764701940755e+00-j5.94670410207814970072e-01
  +1.72478079345102397468e+00-j4.37550234091979628470e-01
  +1.75736099741627826987e+00-j2.76385252227555389126e-01
  +1.77373245283849412246e+00-j1.12777194610774289529e-01
  +1.77373245283849412246e+00+j5.16479283777080550033e-02
  +1.75736099741627826987e+00+j2.15255985994489862367e-01
  +1.72478079345102441877e+00+j3.76420967858911936776e-01
  +1.67631563764701985164e+00+j5.33541143974748055534e-01
  +1.61244719849654671862e+00+j6.85054983442500708968e-01
  +1.53381022924200527413e+00+j8.29456673655039722348e-01
  +1.44118625941301559124e+00+j9.65311085739799401573e-01
  +1.33549582763483343228e+00+j1.09126803751428136380e+00
  +1.21778933290192759031e+00+j1.20607571220317000282e+00
  +1.08923659524085358896e+00+j1.30859309955585723095e+00
  +9.51115229513275206585e-01+j1.39780133571892584143e+00
  +8.04797947905465549390e-01+j1.47281382916287650886e+00
  +6.51738917297893349811e-01+j1.53288507202705903687e+00
  +4.93459307101440203258e-01+j1.57741804931173112969e+00
  +3.31532171192397639992e-01+j1.60597017228134175681e+00
  +1.67566814196301261397e-01+j1.61825767711023038586e+00
  +3.19279749556097836027e-03+j1.61415844505500993833e+00
  -1.59956256083665759871e-01+j1.59371321612550365110e+00
  -3.20258897949067089517e-01+j1.55712518419222467614e+00
  -4.76121968426744146541e-01+j1.50475797755440154901e+00
  -6.25996430297813044596e-01+j1.43713204503857361338e+00
  -7.68392763826218794243e-01+j1.35491948354433278112e+00
  -9.01895770275071062549e-01+j1.25893735844337939511e+00
  -1.02517863678749332479e+00+j1.15013958321677844943e+00
  -1.13701612284888931015e+00+j1.02960743903422269341e+00
  -1.23629673727764366475e+00+j8.98538828495976993338e-01
  -1.32203378472384214248e+00+j7.58236370338658538515e-01
  -1.39337517189095017045e+00+j6.10094453425007565706e-01
  -1.44961187602181107437e+00+j4.55585378680915920047e-01
  -1.49018499148535532584e+00+j2.96244726707357186601e-01
  -1.51469128443185496735e+00+j1.33656096490485681860e-01
  -1.52288720031208502093e+00-j3.05646331165328778712e-02
</dep>
<dep SS Arcs.0001 frequency>
  -1.49322720454418944591e+00-j7.68845175316975604218e-02
  -1.48495429196930106563e+00-j2.42648022047451839001e-01
  -1.46021777416657028148e+00-j4.06764094382891960855e-01
  -1.41926349376327576302e+00-j5.67601675278852191298e-01
  -1.36249847279756242102e+00-j7.23562288597017877478e-01
  -1.29048686755056296604e+00-j8.73095927693933182567e-01
  -1.20394436170781804485e+00-j1.01471646008339533296e+00
  -1.10373105357327450093e+00-j1.14701639728877458069e+00
  -9.90842908025926782933e-01-j1.26868088309583759710e+00
  -8.66401858173390437834e-01-j1.37850076118452768981e+00
  -7.31644655076630456847e-01-j1.47538459226771134780e+00
  -5.87910576362283388008e-01-j1.55836950130516260771e+00
  -4.36628115879905798202e-01-j1.62663074698830412146e+00
