!  American Technical Ceramics  Date:   4/26/2005
!  One Norden Lane
!  Huntington Station,  NY.   11746-2102
!  Tel:  (631) 622-4700               Fax:  (631) 622-4748
!  Part Number  600S270         Mounting Orientation: Horizontal
!  Description: Ultra Low ESR Microwave capacitors
!  Application: Coupling, Bypass, Tuning, DC Block
!               Filters, Matching
# GHZ S DB R 50
! Freq   |S11|   S11 Ph  |S21|   S21 Ph  |S12|   S12 Ph  |S22|   S22 Ph
   0.000    0.00    0.00 -999.00   90.00 -999.00   90.00    0.00    0.00
   0.400  -16.69  -82.16   -0.11    7.15   -0.12    7.12  -16.72  -82.44
   0.423  -17.21  -82.90   -0.09    6.63   -0.11    6.58  -17.20  -82.99
   0.445  -17.71  -83.26   -0.09    6.14   -0.10    6.07  -17.67  -83.49
   0.468  -18.14  -83.46   -0.08    5.67   -0.09    5.62  -18.13  -84.03
   0.490  -18.54  -83.96   -0.08    5.26   -0.08    5.22  -18.57  -84.29
   0.513  -18.97  -84.54   -0.07    4.87   -0.08    4.81  -18.97  -84.69
   0.535  -19.41  -84.78   -0.06    4.50   -0.07    4.43  -19.39  -85.08
   0.558  -19.77  -84.76   -0.06    4.15   -0.07    4.10  -19.78  -85.50
   0.580  -20.14  -85.35   -0.05    3.81   -0.06    3.81  -20.18  -85.68
   0.603  -20.51  -85.77   -0.05    3.52   -0.06    3.47  -20.51  -85.95
   0.625  -20.88  -86.04   -0.05    3.23   -0.05    3.18  -20.87  -86.49
   0.648  -21.23  -86.17   -0.04    2.95   -0.05    2.94  -21.23  -86.88
   0.670  -21.55  -86.46   -0.04    2.69   -0.05    2.65  -21.57  -86.96
   0.693  -21.87  -86.84   -0.04    2.42   -0.05    2.39  -21.89  -87.17
   0.715  -22.23  -87.07   -0.04    2.17   -0.05    2.15  -22.21  -87.55
   0.738  -22.56  -87.14   -0.03    1.95   -0.04    1.90  -22.54  -87.75
   0.760  -22.86  -87.33   -0.03    1.74   -0.04    1.67  -22.86  -87.88
   0.783  -23.15  -87.62   -0.03    1.51   -0.04    1.47  -23.18  -88.15
   0.805  -23.47  -87.94   -0.03    1.31   -0.03    1.27  -23.47  -88.39
   0.828  -23.77  -88.19   -0.03    1.09   -0.03    1.05  -23.77  -88.75
   0.850  -24.04  -88.43   -0.03    0.90   -0.03    0.88  -24.10  -89.11
   0.873  -24.33  -88.62   -0.02    0.73   -0.03    0.69  -24.38  -89.07
   0.895  -24.62  -88.68   -0.02    0.53   -0.03    0.51  -24.61  -89.45
   0.918  -24.90  -88.93   -0.02    0.35   -0.03    0.32  -24.92  -89.85
   0.940  -25.21  -89.12   -0.02    0.16   -0.03    0.11  -25.23  -89.82
   0.963  -25.49  -89.18   -0.02   -0.02   -0.03   -0.05  -25.51  -89.86
   0.985  -25.75  -89.48   -0.02   -0.18   -0.02   -0.20  -25.76  -90.08
   1.008  -26.01  -89.89   -0.02   -0.33   -0.02   -0.38  -26.05  -90.40
   1.030  -26.31  -90.23   -0.02   -0.50   -0.02   -0.55  -26.34  -90.67
   1.053  -26.58  -90.31   -0.01   -0.65   -0.02   -0.69  -26.61  -90.89
   1.075  -26.83  -90.49   -0.02   -0.82   -0.02   -0.85  -26.84  -90.97
   1.098  -27.09  -90.68   -0.02   -0.97   -0.02   -1.02  -27.09  -91.33
   1.120  -27.37  -90.82   -0.02   -1.12   -0.02   -1.16  -27.40  -91.57
   1.143  -27.64  -90.80   -0.01   -1.26   -0.02   -1.31  -27.70  -91.52
   1.165  -27.92  -91.06   -0.02   -1.41   -0.02   -1.46  -27.96  -91.39
   1.188  -28.23  -91.32   -0.02   -1.56   -0.02   -1.59  -28.20  -91.36
   1.210  -28.49  -91.49   -0.01   -1.69   -0.02   -1.73  -28.44  -92.12
   1.233  -28.71  -91.75   -0.01   -1.83   -0.02   -1.87  -28.78  -92.22
   1.255  -29.00  -92.35   -0.01   -1.98   -0.02   -1.99  -29.03  -92.12
   1.278  -29.25  -92.14   -0.01   -2.10   -0.01   -2.13  -29.20  -92.51
   1.300  -29.46  -92.25   -0.01   -2.24   -0.02   -2.27  -29.53  -93.23
   1.323  -29.77  -92.79   -0.01   -2.37   -0.01   -2.42  -29.87  -92.77
   1.345  -30.12  -92.62   -0.01   -2.52   -0.02   -2.54  -30.12  -92.34
   1.368  -30.39  -92.42   -0.01   -2.66   -0.01   -2.69  -30.35  -92.70
   1.390  -30.61  -92.64   -0.01   -2.77   -0.01   -2.83  -30.65  -93.20
   1.413  -30.88  -93.30   -0.01   -2.92   -0.01   -2.95  -30.92  -93.18
   1.435  -31.20  -93.56   -0.01   -3.02   -0.02   -3.09  -31.14  -93.08
   1.458  -31.50  -93.46   -0.01   -3.15   -0.02   -3.21  -31.35  -93.61
   1.480  -31.70  -93.24   -0.01   -3.30   -0.02   -3.32  -31.67  -94.40
   1.503  -31.96  -93.89   -0.01   -3.41   -0.01   -3.43  -32.04  -94.33
   1.525  -32.29  -94.38   -0.01   -3.53   -0.02   -3.58  -32.36  -93.62
   1.548  -32.74  -94.15   -0.01   -3.65   -0.01   -3.67  -32.56  -93.36
   1.570  -33.01  -93.43   -0.01   -3.76   -0.02   -3.78  -32.76  -94.15
   1.593  -33.15  -93.72   -0.01   -3.87   -0.02   -3.92  -33.09  -94.55
   1.615  -33.55  -94.77   -0.01   -3.98   -0.02   -4.03  -33.46  -94.28
   1.638  -33.94  -94.25   -0.01   -4.09   -0.01   -4.13  -33.63  -94.72
   1.660  -34.10  -93.37    0.00   -4.22   -0.01   -4.27  -34.08  -96.03
   1.683  -34.15  -94.58   -0.01   -4.35   -0.01   -4.39  -34.60  -95.64
   1.705  -34.56  -96.51    0.00   -4.43   -0.01   -4.48  -34.90  -94.15
   1.728  -35.12  -96.47   -0.01   -4.58   -0.01   -4.61  -35.03  -93.98
   1.750  -35.58  -95.38    0.00   -4.68   -0.01   -4.74  -35.38  -94.91
   1.773  -35.74  -95.24    0.00   -4.80   -0.01   -4.85  -35.80  -94.65
   1.795  -36.02  -96.50   -0.01   -4.94   -0.02   -4.96  -36.18  -94.06
   1.818  -36.54  -97.75   -0.01   -5.05   -0.02   -5.08  -36.39  -93.74
   1.840  -37.05  -97.47   -0.01   -5.15   -0.02   -5.20  -36.73  -94.77
   1.863  -37.39  -96.09   -0.01   -5.26   -0.02   -5.30  -37.15  -95.42
   1.885  -37.50  -96.68   -0.01   -5.38   -0.01   -5.40  -37.74  -95.14
   1.908  -37.84  -99.06    0.00   -5.47   -0.02   -5.50  -38.13  -94.32
   1.930  -38.62  -99.58   -0.01   -5.59   -0.02   -5.61  -38.44  -94.12
   1.953  -39.24  -97.01   -0.01   -5.70   -0.01   -5.71  -38.83  -94.44
   1.975  -39.31  -95.57   -0.01   -5.80   -0.02   -5.83  -39.33  -94.84
   1.998  -39.57  -98.64   -0.01   -5.91   -0.01   -5.93  -39.98  -92.05
   2.020  -40.48 -101.37   -0.01   -6.01   -0.02   -6.03  -40.13  -90.84
   2.043  -41.35  -98.89   -0.01   -6.12   -0.01   -6.12  -40.52  -92.54
   2.065  -41.20  -96.52   -0.01   -6.24   -0.01   -6.24  -41.16  -93.98
   2.088  -41.52 -100.72   -0.01   -6.33   -0.01   -6.37  -41.95  -91.02
   2.110  -42.39 -103.25    0.00   -6.44   -0.01   -6.47  -42.14  -90.98
   2.133  -43.45 -100.45    0.00   -6.57   -0.01   -6.58  -42.62  -92.64
   2.155  -43.63  -96.14    0.00   -6.67   -0.01   -6.70  -43.62  -92.17
   2.178  -43.75 -100.56    0.00   -6.78   -0.01   -6.82  -44.47  -88.89
   2.200  -44.75 -105.67    0.00   -6.88   -0.01   -6.92  -44.75  -88.37
   2.223  -46.36 -105.73    0.00   -7.00   -0.01   -7.03  -45.51  -89.75
   2.245  -46.95 -100.25    0.00   -7.09   -0.01   -7.13  -46.82  -87.91
   2.268  -46.87 -102.20   -0.01   -7.21   -0.01   -7.24  -47.48  -84.84
   2.290  -47.56 -111.71   -0.01   -7.32   -0.01   -7.33  -48.43  -84.30
   2.313  -50.12 -116.54    0.00   -7.42   -0.01   -7.47  -49.29  -83.07
   2.335  -52.06 -106.17   -0.01   -7.53   -0.02   -7.55  -50.11  -80.91
   2.358  -51.87 -100.92   -0.01   -7.64   -0.02   -7.65  -51.59  -77.97
   2.380  -52.39 -110.72   -0.01   -7.73   -0.01   -7.75  -53.07  -66.20
   2.403  -55.10 -130.55   -0.01   -7.81   -0.02   -7.84  -53.48  -61.54
   2.425  -60.57 -141.05   -0.01   -7.92   -0.01   -7.95  -55.22  -55.49
   2.448  -62.46 -122.35   -0.01   -8.04   -0.01   -8.05  -57.36  -46.53
   2.470  -58.64 -145.83   -0.01   -8.15   -0.01   -8.17  -58.53  -26.10
   2.493  -57.71  169.67   -0.01   -8.23   -0.01   -8.28  -58.83  -13.73
   2.515  -57.92  128.22   -0.01   -8.33   -0.01   -8.38  -60.86    6.33
   2.538  -59.07  108.62    0.00   -8.42   -0.01   -8.48  -57.88   31.87
   2.560  -58.40  117.52   -0.01   -8.56   -0.01   -8.57  -55.60   36.63
   2.583  -53.57  119.93   -0.01   -8.67   -0.02   -8.72  -54.24   38.15
   2.605  -50.34  104.42   -0.01   -8.79   -0.01   -8.80  -53.36   50.87
   2.628  -50.00   91.48   -0.01   -8.88   -0.01   -8.89  -51.04   56.66
   2.650  -50.22   96.68   -0.01   -8.97   -0.01   -9.01  -50.07   56.65
   2.673  -48.76  103.65    0.00   -9.10   -0.02   -9.11  -49.60   56.85
   2.695  -46.86  100.58   -0.01   -9.19   -0.02   -9.23  -49.34   60.65
   2.718  -46.03   92.41   -0.01   -9.31   -0.02   -9.34  -48.33   62.12
   2.740  -45.88   89.23    0.00   -9.42   -0.02   -9.44  -47.41   63.20
   2.763  -45.51   90.17   -0.01   -9.53   -0.02   -9.55  -46.51   61.12
   2.785  -44.28   89.88   -0.01   -9.65   -0.02   -9.64  -45.97   62.07
   2.808  -43.39   87.59   -0.01   -9.74   -0.02   -9.75  -45.51   62.15
   2.830  -43.20   84.49   -0.01   -9.87   -0.02   -9.85  -44.95   65.33
   2.853  -42.66   84.97   -0.01   -9.98   -0.02   -9.98  -44.46   67.84
   2.875  -42.19   84.58   -0.01  -10.09   -0.02  -10.08  -44.05   66.88
   2.898  -41.68   82.43   -0.01  -10.19   -0.02  -10.19  -43.67   66.37
   2.920  -41.64   79.42   -0.01  -10.29   -0.02  -10.30  -43.33   67.33
   2.943  -41.54   79.93   -0.02  -10.41   -0.02  -10.41  -42.75   68.35
   2.965  -41.17   81.09   -0.02  -10.51   -0.02  -10.54  -42.20   66.79
   2.988  -40.51   80.54   -0.02  -10.63   -0.03  -10.63  -41.75   67.90
   3.010  -40.20   78.76   -0.02  -10.73   -0.03  -10.76  -41.09   67.79
   3.033  -40.17   78.84   -0.02  -10.84   -0.03  -10.86  -40.78   67.54
   3.055  -38.39   72.73   -0.02  -10.97   -0.03  -10.98  -37.93   70.66
   3.078  -37.73   74.29   -0.02  -11.07   -0.03  -11.08  -37.63   70.28
   3.100  -37.03   72.75   -0.03  -11.20   -0.03  -11.18  -37.16   69.36
   3.123  -36.68   70.82   -0.03  -11.29   -0.03  -11.31  -36.70   68.49
   3.145  -36.43   71.16   -0.03  -11.40   -0.03  -11.40  -36.31   67.82
   3.168  -35.80   71.98   -0.03  -11.54   -0.04  -11.53  -35.83   67.75
   3.190  -35.22   70.70   -0.03  -11.65   -0.03  -11.64  -35.39   67.72
   3.213  -34.80   69.42   -0.03  -11.78   -0.04  -11.77  -34.95   67.12
   3.235  -34.53   69.43   -0.03  -11.93   -0.04  -11.91  -34.53   66.28
   3.258  -34.10   69.96   -0.03  -12.02   -0.04  -12.06  -34.20   65.79
   3.280  -33.50   69.74   -0.04  -12.18   -0.04  -12.19  -33.76   65.56
   3.303  -33.08   68.72   -0.03  -12.32   -0.04  -12.33  -33.26   65.40
   3.325  -32.62   68.87   -0.04  -12.47   -0.05  -12.50  -32.66   65.06
   3.348  -31.94   69.06   -0.04  -12.64   -0.05  -12.70  -32.02   64.68
   3.370  -31.12   68.31   -0.04  -12.85   -0.06  -12.87  -31.31   63.93
   3.393  -30.40   66.30   -0.06  -13.06   -0.07  -13.08  -30.58   62.48
   3.415  -29.77   64.33   -0.07  -13.28   -0.08  -13.28  -29.87   60.60
   3.438  -29.03   62.91   -0.09  -13.51   -0.10  -13.51  -29.18   58.70
   3.460  -28.14   60.85   -0.11  -13.77   -0.12  -13.78  -28.30   56.10
   3.483  -27.16   57.25   -0.14  -14.05   -0.15  -14.06  -27.34   52.53
   3.505  -26.17   52.49   -0.19  -14.30   -0.20  -14.33  -26.30   47.71
   3.528  -25.05   46.50   -0.26  -14.59   -0.27  -14.59  -25.22   41.13
   3.550  -23.85   37.81   -0.37  -14.73   -0.38  -14.72  -24.07   32.21
   3.573  -22.85   25.39   -0.51  -14.46   -0.52  -14.47  -23.11   19.79
   3.595  -22.36    9.07   -0.64  -13.56   -0.64  -13.54  -22.64    3.25
   3.618  -22.77   -8.79   -0.64  -12.19   -0.65  -12.20  -23.08  -15.20
   3.640  -24.08  -24.67   -0.52  -11.25   -0.53  -11.25  -24.41  -31.68
   3.663  -25.91  -36.60   -0.38  -10.94   -0.39  -10.96  -26.29  -44.00
   3.685  -27.91  -44.36   -0.27  -11.07   -0.28  -11.10  -28.39  -52.51
   3.708  -29.97  -49.16   -0.20  -11.33   -0.21  -11.32  -30.50  -57.64
   3.730  -31.98  -51.24   -0.15  -11.60   -0.16  -11.60  -32.58  -60.36
   3.753  -33.89  -50.90   -0.12  -11.86   -0.13  -11.88  -34.66  -61.64
   3.775  -35.63  -49.29   -0.10  -12.12   -0.10  -12.15  -36.66  -61.41
   3.798  -37.43  -46.81   -0.08  -12.35   -0.09  -12.37  -38.70  -59.52
   3.820  -39.22  -41.41   -0.07  -12.58   -0.08  -12.57  -40.75  -56.72
   3.843  -40.71  -33.74   -0.06  -12.75   -0.07  -12.78  -42.97  -50.17
   3.865  -41.96  -25.33   -0.05  -12.94   -0.07  -12.95  -45.02  -39.07
   3.888  -43.06  -14.09   -0.05  -13.12   -0.06  -13.11  -46.57  -25.95
   3.910  -43.51   -1.71   -0.05  -13.27   -0.06  -13.29  -47.86  -10.37
   3.933  -43.37    7.66   -0.05  -13.42   -0.06  -13.41  -48.72   10.43
   3.955  -43.41   16.23   -0.05  -13.58   -0.05  -13.57  -47.91   31.88
   3.978  -43.52   27.07   -0.04  -13.70   -0.06  -13.69  -46.17   43.17
   4.000  -42.54   37.16   -0.04  -13.82   -0.05  -13.83  -45.11   49.73
   4.023  -41.52   41.23   -0.04  -13.95   -0.05  -13.96  -44.24   54.72
   4.045  -41.10   44.14   -0.04  -14.06   -0.05  -14.06  -43.18   60.29
   4.068  -40.70   49.93   -0.04  -14.17   -0.05  -14.19  -41.89   64.24
   4.090  -39.78   54.67   -0.04  -14.30   -0.05  -14.28  -40.80   65.32
   4.113  -38.91   55.26   -0.04  -14.41   -0.05  -14.43  -40.21   65.29
   4.135  -38.48   55.37   -0.04  -14.50   -0.05  -14.52  -39.65   67.05
   4.158  -38.19   57.52   -0.03  -14.63   -0.05  -14.64  -39.06   68.65
   4.180  -37.62   59.96   -0.03  -14.76   -0.04  -14.74  -38.48   69.73
   4.203  -37.00   59.87   -0.03  -14.87   -0.04  -14.86  -37.84   68.92
   4.225  -36.75   59.70   -0.03  -14.98   -0.04  -14.98  -37.41   69.21
   4.248  -36.47   61.74   -0.03  -15.10   -0.04  -15.10  -36.90   69.37
   4.270  -35.94   63.82   -0.03  -15.19   -0.04  -15.20  -36.49   68.93
   4.293  -35.29   63.53   -0.03  -15.32   -0.04  -15.33  -36.14   69.39
   4.315  -34.97   61.96   -0.03  -15.45   -0.03  -15.45  -35.76   69.78
   4.338  -34.91   62.46   -0.02  -15.56   -0.03  -15.57  -35.38   70.13
   4.360  -34.57   64.47   -0.02  -15.68   -0.03  -15.68  -35.01   69.69
   4.383  -33.99   64.36   -0.02  -15.81   -0.03  -15.81  -34.72   69.04
   4.405  -33.70   62.69   -0.03  -15.92   -0.04  -15.91  -34.47   69.07
   4.428  -33.64   62.05   -0.03  -16.03   -0.04  -16.04  -34.12   69.63
   4.450  -33.52   63.55   -0.03  -16.15   -0.04  -16.14  -33.70   69.39
   4.473  -33.07   64.67   -0.03  -16.25   -0.04  -16.24  -33.37   68.54
   4.495  -32.73   63.20   -0.03  -16.37   -0.04  -16.37  -33.17   68.09
   4.518  -32.65   62.52   -0.03  -16.48   -0.04  -16.45  -33.01   68.40
   4.540  -32.49   63.40   -0.03  -16.58   -0.04  -16.57  -32.71   68.83
   4.563  -32.15   64.33   -0.03  -16.69   -0.04  -16.67  -32.32   68.49
   4.585  -31.73   63.17   -0.03  -16.79   -0.04  -16.77  -31.97   67.18
   4.608  -31.54   62.02   -0.03  -16.90   -0.04  -16.89  -31.70   65.65
   4.630  -31.39   62.17   -0.03  -17.02   -0.04  -17.00  -31.53   65.07
   4.653  -31.12   62.38   -0.03  -17.13   -0.04  -17.10  -31.40   64.68
   4.675  -30.87   61.28   -0.03  -17.24   -0.04  -17.23  -31.25   64.53
   4.698  -30.89   60.44   -0.03  -17.35   -0.04  -17.34  -31.13   64.58
   4.720  -30.96   61.38   -0.03  -17.48   -0.04  -17.45  -30.96   64.43
   4.743  -30.74   62.54   -0.03  -17.59   -0.04  -17.58  -30.78   64.55
   4.765  -30.33   62.61   -0.03  -17.71   -0.05  -17.71  -30.61   64.56
   4.788  -30.13   61.69   -0.03  -17.83   -0.04  -17.81  -30.41   64.36
   4.810  -30.05   61.74   -0.03  -17.95   -0.05  -17.92  -30.16   64.51
   4.833  -29.86   62.63   -0.04  -18.08   -0.05  -18.06  -29.87   64.49
   4.855  -29.49   62.61   -0.03  -18.21   -0.05  -18.19  -29.63   64.19
   4.878  -29.26   61.99   -0.03  -18.31   -0.05  -18.29  -29.48   63.97
   4.900  -29.17   61.77   -0.04  -18.44   -0.05  -18.39  -29.29   63.92
   4.923  -29.00   62.25   -0.04  -18.57   -0.05  -18.53  -29.08   63.74
   4.945  -28.68   62.31   -0.04  -18.69   -0.05  -18.66  -28.84   63.31
   4.968  -28.44   61.44   -0.04  -18.82   -0.05  -18.76  -28.62   62.85
   4.990  -28.32   60.91   -0.04  -18.94   -0.06  -18.89  -28.41   62.33
   5.013  -28.12   61.47   -0.04  -19.06   -0.06  -19.03  -28.22   62.50
   5.035  -27.80   61.60   -0.05  -19.20   -0.06  -19.16  -27.99   62.43
   5.058  -27.53   60.80   -0.05  -19.31   -0.06  -19.29  -27.73   62.24
   5.080  -27.41   60.31   -0.05  -19.44   -0.06  -19.40  -27.48   61.80
   5.103  -27.27   60.60   -0.05  -19.62   -0.07  -19.57  -27.33   61.26
   5.125  -26.98   60.80   -0.06  -19.74   -0.07  -19.68  -27.15   60.99
   5.148  -26.70   60.11   -0.06  -19.86   -0.07  -19.82  -26.92   60.90
   5.170  -26.52   59.35   -0.07  -20.00   -0.08  -19.97  -26.64   60.59
   5.193  -26.34   59.43   -0.07  -20.17   -0.08  -20.12  -26.37   60.21
   5.215  -26.04   59.65   -0.07  -20.30   -0.08  -20.26  -26.14   59.67
   5.238  -25.71   59.05   -0.08  -20.48   -0.09  -20.43  -25.88   59.44
   5.260  -25.52   58.41   -0.08  -20.61   -0.09  -20.59  -25.63   59.19
   5.283  -25.29   58.29   -0.09  -20.80   -0.10  -20.75  -25.37   58.69
   5.305  -24.97   58.26   -0.09  -20.95   -0.10  -20.93  -25.10   57.95
   5.328  -24.62   57.33   -0.10  -21.14   -0.11  -21.08  -24.81   57.34
   5.350  -24.39   56.31   -0.11  -21.32   -0.12  -21.29  -24.53   56.66
   5.373  -24.19   55.89   -0.12  -21.48   -0.13  -21.45  -24.24   55.95
   5.395  -23.85   55.85   -0.13  -21.67   -0.14  -21.61  -23.93   55.43
   5.418  -23.45   55.08   -0.14  -21.88   -0.15  -21.84  -23.58   54.80
   5.440  -23.13   53.80   -0.15  -22.09   -0.17  -22.04  -23.25   53.90
   5.463  -22.84   53.04   -0.17  -22.29   -0.18  -22.23  -22.92   52.74
   5.485  -22.50   52.52   -0.18  -22.53   -0.19  -22.47  -22.59   51.78
   5.508  -22.09   51.40   -0.20  -22.78   -0.21  -22.71  -22.23   50.72
   5.530  -21.70   49.74   -0.22  -23.00   -0.24  -22.95  -21.83   49.44
   5.553  -21.34   48.40   -0.25  -23.25   -0.26  -23.17  -21.41   47.94
   5.575  -20.92   47.15   -0.28  -23.51   -0.30  -23.45  -20.98   46.28
   5.598  -20.43   45.40   -0.32  -23.80   -0.34  -23.71  -20.55   44.45
   5.620  -19.94   43.04   -0.37  -24.07   -0.38  -23.98  -20.10   42.34
   5.643  -19.53   40.63   -0.42  -24.35   -0.43  -24.24  -19.63   40.03
   5.665  -19.06   38.10   -0.49  -24.62   -0.50  -24.51  -19.12   37.22
   5.688  -18.52   35.04   -0.57  -24.83   -0.58  -24.76  -18.60   33.87
   5.710  -17.99   31.03   -0.67  -25.01   -0.68  -24.92  -18.11   29.90
   5.733  -17.52   26.41   -0.78  -25.11   -0.79  -25.03  -17.63   25.49
   5.755  -17.09   21.44   -0.91  -25.02   -0.92  -24.97  -17.13   20.42
   5.778  -16.66   15.86   -1.06  -24.71   -1.07  -24.60  -16.72   14.55
   5.800  -16.30    9.20   -1.21  -24.06   -1.22  -23.95  -16.40    7.83
   5.823  -16.13    1.58   -1.33  -23.11   -1.34  -22.98  -16.23    0.31
   5.845  -16.13   -6.47   -1.40  -21.84   -1.41  -21.74  -16.19   -7.73
   5.868  -16.31  -14.28   -1.41  -20.45   -1.42  -20.32  -16.37  -15.83
   5.890  -16.67  -22.10   -1.35  -19.11   -1.36  -19.04  -16.74  -23.77
   5.913  -17.21  -29.67   -1.23  -18.09   -1.24  -18.00  -17.30  -31.17
   5.935  -17.93  -36.41   -1.09  -17.39   -1.10  -17.31  -17.98  -37.81
   5.958  -18.75  -41.96   -0.94  -17.00   -0.95  -16.93  -18.78  -43.67
   5.980  -19.59  -46.65   -0.81  -16.89   -0.81  -16.79  -19.63  -48.76
   6.003  -20.45  -50.97   -0.69  -16.95   -0.70  -16.89  -20.52  -53.03
   6.025  -21.39  -54.76   -0.59  -17.10   -0.60  -17.01  -21.45  -56.39
   6.048  -22.40  -57.36   -0.51  -17.36   -0.51  -17.27  -22.38  -59.15
   6.070  -23.34  -58.98   -0.44  -17.59   -0.45  -17.49  -23.29  -61.20
   6.093  -24.16  -60.57   -0.38  -17.87   -0.39  -17.74  -24.19  -63.14
   6.115  -25.08  -62.56   -0.33  -18.16   -0.34  -18.06  -25.15  -64.64
   6.138  -26.11  -63.39   -0.29  -18.43   -0.30  -18.31  -26.10  -65.57
   6.160  -27.01  -62.55   -0.26  -18.70   -0.27  -18.58  -26.98  -65.93
   6.183  -27.75  -62.34   -0.23  -18.96   -0.24  -18.84  -27.86  -66.10
   6.205  -28.61  -63.15   -0.21  -19.21   -0.22  -19.08  -28.72  -66.12
   6.228  -29.79  -62.50   -0.19  -19.44   -0.19  -19.31  -29.59  -65.50
   6.250  -30.73  -59.54   -0.17  -19.65   -0.18  -19.50  -30.48  -64.15
   6.273  -31.30  -57.60   -0.16  -19.87   -0.16  -19.77  -31.40  -62.54
