!  American Technical Ceramics  Date:   4/26/2005
!  One Norden Lane
!  Huntington Station,  NY.   11746-2102
!  Tel:  (631) 622-4700               Fax:  (631) 622-4748
!  Part Number  600S390         Mounting Orientation: Horizontal
!  Description: Ultra Low ESR Microwave capacitors
!  Application: Coupling, Bypass, Tuning, DC Block
!               Filters, Matching
# GHZ S DB R 50
! Freq   |S11|   S11 Ph  |S21|   S21 Ph  |S12|   S12 Ph  |S22|   S22 Ph
   0.000    0.00    0.00 -999.00   90.00 -999.00   90.00    0.00    0.00
   0.400  -20.44  -85.30   -0.04    4.15   -0.05    4.10  -20.44  -85.55
   0.422  -20.92  -85.73   -0.04    3.79   -0.05    3.72  -20.93  -85.91
   0.443  -21.40  -86.01   -0.04    3.43   -0.04    3.36  -21.42  -86.28
   0.465  -21.85  -86.23   -0.03    3.11   -0.04    3.05  -21.88  -86.66
   0.486  -22.30  -86.54   -0.03    2.79   -0.04    2.74  -22.32  -87.02
   0.508  -22.72  -86.74   -0.03    2.52   -0.03    2.44  -22.76  -87.20
   0.529  -23.15  -86.93   -0.03    2.23   -0.03    2.18  -23.17  -87.66
   0.551  -23.55  -87.00   -0.03    1.99   -0.03    1.92  -23.59  -87.95
   0.572  -23.92  -87.16   -0.03    1.73   -0.02    1.70  -24.00  -88.25
   0.594  -24.30  -87.35   -0.02    1.51   -0.03    1.45  -24.37  -88.52
   0.615  -24.68  -87.38   -0.02    1.28   -0.02    1.22  -24.75  -88.96
   0.637  -25.03  -87.48   -0.02    1.08   -0.03    1.02  -25.12  -89.44
   0.658  -25.38  -87.49   -0.02    0.88   -0.02    0.82  -25.49  -89.70
   0.680  -25.72  -87.63   -0.02    0.68   -0.02    0.62  -25.85  -89.93
   0.701  -26.08  -87.49   -0.02    0.46   -0.02    0.41  -26.20  -90.15
   0.723  -26.44  -87.59   -0.01    0.30   -0.02    0.26  -26.55  -90.53
   0.744  -26.76  -87.59   -0.02    0.12   -0.02    0.06  -26.89  -90.74
   0.766  -27.07  -87.55   -0.02   -0.04   -0.02   -0.10  -27.24  -91.01
   0.787  -27.41  -87.48   -0.01   -0.24   -0.02   -0.28  -27.57  -91.54
   0.809  -27.72  -87.37   -0.01   -0.38   -0.02   -0.43  -27.92  -91.91
   0.830  -28.02  -87.43   -0.01   -0.55   -0.02   -0.58  -28.25  -92.42
   0.852  -28.31  -87.34   -0.01   -0.70   -0.02   -0.77  -28.57  -92.85
   0.873  -28.62  -87.15   -0.01   -0.85   -0.01   -0.90  -28.90  -93.07
   0.895  -28.91  -86.78   -0.01   -1.00   -0.01   -1.06  -29.17  -93.57
   0.916  -29.20  -86.70   -0.01   -1.15   -0.01   -1.20  -29.50  -94.08
   0.938  -29.50  -86.63   -0.01   -1.31   -0.01   -1.35  -29.85  -94.52
   0.959  -29.81  -86.23   -0.01   -1.45   -0.02   -1.49  -30.16  -94.95
   0.981  -30.11  -86.03   -0.01   -1.59   -0.01   -1.63  -30.47  -95.39
   1.002  -30.38  -85.97   -0.01   -1.71   -0.02   -1.78  -30.77  -95.90
   1.024  -30.66  -85.81   -0.01   -1.87   -0.02   -1.90  -31.10  -96.55
   1.045  -30.93  -85.39   -0.01   -1.97   -0.01   -2.05  -31.42  -97.18
   1.067  -31.21  -85.06   -0.01   -2.13   -0.02   -2.16  -31.73  -97.82
   1.088  -31.48  -84.67   -0.01   -2.24   -0.01   -2.29  -32.03  -98.36
   1.110  -31.75  -84.29   -0.01   -2.37   -0.01   -2.42  -32.32  -99.12
   1.131  -32.04  -83.73   -0.01   -2.50   -0.02   -2.56  -32.64  -99.58
   1.153  -32.34  -83.32   -0.01   -2.64   -0.01   -2.67  -32.94 -100.14
   1.174  -32.61  -82.82   -0.01   -2.76   -0.02   -2.81  -33.22 -101.06
   1.196  -32.91  -82.38   -0.01   -2.87   -0.02   -2.92  -33.50 -101.76
   1.217  -33.15  -81.85   -0.01   -3.00   -0.02   -3.03  -33.85 -102.95
   1.239  -33.40  -81.39   -0.01   -3.12   -0.01   -3.16  -34.15 -103.92
   1.260  -33.66  -80.92   -0.01   -3.24   -0.01   -3.29  -34.46 -105.00
   1.282  -33.93  -80.08   -0.01   -3.34   -0.01   -3.40  -34.74 -105.98
   1.303  -34.13  -79.25   -0.01   -3.47   -0.02   -3.52  -35.09 -107.44
   1.325  -34.43  -78.52   -0.01   -3.58   -0.02   -3.63  -35.48 -108.09
   1.346  -34.74  -77.57   -0.01   -3.70   -0.02   -3.75  -35.81 -108.73
   1.368  -34.93  -76.41   -0.01   -3.83   -0.01   -3.86  -36.03 -109.57
   1.389  -35.21  -75.65   -0.01   -3.92   -0.01   -3.97  -36.33 -110.79
   1.411  -35.42  -74.89   -0.01   -4.05   -0.01   -4.10  -36.57 -111.90
   1.432  -35.70  -73.98   -0.02   -4.14   -0.02   -4.21  -36.82 -112.53
   1.454  -35.91  -72.82   -0.01   -4.26   -0.02   -4.31  -37.01 -113.74
   1.475  -36.10  -71.51   -0.01   -4.40   -0.02   -4.42  -37.13 -115.86
   1.497  -36.28  -70.46   -0.01   -4.48   -0.02   -4.53  -37.34 -117.81
   1.518  -36.50  -69.18   -0.01   -4.61   -0.02   -4.62  -37.54 -120.07
   1.540  -36.69  -67.39   -0.02   -4.69   -0.02   -4.74  -37.84 -122.30
   1.561  -36.84  -65.31   -0.02   -4.80   -0.02   -4.83  -38.12 -124.69
   1.583  -36.89  -64.17   -0.01   -4.91   -0.02   -4.94  -38.36 -126.94
   1.604  -37.03  -63.78   -0.01   -5.00   -0.02   -5.06  -38.74 -128.97
   1.626  -37.21  -62.67   -0.02   -5.13   -0.02   -5.17  -38.92 -130.99
   1.647  -37.32  -61.64   -0.01   -5.24   -0.02   -5.26  -39.13 -132.61
   1.669  -37.40  -61.04   -0.01   -5.34   -0.01   -5.37  -39.31 -135.78
   1.690  -37.60  -60.54   -0.01   -5.45   -0.02   -5.50  -39.60 -138.39
   1.712  -37.81  -58.72   -0.02   -5.56   -0.01   -5.60  -39.79 -140.16
   1.733  -38.00  -56.91   -0.02   -5.67   -0.02   -5.72  -39.90 -141.64
   1.755  -38.02  -54.77   -0.02   -5.77   -0.02   -5.81  -40.02 -144.21
   1.776  -38.10  -53.28   -0.01   -5.89   -0.02   -5.91  -40.14 -146.56
   1.798  -38.28  -51.83   -0.01   -5.98   -0.02   -6.03  -40.27 -148.31
   1.819  -38.35  -50.52   -0.02   -6.09   -0.02   -6.13  -40.24 -150.53
   1.841  -38.45  -48.83   -0.02   -6.19   -0.02   -6.21  -40.32 -152.94
   1.862  -38.45  -47.07   -0.02   -6.28   -0.02   -6.35  -40.28 -155.42
   1.884  -38.43  -46.16   -0.02   -6.38   -0.02   -6.42  -40.33 -158.41
   1.905  -38.49  -45.24   -0.02   -6.48   -0.02   -6.52  -40.33 -160.59
   1.927  -38.50  -42.90   -0.02   -6.56   -0.02   -6.60  -40.42 -162.39
   1.948  -38.45  -41.06   -0.02   -6.67   -0.02   -6.72  -40.35 -165.10
   1.970  -38.37  -39.57   -0.02   -6.81   -0.02   -6.81  -40.23 -166.70
   1.991  -38.32  -38.13   -0.02   -6.92   -0.02   -6.94  -40.19 -168.83
   2.013  -38.45  -36.76   -0.02   -7.00   -0.02   -7.02  -40.15 -170.22
   2.034  -38.39  -34.84   -0.02   -7.09   -0.02   -7.12  -39.91 -171.41
   2.056  -38.25  -33.28   -0.02   -7.19   -0.02   -7.22  -39.77 -173.52
   2.077  -38.13  -32.65   -0.02   -7.29   -0.02   -7.34  -39.58 -176.51
   2.099  -38.08  -32.29   -0.02   -7.40   -0.02   -7.43  -39.53 -178.42
   2.120  -38.00  -30.48   -0.02   -7.49   -0.02   -7.55  -39.47 -179.85
   2.142  -37.82  -29.46   -0.02   -7.59   -0.02   -7.65  -39.19  178.03
   2.163  -37.73  -28.79   -0.02   -7.69   -0.02   -7.75  -39.11  175.99
   2.185  -37.75  -27.67   -0.02   -7.80   -0.02   -7.85  -39.01  174.60
   2.206  -37.67  -26.04   -0.02   -7.92   -0.02   -7.95  -38.90  173.79
   2.228  -37.56  -24.67   -0.02   -8.04   -0.02   -8.04  -38.64  172.42
   2.249  -37.39  -23.97   -0.02   -8.12   -0.02   -8.17  -38.51  170.84
   2.271  -37.30  -23.27   -0.02   -8.22   -0.02   -8.25  -38.36  170.28
   2.292  -37.19  -22.71   -0.02   -8.32   -0.02   -8.37  -38.22  168.48
   2.314  -37.04  -21.45   -0.02   -8.40   -0.02   -8.47  -37.96  167.50
   2.335  -36.82  -20.79   -0.02   -8.54   -0.02   -8.56  -37.74  166.51
   2.357  -36.61  -20.43   -0.02   -8.62   -0.02   -8.67  -37.52  164.69
   2.378  -36.54  -19.60   -0.03   -8.74   -0.02   -8.78  -37.40  163.28
   2.400  -36.44  -18.50   -0.02   -8.86   -0.02   -8.90  -37.29  162.40
   2.421  -36.31  -17.24   -0.02   -8.96   -0.03   -9.01  -37.10  161.85
   2.443  -36.11  -16.30   -0.03   -9.07   -0.03   -9.10  -36.96  160.16
   2.464  -35.96  -16.13   -0.03   -9.16   -0.03   -9.19  -36.77  158.70
   2.486  -35.85  -15.75   -0.03   -9.26   -0.03   -9.32  -36.61  157.83
   2.507  -35.70  -15.20   -0.03   -9.37   -0.03   -9.42  -36.40  157.23
   2.529  -35.50  -14.06   -0.03   -9.46   -0.03   -9.53  -36.17  155.65
   2.550  -35.33  -13.54   -0.03   -9.58   -0.03   -9.65  -36.01  154.77
   2.572  -35.19  -12.87   -0.03   -9.72   -0.03   -9.75  -35.79  153.21
   2.593  -35.07  -11.81   -0.03   -9.82   -0.04   -9.86  -35.66  151.97
   2.615  -34.88  -10.32   -0.04   -9.92   -0.03   -9.95  -35.33  150.52
   2.636  -34.65   -9.17   -0.03  -10.04   -0.03  -10.08  -35.19  148.63
   2.658  -34.44   -8.53   -0.03  -10.16   -0.03  -10.20  -35.04  146.97
   2.679  -34.20   -7.83   -0.04  -10.31   -0.04  -10.32  -34.85  145.49
   2.701  -33.96   -6.13   -0.04  -10.40   -0.04  -10.45  -34.66  143.73
   2.722  -33.60   -4.41   -0.04  -10.54   -0.04  -10.60  -34.41  141.79
   2.744  -33.27   -3.55   -0.04  -10.68   -0.05  -10.72  -34.21  139.05
   2.765  -32.85   -2.38   -0.05  -10.82   -0.05  -10.86  -33.98  136.29
   2.787  -32.38   -0.91   -0.05  -11.00   -0.06  -11.01  -33.75  133.36
   2.808  -31.91    0.51   -0.06  -11.15   -0.06  -11.18  -33.48  129.51
   2.830  -31.28    1.54   -0.07  -11.32   -0.07  -11.35  -33.14  125.31
   2.851  -30.61    2.31   -0.09  -11.52   -0.09  -11.53  -32.81  119.88
   2.873  -29.86    2.43   -0.10  -11.71   -0.10  -11.73  -32.51  113.16
   2.894  -29.03    3.22   -0.13  -11.91   -0.13  -11.92  -32.07  105.58
   2.916  -27.96    3.11   -0.17  -12.12   -0.17  -12.13  -31.62   95.32
   2.937  -26.66    0.36   -0.23  -12.29   -0.23  -12.32  -31.14   80.34
   2.959  -25.13   -5.13   -0.32  -12.28   -0.32  -12.29  -30.68   60.60
   2.980  -23.94  -15.35   -0.41  -11.81   -0.40  -11.84  -30.66   33.53
   3.002  -25.73  -27.50   -0.43  -10.94   -0.43  -10.96  -27.65  -11.07
   3.023  -26.18  -44.07   -0.36  -10.23   -0.36  -10.29  -28.17  -31.64
   3.045  -27.24  -56.68   -0.27  -10.02   -0.26  -10.06  -29.26  -48.37
   3.066  -28.51  -65.33   -0.19  -10.11   -0.19  -10.14  -30.50  -60.85
   3.088  -29.72  -70.86   -0.14  -10.31   -0.14  -10.31  -31.69  -70.07
   3.109  -30.79  -74.13   -0.10  -10.50   -0.11  -10.52  -32.78  -77.11
   3.131  -31.71  -76.07   -0.08  -10.73   -0.08  -10.76  -33.74  -82.49
   3.152  -32.53  -77.31   -0.07  -10.94   -0.07  -10.96  -34.53  -86.71
   3.174  -33.23  -77.86   -0.06  -11.11   -0.06  -11.15  -35.23  -90.57
   3.195  -33.84  -78.00   -0.05  -11.29   -0.05  -11.31  -35.89  -94.20
   3.217  -34.37  -77.89   -0.04  -11.45   -0.04  -11.49  -36.49  -96.99
   3.238  -34.85  -77.66   -0.04  -11.63   -0.04  -11.66  -37.02  -99.03
   3.260  -35.21  -77.11   -0.04  -11.76   -0.04  -11.78  -37.37 -101.11
   3.281  -35.57  -76.68   -0.04  -11.92   -0.03  -11.93  -37.79 -102.54
   3.303  -35.71  -75.73   -0.04  -12.03   -0.03  -12.07  -38.03 -103.35
   3.324  -35.96  -75.17   -0.03  -12.14   -0.04  -12.19  -38.21 -104.79
   3.346  -36.16  -75.62   -0.03  -12.28   -0.03  -12.29  -38.47 -106.92
   3.367  -36.41  -75.70   -0.03  -12.42   -0.03  -12.42  -38.82 -108.34
   3.389  -36.69  -75.10   -0.03  -12.52   -0.03  -12.52  -39.06 -109.33
   3.410  -36.93  -74.38   -0.03  -12.66   -0.03  -12.68  -39.17 -110.18
   3.432  -37.07  -73.64   -0.03  -12.75   -0.03  -12.78  -39.10 -111.00
   3.453  -37.22  -73.09   -0.03  -12.88   -0.03  -12.88  -39.13 -112.89
   3.475  -37.38  -72.45   -0.03  -12.98   -0.03  -13.01  -39.38 -114.42
   3.496  -37.53  -71.29   -0.03  -13.10   -0.03  -13.12  -39.56 -115.08
   3.518  -37.62  -70.02   -0.03  -13.19   -0.03  -13.23  -39.67 -115.59
   3.539  -37.65  -69.37   -0.03  -13.33   -0.03  -13.36  -39.75 -116.13
   3.561  -37.69  -69.11   -0.03  -13.43   -0.03  -13.45  -39.83 -117.77
   3.582  -37.77  -68.25   -0.03  -13.51   -0.03  -13.53  -39.89 -119.32
   3.604  -37.83  -67.25   -0.03  -13.63   -0.03  -13.64  -40.02 -120.35
   3.625  -37.84  -66.29   -0.04  -13.73   -0.04  -13.75  -40.04 -120.58
   3.647  -37.81  -65.94   -0.03  -13.82   -0.03  -13.87  -39.95 -122.07
   3.668  -37.83  -65.46   -0.03  -13.91   -0.03  -13.96  -40.09 -123.64
   3.690  -37.82  -64.89   -0.03  -14.04   -0.03  -14.08  -40.31 -125.30
   3.711  -37.84  -65.01   -0.03  -14.14   -0.03  -14.17  -40.59 -126.52
   3.733  -37.93  -64.39   -0.03  -14.25   -0.03  -14.28  -40.81 -127.49
   3.754  -38.02  -64.10   -0.03  -14.35   -0.03  -14.39  -41.00 -127.89
   3.776  -38.07  -63.12   -0.03  -14.48   -0.03  -14.51  -41.01 -128.50
   3.797  -38.07  -62.17   -0.03  -14.57   -0.03  -14.61  -41.14 -129.79
   3.819  -38.04  -62.15   -0.03  -14.69   -0.03  -14.73  -41.19 -130.86
   3.840  -38.14  -61.49   -0.03  -14.79   -0.03  -14.83  -41.40 -132.80
   3.862  -38.20  -61.04   -0.03  -14.91   -0.03  -14.94  -41.74 -133.05
   3.883  -38.30  -59.34   -0.03  -15.01   -0.03  -15.06  -42.03 -133.71
   3.905  -38.28  -58.41   -0.03  -15.12   -0.03  -15.17  -42.21 -132.92
   3.926  -38.37  -57.80   -0.03  -15.25   -0.04  -15.29  -42.19 -134.41
   3.948  -38.37  -57.75   -0.03  -15.36   -0.03  -15.38  -42.50 -136.39
   3.969  -38.46  -56.61   -0.03  -15.46   -0.03  -15.52  -42.78 -137.30
   3.991  -38.60  -55.76   -0.04  -15.58   -0.03  -15.64  -43.04 -137.95
   4.012  -38.63  -54.29   -0.04  -15.71   -0.04  -15.73  -43.18 -139.47
   4.034  -38.69  -52.74   -0.04  -15.81   -0.04  -15.86  -43.35 -141.46
   4.055  -38.79  -51.51   -0.04  -15.95   -0.04  -15.97  -43.70 -143.74
   4.077  -38.94  -49.71   -0.04  -16.07   -0.04  -16.08  -44.15 -145.62
   4.098  -39.00  -47.58   -0.04  -16.18   -0.04  -16.19  -44.46 -147.92
   4.120  -39.10  -45.74   -0.05  -16.30   -0.05  -16.32  -44.95 -150.73
   4.141  -39.12  -44.54   -0.05  -16.40   -0.05  -16.42  -45.33 -153.77
   4.163  -39.20  -42.43   -0.05  -16.53   -0.05  -16.57  -45.76 -158.00
   4.184  -39.28  -39.75   -0.05  -16.65   -0.05  -16.67  -46.16 -162.72
   4.206  -39.23  -37.17   -0.06  -16.76   -0.05  -16.78  -46.66 -169.18
   4.227  -39.31  -34.86   -0.06  -16.90   -0.06  -16.91  -47.23 -176.41
   4.249  -39.42  -30.82   -0.06  -17.02   -0.06  -17.02  -47.78  174.10
   4.270  -39.34  -26.31   -0.06  -17.13   -0.07  -17.16  -48.38  162.26
   4.292  -39.21  -22.72   -0.07  -17.26   -0.07  -17.30  -48.61  153.13
   4.313  -39.01  -18.95   -0.07  -17.39   -0.07  -17.40  -48.48  142.43
   4.335  -38.82  -14.67   -0.08  -17.51   -0.07  -17.54  -47.52  130.06
   4.356  -38.52  -10.83   -0.08  -17.67   -0.08  -17.67  -46.50  116.92
   4.378  -38.15   -6.79   -0.08  -17.77   -0.09  -17.81  -45.56  107.39
   4.399  -37.65   -2.88   -0.09  -17.90   -0.09  -17.95  -44.26   98.64
   4.421  -37.21    0.72   -0.10  -18.06   -0.10  -18.08  -42.82   92.93
   4.442  -36.73    4.78   -0.10  -18.21   -0.10  -18.21  -41.13   86.51
   4.464  -36.14   10.01   -0.11  -18.31   -0.11  -18.35  -39.66   79.46
   4.485  -35.19   14.68   -0.11  -18.45   -0.11  -18.46  -38.49   73.20
   4.507  -34.10   16.96   -0.12  -18.58   -0.11  -18.61  -37.46   67.30
   4.528  -33.14   17.73   -0.12  -18.75   -0.12  -18.78  -36.53   63.21
   4.550  -32.32   17.83   -0.13  -18.91   -0.12  -18.95  -35.57   59.86
   4.571  -31.55   18.13   -0.13  -19.12   -0.13  -19.13  -34.59   56.56
   4.593  -30.80   18.65   -0.14  -19.32   -0.14  -19.32  -33.62   54.40
   4.614  -29.99   18.70   -0.15  -19.53   -0.15  -19.53  -32.61   51.18
   4.636  -29.20   18.96   -0.17  -19.76   -0.17  -19.77  -31.63   48.72
   4.657  -28.40   18.92   -0.19  -19.98   -0.19  -20.00  -30.65   46.38
   4.679  -27.55   18.54   -0.22  -20.24   -0.21  -20.28  -29.64   43.64
   4.700  -26.70   17.91   -0.25  -20.50   -0.25  -20.51  -28.63   40.78
   4.722  -25.83   16.75   -0.29  -20.74   -0.28  -20.78  -27.61   37.71
   4.743  -24.92   15.23   -0.33  -21.01   -0.33  -21.01  -26.54   34.11
   4.765  -23.99   13.16   -0.39  -21.24   -0.39  -21.26  -25.49   30.22
   4.786  -23.03   10.44   -0.46  -21.44   -0.46  -21.46  -24.44   25.69
   4.808  -22.06    7.05   -0.54  -21.61   -0.54  -21.59  -23.40   20.69
   4.829  -21.13    2.77   -0.64  -21.63   -0.64  -21.65  -22.39   15.00
   4.851  -20.24   -2.54   -0.76  -21.49   -0.76  -21.51  -21.42    8.44
   4.872  -19.43   -8.79   -0.88  -21.11   -0.88  -21.11  -20.55    0.73
   4.894  -18.77  -15.95   -0.98  -20.44   -0.99  -20.44  -19.83   -7.72
   4.915  -18.29  -23.84   -1.06  -19.50   -1.06  -19.51  -19.30  -16.84
   4.937  -18.02  -32.15   -1.07  -18.40   -1.08  -18.43  -19.00  -26.13
   4.958  -17.97  -40.36   -1.04  -17.37   -1.04  -17.38  -18.92  -35.24
   4.980  -18.13  -48.00   -0.96  -16.53   -0.96  -16.56  -19.02  -43.76
   5.001  -18.45  -54.90   -0.84  -15.95   -0.85  -16.01  -19.28  -51.45
   5.023  -18.87  -60.82   -0.73  -15.68   -0.74  -15.70  -19.67  -58.25
   5.044  -19.34  -65.89   -0.63  -15.57   -0.63  -15.62  -20.12  -64.29
   5.066  -19.84  -70.15   -0.53  -15.66   -0.53  -15.68  -20.61  -69.29
   5.087  -20.35  -73.73   -0.46  -15.78   -0.46  -15.81  -21.08  -73.48
   5.109  -20.84  -76.77   -0.39  -15.95   -0.39  -15.99  -21.55  -77.10
   5.130  -21.31  -79.26   -0.34  -16.18   -0.34  -16.17  -22.00  -80.26
   5.152  -21.79  -81.34   -0.30  -16.41   -0.30  -16.42  -22.43  -82.90
   5.173  -22.24  -83.12   -0.26  -16.62   -0.26  -16.66  -22.85  -85.25
   5.195  -22.65  -84.59   -0.23  -16.84   -0.23  -16.87  -23.25  -87.35
   5.216  -23.04  -85.80   -0.21  -17.06   -0.21  -17.07  -23.65  -89.29
   5.238  -23.41  -87.09   -0.19  -17.26   -0.18  -17.30  -24.00  -90.85
   5.259  -23.78  -88.07   -0.17  -17.47   -0.17  -17.51  -24.33  -92.23
   5.281  -24.14  -89.00   -0.16  -17.68   -0.15  -17.68  -24.66  -93.55
   5.302  -24.48  -89.69   -0.14  -17.85   -0.14  -17.90  -24.97  -94.75
   5.324  -24.79  -90.21   -0.13  -18.02   -0.12  -18.07  -25.28  -95.69
   5.345  -25.09  -90.68   -0.12  -18.20   -0.12  -18.22  -25.56  -96.43
   5.367  -25.39  -91.34   -0.11  -18.38   -0.10  -18.39  -25.85  -97.18
   5.388  -25.68  -91.82   -0.10  -18.53   -0.10  -18.54  -26.10  -97.90
   5.410  -25.97  -92.18   -0.10  -18.67   -0.09  -18.70  -26.36  -98.65
   5.431  -26.24  -92.44   -0.09  -18.83   -0.09  -18.84  -26.64  -99.41
   5.453  -26.50  -92.77   -0.08  -19.01   -0.08  -19.00  -26.91  -99.89
   5.474  -26.74  -93.03   -0.08  -19.15   -0.08  -19.15  -27.13 -100.33
   5.496  -27.01  -93.43   -0.07  -19.29   -0.07  -19.29  -27.34 -100.81
   5.517  -27.29  -93.56   -0.07  -19.41   -0.07  -19.45  -27.58 -101.28
   5.539  -27.53  -93.64   -0.06  -19.55   -0.06  -19.56  -27.82 -101.62
   5.560  -27.78  -93.75   -0.06  -19.68   -0.06  -19.70  -28.07 -101.78
   5.582  -28.03  -94.08   -0.06  -19.82   -0.06  -19.82  -28.29 -102.03
   5.603  -28.29  -94.15   -0.06  -19.95   -0.05  -19.95  -28.51 -102.29
   5.625  -28.50  -94.25   -0.05  -20.06   -0.05  -20.08  -28.74 -102.70
   5.646  -28.77  -94.24   -0.05  -20.17   -0.05  -20.22  -28.98 -102.94
   5.668  -29.04  -94.29   -0.05  -20.31   -0.05  -20.31  -29.21 -102.85
   5.689  -29.29  -94.29   -0.05  -20.44   -0.04  -20.43  -29.45 -102.91
   5.711  -29.53  -94.03   -0.04  -20.53   -0.04  -20.56  -29.68 -102.78
   5.732  -29.80  -94.21   -0.04  -20.66   -0.04  -20.69  -29.90 -102.84
   5.754  -30.07  -94.24   -0.03  -20.78   -0.04  -20.83  -30.12 -102.43
   5.775  -30.34  -94.17   -0.03  -20.90   -0.04  -20.90  -30.35 -102.35
   5.797  -30.62  -94.01   -0.04  -21.02   -0.03  -21.02  -30.56 -102.16
   5.818  -30.94  -93.63   -0.03  -21.13   -0.03  -21.11  -30.79 -102.04
   5.840  -31.18  -93.37   -0.03  -21.22   -0.03  -21.25  -31.04 -101.81
   5.861  -31.45  -93.30   -0.03  -21.36   -0.03  -21.37  -31.27 -101.73
   5.883  -31.76  -93.12   -0.03  -21.46   -0.03  -21.46  -31.56 -101.35
   5.904  -32.06  -92.86   -0.03  -21.56   -0.03  -21.56  -31.74 -101.13
   5.926  -32.41  -92.10   -0.02  -21.68   -0.02  -21.68  -32.02 -100.58
   5.947  -32.67  -91.43   -0.02  -21.78   -0.02  -21.79  -32.30 -100.08
   5.969  -32.95  -91.05   -0.02  -21.92   -0.02  -21.91  -32.54  -99.18
   5.990  -33.25  -90.44   -0.02  -22.03   -0.02  -22.03  -32.78  -98.65
   6.012  -33.52  -90.13   -0.02  -22.12   -0.02  -22.13  -33.05  -98.25
