!  American Technical Ceramics  Date:   10/26/00
!  One Norden Lane
!  Huntington Station,  NY.   11746-2102
!  Tel:  (631) 622-4700               Fax:  (631) 622-4748
!  Part Number  600S4R3       Mounting Orientation: Horizontal
!  Description: Ultra Low ESR Microwave capacitors
!  Application: Coupling, Bypass, Tuning, DC Block
!               Filters, Matching
# GHZ S DB R 50
! Freq   |S11|   S11 Ph  |S21|   S21 Ph  |S12|   S12 Ph  |S22|   S22 Ph
   0.000   0.00    0.00	  -999.00  90.00  -999.00  90.00    0.00    0.00
   0.400   -3.46  -48.74   -2.65   41.07   -2.66   40.97   -3.43  -48.30
   0.465   -4.22  -53.17   -2.10   36.60   -2.11   36.45   -4.22  -52.78
   0.530   -5.01  -56.73   -1.69   32.74   -1.72   32.02   -5.01  -56.76
   0.595   -5.74  -60.45   -1.41   29.58   -1.42   29.35   -5.72  -59.03
   0.660   -6.38  -63.10   -1.16   26.72   -1.19   26.89   -6.41  -61.83
   0.725   -7.07  -65.10   -0.98   24.30   -1.00   24.27   -7.06  -64.68
   0.790   -7.65  -67.41   -0.84   21.96   -0.85   21.76   -7.72  -67.30
   0.855   -8.28  -69.75   -0.74   20.16   -0.75   19.87   -8.29  -68.83
   0.920   -8.85  -71.37   -0.63   18.48   -0.66   18.29   -8.86  -70.40
   0.985   -9.38  -73.06   -0.57   16.90   -0.57   16.97   -9.41  -71.61
   1.050   -9.88  -73.91   -0.49   15.46   -0.50   15.50   -9.92  -73.83
   1.115  -10.41  -75.23   -0.43   14.20   -0.45   14.04  -10.40  -75.09
   1.180  -10.89  -77.04   -0.40   12.96   -0.41   12.72  -10.93  -75.84
   1.245  -11.35  -77.93   -0.34   11.97   -0.36   11.82  -11.32  -76.96
   1.310  -11.81  -78.65   -0.32   10.91   -0.33   10.95  -11.79  -77.94
   1.375  -12.23  -79.42   -0.28    9.95   -0.29    9.95  -12.21  -79.06
   1.440  -12.61  -80.28   -0.26    9.02   -0.27    8.93  -12.66  -80.10
   1.505  -13.07  -81.33   -0.23    8.25   -0.25    8.00  -13.02  -80.51
   1.570  -13.46  -82.02   -0.22    7.49   -0.23    7.38  -13.45  -81.09
   1.635  -13.80  -82.33   -0.20    6.62   -0.21    6.65  -13.84  -82.31
   1.700  -14.19  -82.56   -0.18    6.01   -0.20    5.95  -14.18  -83.02
   1.765  -14.52  -83.54   -0.17    5.30   -0.18    5.16  -14.56  -83.63
   1.830  -14.89  -84.37   -0.16    4.74   -0.17    4.51  -14.89  -84.06
   1.895  -15.22  -84.79   -0.15    4.05   -0.16    3.92  -15.22  -84.95
   1.960  -15.53  -85.01   -0.14    3.45   -0.14    3.46  -15.58  -85.74
   2.025  -15.85  -85.63   -0.13    2.85   -0.14    2.78  -15.90  -86.51
   2.090  -16.17  -86.24   -0.12    2.27   -0.13    2.15  -16.20  -87.03
   2.155  -16.50  -86.94   -0.12    1.74   -0.12    1.60  -16.51  -87.33
   2.220  -16.79  -87.17   -0.11    1.26   -0.12    1.18  -16.79  -88.06
   2.285  -17.07  -87.25   -0.11    0.74   -0.11    0.73  -17.09  -88.84
   2.350  -17.36  -87.65   -0.10    0.21   -0.10    0.17  -17.38  -89.41
   2.415  -17.67  -88.39   -0.10   -0.24   -0.11   -0.38  -17.64  -89.39
   2.480  -17.92  -88.55   -0.09   -0.73   -0.11   -0.87  -17.92  -89.92
   2.545  -18.20  -88.26   -0.09   -1.17   -0.09   -1.21  -18.17  -90.63
   2.610  -18.43  -88.45   -0.09   -1.54   -0.09   -1.59  -18.42  -91.12
   2.675  -18.66  -88.55   -0.08   -2.01   -0.09   -2.05  -18.68  -91.69
   2.740  -18.91  -89.22   -0.08   -2.40   -0.08   -2.55  -18.92  -91.88
   2.805  -19.15  -89.38   -0.08   -2.80   -0.09   -2.96  -19.16  -92.33
   2.870  -19.32  -89.25   -0.07   -3.21   -0.09   -3.29  -19.41  -93.27
   2.935  -19.52  -89.32   -0.07   -3.63   -0.08   -3.70  -19.66  -93.76
   3.000  -19.78  -91.14   -0.06   -4.03   -0.08   -4.12  -19.81  -92.52
   3.065  -19.94  -91.78   -0.07   -4.39   -0.07   -4.54  -20.04  -92.67
   3.130  -20.21  -92.03   -0.06   -4.77   -0.07   -4.90  -20.18  -92.76
   3.195  -20.38  -92.06   -0.05   -5.10   -0.06   -5.21  -20.38  -93.66
   3.260  -20.59  -92.78   -0.05   -5.51   -0.06   -5.57  -20.56  -94.12
   3.325  -20.80  -93.21   -0.06   -5.88   -0.06   -5.94  -20.78  -94.23
   3.390  -21.07  -93.46   -0.05   -6.22   -0.07   -6.34  -20.94  -94.54
   3.455  -21.19  -93.89   -0.05   -6.53   -0.06   -6.68  -21.11  -95.09
   3.520  -21.37  -93.61   -0.05   -6.93   -0.06   -6.94  -21.30  -96.09
   3.585  -21.56  -94.34   -0.04   -7.22   -0.05   -7.31  -21.51  -96.56
   3.650  -21.77  -94.97   -0.04   -7.59   -0.05   -7.69  -21.68  -97.00
   3.715  -21.93  -95.28   -0.04   -7.92   -0.05   -8.06  -21.93  -97.37
   3.780  -22.20  -95.15   -0.04   -8.27   -0.05   -8.39  -22.15  -98.12
   3.845  -22.36  -95.48   -0.04   -8.61   -0.04   -8.68  -22.38  -98.68
   3.910  -22.53  -95.67   -0.04   -8.90   -0.04   -8.99  -22.57  -98.73
   3.975  -22.53  -95.46   -0.03   -9.29   -0.04   -9.39  -22.51  -98.03
   4.040  -22.98  -95.95   -0.04   -9.58   -0.04   -9.74  -22.97  -99.20
   4.105  -23.17  -95.94   -0.03   -9.93   -0.04  -10.05  -23.17  -99.79
   4.170  -23.32  -95.71   -0.03  -10.22   -0.05  -10.31  -23.40 -100.16
   4.235  -23.54  -96.39   -0.04  -10.58   -0.04  -10.66  -23.56 -100.29
   4.300  -23.72  -97.00   -0.04  -10.84   -0.04  -10.96  -23.77 -100.95
   4.365  -24.01  -97.00   -0.04  -11.15   -0.04  -11.29  -24.04 -101.02
   4.430  -24.20  -96.23   -0.03  -11.45   -0.04  -11.56  -24.22 -101.54
   4.495  -24.32  -96.17   -0.03  -11.76   -0.04  -11.85  -24.37 -101.93
   4.560  -24.46  -96.53   -0.02  -12.07   -0.03  -12.14  -24.55 -101.98
   4.625  -24.69  -96.78   -0.03  -12.38   -0.03  -12.52  -24.70 -102.76
   4.690  -24.85  -96.68   -0.02  -12.67   -0.04  -12.83  -24.90 -103.01
   4.755  -24.98  -96.36   -0.03  -13.02   -0.04  -13.10  -25.10 -103.87
   4.820  -25.18  -96.51   -0.02  -13.34   -0.03  -13.38  -25.31 -104.47
   4.885  -25.38  -97.19   -0.03  -13.60   -0.04  -13.69  -25.47 -104.50
   4.950  -25.61  -97.12   -0.03  -13.92   -0.03  -14.00  -25.65 -104.93
   5.015  -25.79  -96.86   -0.02  -14.21   -0.04  -14.35  -25.96 -105.74
   5.080  -26.07  -96.85   -0.02  -14.52   -0.04  -14.62  -26.14 -106.09
   5.145  -26.26  -96.99   -0.03  -14.79   -0.03  -14.89  -26.42 -106.47
   5.210  -26.54  -96.99   -0.02  -15.14   -0.02  -15.22  -26.59 -106.23
   5.275  -26.82  -97.02   -0.02  -15.41   -0.04  -15.54  -26.84 -106.40
   5.340  -27.01  -96.52   -0.03  -15.75   -0.04  -15.85  -27.08 -107.02
   5.405  -27.24  -96.35   -0.02  -16.03   -0.04  -16.12  -27.37 -106.88
   5.470  -27.55  -95.97   -0.03  -16.29   -0.03  -16.41  -27.56 -107.15
   5.535  -27.85  -96.56   -0.02  -16.60   -0.04  -16.70  -27.82 -106.80
   5.600  -28.11  -96.23   -0.03  -16.89   -0.03  -17.01  -28.07 -106.99
   5.665  -28.54  -95.99   -0.02  -17.18   -0.03  -17.33  -28.35 -106.33
   5.730  -29.16  -95.74   -0.02  -17.48   -0.03  -17.65  -28.44 -105.42
   5.795  -29.92  -91.36   -0.02  -17.78   -0.02  -17.86  -28.06 -102.94
   5.860  -29.28  -84.26   -0.02  -18.10   -0.02  -18.22  -27.60 -108.97
   5.925  -28.85  -86.73   -0.02  -18.44   -0.03  -18.55  -28.21 -113.31
   5.990  -28.94  -88.47   -0.02  -18.73   -0.03  -18.84  -28.91 -114.83
   6.055  -29.25  -88.78   -0.03  -19.03   -0.03  -19.14  -29.30 -115.30
   6.120  -29.56  -89.27   -0.03  -19.36   -0.04  -19.48  -29.74 -116.24
   6.185  -29.79  -89.65   -0.03  -19.67   -0.04  -19.77  -30.05 -116.28
   6.250  -30.01  -88.37   -0.03  -20.00   -0.04  -20.10  -30.52 -118.26
   6.315  -30.17  -87.48   -0.04  -20.32   -0.05  -20.44  -30.96 -119.36
   6.380  -30.28  -87.41   -0.04  -20.68   -0.05  -20.77  -31.46 -122.18
   6.445  -30.09  -87.51   -0.05  -21.02   -0.07  -21.10  -31.92 -126.76
   6.510  -29.53  -89.85   -0.09  -21.45   -0.10  -21.54  -33.08 -136.55
   6.575  -28.89 -102.60   -0.16  -21.55   -0.17  -21.65  -36.83 -154.69
   6.640  -31.00 -123.21   -0.15  -21.15   -0.15  -21.28  -46.46  -97.29
   6.705  -34.93 -123.29   -0.08  -21.36   -0.09  -21.49  -38.90  -75.99
   6.770  -37.24 -116.63   -0.05  -21.80   -0.07  -21.90  -37.20  -79.59
   6.835  -38.51 -111.44   -0.05  -22.17   -0.05  -22.29  -37.05  -81.72
   6.900  -40.20 -106.73   -0.05  -22.59   -0.06  -22.70  -37.02  -81.16
   6.965  -42.83 -110.02   -0.05  -22.99   -0.06  -23.09  -36.92  -79.44
   7.030  -48.06 -116.70   -0.07  -23.36   -0.07  -23.48  -36.24  -77.06
   7.095  -57.51   68.74   -0.10  -23.72   -0.11  -23.84  -35.20  -81.78
   7.160  -40.59   37.46   -0.15  -23.74   -0.15  -23.83  -34.56 -102.06
   7.225  -37.52    7.20   -0.12  -23.60   -0.12  -23.74  -37.52 -125.95
   7.290  -37.54   -5.37   -0.08  -23.89   -0.08  -24.03  -42.64 -140.16
   7.355  -38.33   -5.15   -0.06  -24.29   -0.07  -24.42  -50.43 -149.38
   7.420  -38.32   -0.31   -0.05  -24.62   -0.06  -24.73  -62.94  144.06
   7.485  -38.22    5.83   -0.04  -25.00   -0.05  -25.11  -50.31   57.25
   7.550  -37.53   13.15   -0.04  -25.36   -0.05  -25.45  -44.76   51.33
   7.615  -37.19   20.94   -0.04  -25.69   -0.05  -25.77  -41.21   48.98
   7.680  -36.28   25.79   -0.04  -26.04   -0.05  -26.19  -38.94   48.22
   7.745  -35.19   29.78   -0.04  -26.39   -0.05  -26.56  -37.07   45.84
   7.810  -34.09   33.86   -0.04  -26.75   -0.04  -26.85  -35.22   46.93
   7.875  -33.12   37.67   -0.04  -27.11   -0.03  -27.17  -33.90   44.62
   7.940  -32.15   37.48   -0.04  -27.52   -0.05  -27.65  -32.46   44.41
   8.005  -31.13   39.17   -0.05  -27.87   -0.06  -28.02  -31.30   43.38
   8.070  -30.45   40.65   -0.06  -28.25   -0.06  -28.43  -30.24   41.79
   8.135  -29.69   41.31   -0.06  -28.64   -0.07  -28.80  -29.29   41.37
   8.200  -28.73   43.09   -0.06  -29.11   -0.07  -29.22  -28.29   40.91
   8.265  -27.91   45.02   -0.07  -29.59   -0.08  -29.70  -27.32   40.72
   8.330  -29.25   58.53   -0.07  -30.10   -0.09  -30.25  -26.87   22.39
   8.395  -27.13   57.27   -0.09  -30.70   -0.11  -30.83  -25.52   24.78
   8.460  -25.37   56.37   -0.13  -31.32   -0.13  -31.41  -24.10   25.76
   8.525  -23.64   53.28   -0.16  -32.05   -0.17  -32.14  -22.56   27.36
   8.590  -21.87   49.87   -0.22  -32.90   -0.23  -32.97  -21.09   27.43
   8.655  -20.15   45.87   -0.32  -33.96   -0.33  -34.02  -19.42   26.18
   8.720  -18.19   39.89   -0.46  -35.10   -0.49  -35.36  -17.64   23.42
   8.785  -16.16   30.93   -0.76  -36.60   -0.78  -36.62  -15.55   17.34
   8.850  -13.98   16.01   -1.36  -37.51   -1.35  -37.41  -13.38    6.22
   8.915  -12.36   -9.00   -2.29  -34.29   -2.26  -34.07  -11.67  -14.03
   8.980  -12.76  -40.49   -2.28  -25.00   -2.25  -25.26  -11.98  -40.43
   9.045  -15.34  -64.92   -1.31  -21.92   -1.33  -22.35  -14.27  -61.18
   9.110  -18.55  -81.52   -0.71  -23.03   -0.73  -23.31  -17.13  -70.90
   9.175  -21.84  -92.03   -0.43  -24.58   -0.45  -24.83  -19.82  -72.97
   9.240  -25.26 -100.15   -0.29  -25.84   -0.30  -26.01  -22.26  -69.98
   9.305  -28.95 -107.99   -0.21  -26.87   -0.22  -27.03  -24.38  -63.18
   9.370  -33.27 -118.65   -0.16  -27.74   -0.17  -27.84  -25.98  -52.97
   9.435  -39.27 -142.64   -0.12  -28.45   -0.14  -28.60  -26.92  -41.83
   9.500  -41.27  153.33   -0.10  -29.06   -0.11  -29.17  -27.24  -29.61
   9.565  -37.44  114.82   -0.08  -29.57   -0.09  -29.69  -27.22  -18.58
   9.630  -33.69  100.51   -0.06  -30.10   -0.07  -30.19  -26.79   -9.89
   9.695  -31.17   94.89   -0.04  -30.51   -0.05  -30.66  -26.23   -3.33
   9.760  -29.44   91.32   -0.02  -30.99   -0.03  -31.14  -25.59    2.44
   9.825  -28.06   88.07    0.00  -31.47   -0.01  -31.64  -25.06    6.94
   9.890  -26.79   86.67    0.01  -32.02    0.00  -32.12  -24.41    9.76
   9.955  -25.78   84.89    0.02  -32.48    0.00  -32.64  -23.98   12.59
  10.020  -24.99   83.62    0.01  -32.96    0.00  -33.15  -23.46   13.93
  10.085  -24.35   81.63    0.01  -33.40    0.01  -33.52  -23.00   16.90
  10.150  -23.74   80.96    0.01  -33.77    0.00  -33.92  -22.60   18.59
  10.215  -23.36   80.62    0.00  -34.24   -0.01  -34.35  -22.06   19.92
  10.280  -22.81   80.19   -0.01  -34.58   -0.02  -34.76  -21.63   20.79
  10.345  -22.34   80.43   -0.02  -34.92   -0.03  -35.12  -21.23   21.33
  10.410  -21.89   80.39   -0.02  -35.27   -0.04  -35.48  -20.89   21.45
  10.475  -21.38   79.10   -0.03  -35.66   -0.04  -35.75  -20.53   22.35
  10.540  -20.81   78.72   -0.04  -35.95   -0.05  -36.13  -20.35   21.92
  10.605  -20.54   77.18   -0.06  -36.26   -0.08  -36.46  -20.03   21.73
  10.670  -20.33   75.33   -0.07  -36.55   -0.07  -36.73  -19.79   22.50
  10.735  -20.14   74.64   -0.07  -36.81   -0.08  -36.96  -19.62   22.05
  10.800  -20.09   73.29   -0.07  -37.11   -0.07  -37.22  -19.37   22.89
  10.865  -20.01   73.12   -0.07  -37.35   -0.09  -37.47  -19.25   22.19
  10.930  -19.86   73.59   -0.07  -37.65   -0.08  -37.77  -19.13   21.94
  10.995  -19.75   73.38   -0.08  -37.91   -0.08  -38.04  -19.00   22.38
  11.060  -19.64   73.19   -0.06  -38.16   -0.07  -38.30  -18.85   22.82
  11.125  -19.42   73.41   -0.06  -38.41   -0.07  -38.48  -18.81   22.58
  11.190  -19.30   72.90   -0.06  -38.72   -0.08  -38.92  -18.63   22.98
  11.255  -19.19   72.87   -0.05  -39.00   -0.07  -39.16  -18.60   22.88
  11.320  -19.15   72.22   -0.05  -39.28   -0.08  -39.48  -18.43   23.10
  11.385  -19.01   71.80   -0.05  -39.57   -0.06  -39.64  -18.40   23.58
  11.450  -19.02   71.89   -0.05  -39.83   -0.05  -39.96  -18.27   23.31
  11.515  -18.90   72.10   -0.04  -40.08   -0.06  -40.21  -18.27   22.84
  11.580  -18.84   71.81   -0.03  -40.34   -0.05  -40.52  -18.23   23.24
  11.645  -18.76   71.80   -0.02  -40.68   -0.03  -40.84  -18.21   23.28
  11.710  -18.76   71.26   -0.01  -40.98   -0.01  -41.20  -18.14   23.30
  11.775  -18.60   70.44   -0.01  -41.40   -0.02  -41.56  -18.21   23.70
  11.840  -18.64   70.48   -0.01  -41.73   -0.03  -41.96  -18.14   22.88
  11.905  -18.57   69.44   -0.01  -42.08   -0.03  -42.23  -18.19   23.51
  11.970  -18.65   69.01   -0.01  -42.35   -0.02  -42.58  -18.15   23.40
  12.035  -18.68   68.53   -0.02  -42.69   -0.02  -42.81  -18.19   23.30
  12.100  -18.74   68.14   -0.02  -42.96   -0.02  -43.14  -18.24   22.99
  12.165  -18.72   67.23   -0.02  -43.31   -0.04  -43.44  -18.34   23.09
  12.230  -18.85   67.53   -0.02  -43.61   -0.04  -43.80  -18.38   22.64
  12.295  -18.91   66.46   -0.02  -43.88   -0.03  -44.00  -18.48   23.46
  12.360  -18.98   66.52   -0.01  -44.12   -0.03  -44.30  -18.59   23.17
  12.425  -19.05   65.76   -0.02  -44.44   -0.04  -44.56  -18.63   23.57
  12.490  -19.07   65.75   -0.02  -44.68   -0.04  -44.82  -18.74   23.26
  12.555  -19.23   64.63   -0.02  -45.00   -0.04  -45.12  -18.88   23.54
  12.620  -19.37   64.22   -0.03  -45.25   -0.04  -45.45  -18.92   23.52
  12.685  -19.48   63.76   -0.02  -45.52   -0.03  -45.66  -19.11   23.93
  12.750  -19.55   63.44   -0.02  -45.82   -0.03  -46.01  -19.27   23.72
  12.815  -19.76   62.52   -0.02  -46.08   -0.03  -46.30  -19.35   24.10
  12.880  -19.86   62.57   -0.02  -46.39   -0.02  -46.55  -19.53   24.20
  12.945  -20.10   61.50   -0.02  -46.63   -0.01  -46.84  -19.65   24.67
  13.010  -20.23   60.86   -0.03  -46.99   -0.03  -47.18  -19.83   24.74
  13.075  -20.34   60.93   -0.02  -47.23   -0.04  -47.44  -20.04   24.86
  13.140  -20.54   60.01   -0.02  -47.57   -0.04  -47.78  -20.26   25.06
  13.205  -20.80   58.97   -0.02  -47.86   -0.04  -48.18  -20.33   25.37
  13.270  -20.89   58.45   -0.03  -48.19   -0.04  -48.30  -20.63   25.63
  13.335  -21.18   57.96   -0.03  -48.46   -0.04  -48.63  -20.80   26.02
  13.400  -21.40   56.73   -0.04  -48.72   -0.06  -48.83  -21.07   26.24
  13.465  -21.58   56.60   -0.04  -49.01   -0.05  -49.10  -21.26   27.06
  13.530  -21.85   55.47   -0.04  -49.27   -0.05  -49.42  -21.42   27.50
  13.595  -22.09   54.54   -0.05  -49.62   -0.06  -49.57  -21.63   27.53
  13.660  -22.23   53.77   -0.05  -49.88   -0.06  -50.04  -21.84   28.13
  13.725  -22.53   53.17   -0.04  -50.13   -0.06  -50.29  -22.07   28.51
  13.790  -22.88   51.45   -0.03  -50.40   -0.07  -50.55  -22.17   29.40
  13.855  -23.01   50.70   -0.05  -50.75   -0.05  -50.84  -22.33   29.95
  13.920  -23.26   50.21   -0.03  -50.98   -0.05  -51.16  -22.51   30.14
  13.985  -23.34   48.75   -0.03  -51.30   -0.05  -51.44  -22.73   30.37
  14.050  -23.45   47.54   -0.04  -51.59   -0.03  -51.79  -22.91   30.60
  14.115  -23.56   45.45   -0.04  -51.94   -0.05  -52.12  -23.04   31.63
  14.180  -23.70   43.79   -0.05  -52.23   -0.05  -52.43  -23.17   32.28
  14.245  -23.66   41.17   -0.04  -52.59   -0.06  -52.79  -23.34   33.16
  14.310  -23.78   39.74   -0.06  -52.91   -0.06  -53.19  -23.43   33.18
  14.375  -23.96   37.17   -0.06  -53.22   -0.07  -53.37  -23.42   34.11
  14.440  -23.94   34.88   -0.05  -53.47   -0.06  -53.59  -23.41   33.84
  14.505  -23.83   33.15   -0.05  -53.85   -0.06  -54.02  -23.45   33.77
  14.570  -23.57   30.94   -0.05  -54.22   -0.06  -54.39  -23.55   33.18
  14.635  -23.45   27.41   -0.04  -54.64   -0.05  -54.69  -23.64   32.85
  14.700  -23.21   23.92   -0.04  -55.03   -0.06  -55.18  -23.81   32.49
  14.765  -23.19   19.65   -0.06  -55.39   -0.06  -55.56  -23.99   33.11
  14.830  -23.20   14.90   -0.06  -55.80   -0.07  -55.97  -24.33   34.28
  14.895  -23.35   12.48   -0.06  -56.22   -0.07  -56.30  -24.39   36.75
  14.960  -23.56   11.16   -0.06  -56.61   -0.08  -56.79  -24.24   39.64
  15.025  -23.56   10.53   -0.06  -57.05   -0.08  -57.30  -23.81   41.18
  15.090  -23.23    9.42   -0.07  -57.62   -0.08  -57.81  -23.38   42.44
  15.155  -22.92    9.67   -0.09  -58.13   -0.11  -58.28  -23.02   42.24
  15.220  -22.64    8.42   -0.12  -58.62   -0.14  -58.73  -22.64   41.93
  15.285  -22.31    8.24   -0.14  -59.08   -0.16  -59.38  -22.20   40.95
  15.350  -21.86    7.74   -0.18  -59.46   -0.19  -59.79  -21.73   40.96
  15.415  -21.42    7.33   -0.20  -60.03   -0.21  -60.26  -21.26   39.70
  15.480  -20.89    7.28   -0.23  -60.55   -0.24  -60.76  -20.78   38.32
  15.545  -20.21    7.62   -0.26  -61.04   -0.28  -61.20  -20.25   36.36
  15.610  -19.55    7.35   -0.29  -61.55   -0.31  -61.83  -19.62   34.53
  15.675  -18.73    5.92   -0.31  -62.17   -0.35  -62.38  -19.11   32.13
  15.740  -17.96    4.07   -0.35  -62.88   -0.37  -63.10  -18.54   30.44
  15.805  -17.23    2.97   -0.40  -63.72   -0.42  -63.74  -17.93   27.72
  15.870  -16.55    1.39   -0.45  -64.49   -0.49  -64.52  -17.22   24.74
  15.935  -15.82   -0.94   -0.56  -65.33   -0.57  -65.55  -16.51   22.14
  16.000  -15.07   -2.89   -0.65  -66.38   -0.69  -66.58  -15.72   18.42
  16.065  -14.19   -5.28   -0.80  -67.32   -0.81  -67.49  -14.91   14.41
  16.130  -13.30   -7.93   -1.01  -68.50   -1.02  -68.57  -14.03    9.44
  16.195  -12.39  -11.52   -1.26  -69.57   -1.29  -69.60  -13.08    3.59
  16.260  -11.45  -16.36   -1.64  -70.48   -1.69  -70.43  -12.13   -3.52
  16.325  -10.46  -23.14   -2.14  -70.86   -2.17  -71.01  -11.22  -12.40
  16.390   -9.53  -31.21   -2.81  -69.98   -2.81  -70.08  -10.48  -23.38
  16.455   -8.91  -41.68   -3.51  -66.81   -3.49  -66.67   -9.87  -36.30
  16.520   -8.68  -53.77   -3.94  -60.44   -3.87  -60.52   -9.68  -50.28
  16.585   -8.97  -66.31   -3.73  -53.41   -3.69  -53.77  -10.06  -64.80
  16.650   -9.78  -77.54   -3.05  -48.92   -3.05  -49.29  -10.86  -78.52
  16.715  -10.83  -86.19   -2.33  -47.32   -2.34  -47.84  -12.13  -90.86
  16.780  -12.15  -93.33   -1.75  -47.59   -1.77  -47.97  -13.41 -100.60
  16.845  -13.55  -97.86   -1.34  -48.61   -1.36  -48.89  -14.91 -108.94
  16.910  -14.96 -101.33   -1.05  -49.80   -1.07  -50.05  -16.43 -115.58
  16.975  -16.33 -103.15   -0.84  -51.04   -0.87  -51.29  -18.11 -121.27
  17.040  -17.85 -102.82   -0.70  -52.18   -0.73  -52.41  -19.75 -127.26
  17.105  -19.18 -102.22   -0.59  -53.20   -0.61  -53.40  -21.53 -131.82
  17.170  -20.68  -99.60   -0.52  -54.17   -0.53  -54.35  -23.51 -136.50
  17.235  -22.18  -95.61   -0.46  -55.04   -0.47  -55.33  -25.70 -142.06
  17.300  -23.49  -89.53   -0.42  -55.79   -0.44  -56.04  -28.40 -147.77
  17.365  -24.76  -81.17   -0.39  -56.48   -0.40  -56.71  -32.01 -157.57
