!  American Technical Ceramics  Date:   10/26/00
!  One Norden Lane
!  Huntington Station,  NY.   11746-2102
!  Tel:  (631) 622-4700               Fax:  (631) 622-4748
!  Part Number  600S1R6BW      Mounting Orientation: Horizontal
!  Description: Ultra Low ESR Microwave capacitors
!  Application: Coupling, Bypass, Tuning, DC Block
!               Filters, Matching
# GHZ S DB R 50
! Freq   |S11|   S11 Ph  |S21|   S21 Ph  |S12|   S12 Ph  |S22|   S22 Ph
  0.000   0.00    0.00	  -999.00  90.00  -999.00  90.00    0.00    0.00
   0.400   -0.67  -23.20   -8.61   66.74   -8.61   66.55   -0.66  -22.87
   0.482   -0.95  -27.61   -7.25   62.05   -7.29   62.04   -1.02  -26.53
   0.563   -1.21  -31.30   -6.17   58.15   -6.21   58.12   -1.35  -30.76
   0.645   -1.54  -34.70   -5.29   54.64   -5.34   54.49   -1.60  -34.62
   0.726   -1.96  -38.08   -4.62   51.36   -4.63   51.12   -1.92  -37.85
   0.808   -2.22  -41.64   -4.01   47.77   -4.03   47.85   -2.28  -41.20
   0.889   -2.66  -44.45   -3.53   45.08   -3.52   44.91   -2.58  -44.18
   0.971   -2.95  -47.78   -3.13   41.92   -3.12   42.34   -3.05  -46.56
   1.052   -3.34  -50.02   -2.77   39.47   -2.78   39.61   -3.39  -49.67
   1.134   -3.68  -52.31   -2.44   37.11   -2.46   37.33   -3.74  -52.04
   1.215   -4.14  -54.59   -2.24   35.01   -2.23   34.98   -4.10  -54.14
   1.297   -4.46  -57.01   -1.99   32.56   -2.00   32.67   -4.49  -56.58
   1.378   -4.81  -58.92   -1.79   30.72   -1.78   30.77   -4.80  -58.31
   1.460   -5.17  -60.82   -1.65   28.77   -1.63   29.03   -5.22  -60.05
   1.541   -5.51  -62.37   -1.48   26.84   -1.49   27.02   -5.57  -62.37
   1.623   -5.84  -63.99   -1.33   25.29   -1.33   25.47   -5.88  -63.86
   1.704   -6.23  -65.33   -1.24   23.88   -1.24   23.90   -6.22  -65.41
   1.786   -6.54  -67.10   -1.15   22.20   -1.14   22.32   -6.58  -66.88
   1.867   -6.86  -68.34   -1.03   20.87   -1.03   20.96   -6.87  -68.34
   1.949   -7.17  -69.59   -0.97   19.51   -0.97   19.76   -7.25  -69.72
   2.030   -7.52  -70.98   -0.89   18.24   -0.89   18.24   -7.53  -71.15
   2.112   -7.80  -72.07   -0.83   16.97   -0.82   17.16   -7.85  -72.42
   2.193   -8.13  -73.19   -0.77   15.90   -0.78   15.97   -8.16  -73.56
   2.275   -8.41  -74.40   -0.72   14.67   -0.72   14.76   -8.45  -74.81
   2.356   -8.69  -75.44   -0.66   13.59   -0.66   13.73   -8.76  -75.82
   2.438   -9.01  -76.19   -0.62   12.61   -0.63   12.70   -9.02  -76.93
   2.519   -9.30  -77.20   -0.59   11.60   -0.60   11.71   -9.31  -77.93
   2.601   -9.58  -78.05   -0.57   10.72   -0.56   10.70   -9.59  -78.55
   2.682   -9.84  -78.61   -0.54    9.69   -0.54    9.81   -9.87  -79.78
   2.764  -10.08  -79.61   -0.51    8.85   -0.51    8.85  -10.12  -80.36
   2.845  -10.33  -80.19   -0.48    7.99   -0.48    8.08  -10.36  -81.31
   2.927  -10.56  -81.03   -0.46    7.18   -0.45    7.25  -10.60  -82.05
   3.008  -10.85  -81.62   -0.42    6.27   -0.43    6.34  -10.82  -83.37
   3.090  -11.06  -82.61   -0.42    5.61   -0.40    5.58  -11.07  -83.99
   3.171  -11.29  -83.15   -0.40    4.79   -0.40    4.90  -11.30  -84.73
   3.253  -11.50  -84.11   -0.37    4.11   -0.38    4.08  -11.48  -85.25
   3.334  -11.70  -84.78   -0.36    3.50   -0.35    3.48  -11.69  -85.97
   3.416  -11.90  -85.55   -0.34    2.79   -0.34    2.84  -11.89  -86.82
   3.497  -12.13  -86.42   -0.31    2.08   -0.32    2.13  -12.05  -87.51
   3.579  -12.30  -87.21   -0.30    1.51   -0.29    1.45  -12.30  -88.15
   3.660  -12.52  -87.72   -0.30    0.74   -0.30    0.85  -12.49  -89.08
   3.742  -12.71  -88.70   -0.27    0.16   -0.27    0.13  -12.71  -89.65
   3.823  -12.90  -89.27   -0.27   -0.37   -0.27   -0.42  -12.94  -90.14
   3.905  -13.13  -89.87   -0.27   -0.97   -0.27   -0.98  -13.15  -90.74
   3.986  -13.29  -90.56   -0.25   -1.63   -0.25   -1.63  -13.25  -91.16
   4.068  -13.53  -91.01   -0.23   -2.09   -0.23   -2.16  -13.50  -91.68
   4.149  -13.74  -91.33   -0.24   -2.74   -0.24   -2.75  -13.69  -92.46
   4.231  -13.91  -92.03   -0.21   -3.32   -0.21   -3.38  -13.86  -93.03
   4.312  -14.07  -92.37   -0.21   -3.76   -0.20   -3.78  -14.06  -93.52
   4.394  -14.24  -92.68   -0.21   -4.35   -0.20   -4.42  -14.26  -93.91
   4.475  -14.46  -93.34   -0.20   -4.96   -0.19   -4.96  -14.40  -94.79
   4.557  -14.60  -93.98   -0.18   -5.42   -0.18   -5.47  -14.61  -95.16
   4.638  -14.80  -94.35   -0.19   -5.99   -0.18   -6.04  -14.78  -96.15
   4.720  -14.97  -94.94   -0.17   -6.60   -0.16   -6.63  -14.96  -96.70
   4.801  -15.16  -95.45   -0.16   -6.98   -0.16   -6.99  -15.14  -97.06
   4.883  -15.32  -95.71   -0.17   -7.50   -0.16   -7.59  -15.40  -97.47
   4.964  -15.55  -95.87   -0.16   -8.10   -0.16   -8.10  -15.49  -98.42
   5.046  -15.70  -96.78   -0.14   -8.53   -0.16   -8.56  -15.69  -98.23
   5.127  -15.89  -96.65   -0.16   -9.04   -0.15   -9.10  -15.90  -99.39
   5.209  -16.10  -97.04   -0.14   -9.56   -0.13   -9.56  -16.04  -99.65
   5.290  -16.32  -97.54   -0.13   -9.95   -0.13   -9.93  -16.21  -99.61
   5.372  -16.43  -97.21   -0.13  -10.42   -0.13  -10.54  -16.46 -100.44
   5.453  -16.66  -97.50   -0.13  -11.06   -0.12  -11.03  -16.49 -101.00
   5.535  -16.73  -98.46   -0.12  -11.52   -0.13  -11.56  -16.72 -101.65
   5.616  -16.91  -98.57   -0.13  -11.96   -0.13  -12.07  -16.96 -102.58
   5.698  -17.16  -99.18   -0.12  -12.45   -0.12  -12.42  -17.09 -103.02
   5.779  -17.29  -99.67   -0.12  -12.81   -0.13  -12.92  -17.37 -103.43
   5.861  -17.56  -99.97   -0.13  -13.32   -0.12  -13.37  -17.53 -104.05
   5.942  -17.79 -100.27   -0.13  -13.78   -0.12  -13.80  -17.70 -104.50
   6.024  -17.94 -101.06   -0.11  -14.26   -0.13  -14.30  -17.98 -104.55
   6.105  -18.19 -100.66   -0.11  -14.65   -0.10  -14.74  -18.16 -105.36
   6.187  -18.40 -101.63   -0.10  -15.11   -0.11  -15.16  -18.37 -105.08
   6.268  -18.63 -101.20   -0.11  -15.52   -0.10  -15.59  -18.57 -105.95
   6.350  -18.90 -101.89   -0.11  -15.99   -0.10  -16.06  -18.74 -106.03
   6.431  -19.12 -102.61   -0.11  -16.44   -0.11  -16.45  -19.00 -105.92
   6.513  -19.31 -102.79   -0.10  -16.93   -0.09  -16.99  -19.26 -106.54
   6.594  -19.55 -103.15   -0.09  -17.33   -0.10  -17.43  -19.49 -106.65
   6.676  -19.83 -103.77   -0.09  -17.78   -0.10  -17.88  -19.73 -106.75
   6.757  -20.12 -104.15   -0.10  -18.18   -0.10  -18.32  -19.97 -107.32
   6.839  -20.52 -105.60   -0.10  -18.70   -0.09  -18.68  -20.07 -106.20
   6.920  -20.78 -106.93   -0.11  -19.22   -0.12  -19.30  -20.33 -106.40
   7.002  -21.39 -108.95   -0.13  -19.77   -0.14  -19.79  -20.29 -105.87
   7.083  -22.66 -106.68   -0.20  -19.88   -0.20  -19.95  -20.07 -109.89
   7.165  -22.45  -99.02   -0.15  -19.72   -0.15  -19.83  -20.87 -114.47
   7.246  -22.24 -100.10   -0.11  -20.23   -0.10  -20.33  -21.57 -113.95
   7.328  -22.38 -102.04   -0.09  -20.75   -0.09  -20.77  -22.03 -112.21
   7.409  -22.57 -103.19   -0.08  -21.25   -0.09  -21.29  -22.50 -111.89
   7.491  -22.90 -103.30   -0.07  -21.69   -0.07  -21.76  -22.86 -112.06
   7.572  -23.23 -104.01   -0.07  -22.13   -0.07  -22.21  -23.30 -111.72
   7.654  -23.77 -104.70   -0.07  -22.55   -0.08  -22.64  -23.60 -111.63
   7.735  -24.09 -105.10   -0.06  -22.98   -0.07  -23.06  -24.14 -110.79
   7.817  -24.61 -105.91   -0.06  -23.38   -0.06  -23.40  -24.51 -109.61
   7.898  -24.90 -105.75   -0.06  -23.83   -0.07  -23.93  -25.19 -108.97
   7.980  -25.45 -105.63   -0.05  -24.22   -0.06  -24.30  -25.57 -107.81
   8.061  -25.91 -105.53   -0.05  -24.60   -0.06  -24.71  -25.96 -106.63
   8.143  -26.31 -107.07   -0.05  -25.07   -0.05  -25.17  -26.31 -104.95
   8.224  -26.83 -109.06   -0.05  -25.47   -0.05  -25.60  -26.73 -103.65
   8.306  -27.56 -110.51   -0.06  -25.93   -0.06  -26.06  -27.11 -102.87
   8.387  -25.96 -128.27   -0.06  -26.43   -0.07  -26.60  -24.67  -91.61
   8.469  -26.99 -130.16   -0.07  -26.79   -0.07  -26.95  -25.31  -89.22
   8.550  -28.17 -132.69   -0.07  -27.16   -0.06  -27.20  -25.90  -86.23
   8.632  -29.44 -135.44   -0.07  -27.56   -0.07  -27.71  -26.63  -82.67
   8.713  -30.67 -140.12   -0.06  -27.93   -0.08  -28.00  -27.56  -77.78
   8.795  -32.16 -145.57   -0.06  -28.33   -0.06  -28.41  -28.28  -71.32
   8.876  -33.94 -154.30   -0.07  -28.64   -0.07  -28.78  -28.82  -63.48
   8.958  -35.89 -166.21   -0.07  -29.02   -0.07  -29.06  -28.98  -55.64
   9.039  -37.64  176.79   -0.06  -29.36   -0.07  -29.44  -29.36  -49.44
   9.121  -38.63  155.13   -0.05  -29.78   -0.06  -29.88  -29.63  -40.65
   9.202  -37.85  135.38   -0.05  -30.17   -0.06  -30.21  -29.77  -30.59
   9.284  -36.12  121.42   -0.06  -30.49   -0.05  -30.60  -29.32  -20.15
   9.365  -34.30  110.10   -0.05  -30.95   -0.06  -31.06  -28.63  -11.64
   9.447  -32.42  104.55   -0.06  -31.29   -0.06  -31.37  -27.95   -6.21
   9.528  -30.85   99.91   -0.05  -31.66   -0.06  -31.82  -27.28   -1.02
   9.610  -29.45   96.51   -0.05  -32.05   -0.05  -32.15  -26.60    3.32
   9.691  -28.13   93.98   -0.04  -32.39   -0.04  -32.47  -25.96    7.78
   9.773  -26.87   91.58   -0.03  -32.81   -0.03  -32.91  -25.35   11.52
   9.854  -25.68   88.65    0.00  -33.28   -0.01  -33.35  -24.67   14.71
   9.936  -24.61   86.46    0.00  -33.78    0.00  -33.93  -24.13   16.97
  10.017  -23.94   83.11    0.00  -34.32    0.00  -34.42  -23.37   19.11
  10.099  -23.42   80.22    0.00  -34.78   -0.01  -34.87  -22.73   21.32
  10.180  -22.91   78.34    0.00  -35.31   -0.02  -35.34  -22.14   22.21
  10.262  -22.46   77.30   -0.01  -35.77   -0.01  -35.82  -21.63   23.06
  10.343  -21.91   76.73   -0.03  -36.26   -0.04  -36.31  -21.18   23.24
  10.425  -21.32   75.88   -0.05  -36.64   -0.06  -36.79  -20.79   23.35
  10.506  -20.94   74.26   -0.07  -37.02   -0.06  -37.18  -20.36   23.32
  10.588  -20.58   71.69   -0.08  -37.44   -0.08  -37.52  -20.08   23.71
  10.669  -20.35   70.00   -0.08  -37.79   -0.08  -37.86  -19.83   24.29
  10.751  -20.11   68.76   -0.09  -38.09   -0.10  -38.16  -19.71   24.09
  10.832  -20.02   67.50   -0.09  -38.48   -0.09  -38.59  -19.43   24.38
  10.914  -19.97   66.73   -0.09  -38.83   -0.11  -38.99  -19.23   24.30
  10.995  -19.95   65.80   -0.10  -39.19   -0.10  -39.23  -19.07   25.29
  11.077  -19.93   66.61   -0.10  -39.49   -0.10  -39.57  -18.87   25.05
  11.158  -19.70   66.79   -0.08  -39.85   -0.08  -39.88  -18.89   26.00
  11.240  -19.49   67.31   -0.07  -40.19   -0.08  -40.32  -18.75   25.95
  11.321  -19.34   67.02   -0.06  -40.59   -0.06  -40.76  -18.56   26.85
  11.403  -19.15   66.19   -0.05  -41.06   -0.05  -41.11  -18.46   27.53
  11.484  -19.04   66.09   -0.05  -41.47   -0.05  -41.59  -18.22   27.39
  11.566  -18.86   65.15   -0.04  -41.90   -0.05  -41.97  -18.24   27.96
  11.647  -18.73   64.83   -0.04  -42.32   -0.05  -42.44  -18.10   27.53
  11.729  -18.67   64.29   -0.04  -42.71   -0.05  -42.82  -18.08   27.11
  11.810  -18.68   62.81   -0.04  -43.22   -0.02  -43.29  -17.94   27.77
  11.892  -18.56   62.11   -0.04  -43.69   -0.05  -43.74  -18.14   27.36
  11.973  -18.70   61.39   -0.05  -44.04   -0.05  -44.18  -18.07   27.38
  12.055  -18.73   60.64   -0.05  -44.45   -0.04  -44.54  -18.12   27.92
  12.136  -18.73   60.23   -0.05  -44.88   -0.05  -44.91  -18.24   27.93
  12.218  -18.88   59.61   -0.05  -45.27   -0.05  -45.41  -18.14   28.09
  12.299  -18.91   58.66   -0.05  -45.65   -0.05  -45.69  -18.29   28.64
  12.381  -18.86   58.28   -0.05  -46.08   -0.05  -46.11  -18.40   28.46
  12.462  -19.10   57.98   -0.05  -46.43   -0.06  -46.55  -18.44   28.01
  12.544  -19.15   56.68   -0.06  -46.79   -0.07  -46.79  -18.60   28.59
  12.625  -19.32   56.38   -0.06  -47.17   -0.07  -47.29  -18.66   28.24
  12.707  -19.46   55.52   -0.06  -47.54   -0.07  -47.61  -18.80   28.66
  12.788  -19.57   54.78   -0.07  -47.89   -0.06  -47.86  -19.05   29.97
  12.870  -19.73   54.92   -0.05  -48.27   -0.05  -48.34  -19.21   28.70
  12.951  -19.92   53.83   -0.04  -48.68   -0.05  -48.79  -19.35   29.28
  13.033  -20.17   53.69   -0.05  -48.99   -0.06  -49.11  -19.50   29.27
  13.114  -20.27   53.14   -0.05  -49.54   -0.05  -49.58  -19.76   29.81
  13.196  -20.48   52.91   -0.05  -49.87   -0.03  -50.11  -19.90   29.99
  13.277  -20.40   52.06   -0.06  -50.33   -0.07  -50.39  -20.29   30.45
  13.359  -20.53   50.58   -0.05  -50.75   -0.04  -50.76  -20.48   31.01
  13.440  -20.90   48.51   -0.04  -51.18   -0.05  -51.28  -20.65   31.27
  13.522  -21.23   47.58   -0.06  -51.40   -0.06  -51.49  -20.87   32.37
  13.603  -21.52   46.63   -0.07  -51.98   -0.07  -51.87  -21.08   31.91
  13.685  -21.75   46.07   -0.05  -52.29   -0.06  -52.40  -21.34   32.71
  13.766  -22.04   44.67   -0.06  -52.72   -0.08  -52.85  -21.58   33.25
  13.848  -22.23   44.63   -0.08  -53.10   -0.07  -53.15  -21.85   33.89
  13.929  -22.47   43.82   -0.06  -53.51   -0.06  -53.65  -22.05   34.44
  14.011  -22.68   41.93   -0.08  -53.82   -0.10  -53.86  -22.10   35.56
  14.092  -22.75   40.53   -0.08  -54.19   -0.09  -54.28  -22.40   36.16
  14.174  -23.03   39.33   -0.09  -54.62   -0.08  -54.67  -22.45   35.44
  14.255  -23.11   37.29   -0.09  -54.94   -0.09  -55.07  -22.61   36.46
  14.337  -23.14   35.75   -0.09  -55.29   -0.09  -55.32  -22.75   35.68
  14.418  -23.40   34.52   -0.09  -55.65   -0.09  -55.74  -22.95   35.18
  14.500  -23.37   31.77   -0.08  -56.05   -0.08  -56.10  -23.23   34.55
  14.581  -23.25   28.76   -0.05  -56.45   -0.07  -56.45  -23.83   35.67
  14.663  -23.63   24.96   -0.04  -56.93   -0.04  -56.99  -23.95   37.86
  14.744  -23.96   22.43   -0.02  -57.55   -0.03  -57.53  -23.88   40.84
  14.826  -24.25   21.33   -0.04  -58.21   -0.05  -58.19  -23.73   41.11
  14.907  -24.51   20.02   -0.07  -58.72   -0.08  -58.78  -23.44   41.13
  14.989  -24.96   19.70   -0.09  -59.17   -0.09  -59.17  -23.34   39.43
  15.070  -24.98   22.96   -0.12  -59.51   -0.12  -59.47  -23.48   38.69
  15.152  -24.58   24.45   -0.13  -59.81   -0.13  -59.84  -23.65   39.02
  15.233  -24.11   23.36   -0.13  -60.14   -0.13  -60.26  -23.42   39.85
  15.315  -23.59   23.55   -0.14  -60.63   -0.14  -60.50  -23.45   39.48
  15.396  -23.16   21.73   -0.14  -61.04   -0.13  -61.09  -23.20   38.83
  15.478  -22.84   20.18   -0.14  -61.51   -0.14  -61.55  -23.03   39.46
  15.559  -22.47   18.11   -0.16  -61.95   -0.15  -62.01  -22.85   39.15
  15.641  -22.21   17.71   -0.17  -62.49   -0.17  -62.59  -22.48   39.38
  15.722  -21.82   16.63   -0.19  -63.00   -0.17  -62.93  -22.30   39.32
  15.804  -21.45   17.25   -0.20  -63.49   -0.19  -63.41  -21.77   39.15
  15.885  -21.03   17.42   -0.21  -63.93   -0.22  -63.79  -21.36   38.37
  15.967  -20.49   16.86   -0.22  -64.29   -0.23  -64.36  -20.72   37.76
  16.048  -19.87   16.57   -0.25  -64.79   -0.25  -64.72  -20.33   36.62
  16.130  -19.25   15.52   -0.26  -65.32   -0.26  -65.24  -19.72   34.49
  16.211  -18.71   14.35   -0.27  -65.81   -0.27  -65.79  -19.19   32.70
  16.293  -18.15   13.06   -0.29  -66.35   -0.28  -66.32  -18.69   30.34
  16.374  -17.58   11.94   -0.32  -67.07   -0.32  -66.99  -18.15   27.98
  16.456  -16.96   10.33   -0.35  -67.83   -0.36  -67.75  -17.52   25.08
  16.537  -16.21    8.57   -0.43  -68.63   -0.43  -68.52  -16.84   21.70
  16.619  -15.41    5.05   -0.56  -69.58   -0.56  -69.64  -16.13   16.82
  16.700  -14.46    0.01   -0.77  -70.50   -0.77  -70.19  -15.41    8.98
  16.782  -13.73  -11.13   -1.19  -70.33   -1.15  -70.15  -14.96   -3.14
  16.863  -14.16  -26.98   -1.57  -67.43   -1.49  -67.31  -16.06  -20.72
  16.945  -16.98  -38.08   -1.25  -63.66   -1.23  -63.91  -19.78  -30.21
  17.026  -20.21  -29.11   -0.78  -63.59   -0.80  -63.68  -23.30   -9.50
  17.108  -20.86  -10.88   -0.56  -64.57   -0.56  -64.67  -22.72   14.00
  17.189  -20.06    1.32   -0.44  -65.66   -0.46  -65.76  -20.82   23.02
  17.271  -18.96    8.09   -0.40  -66.63   -0.41  -66.50  -19.43   25.87
  17.352  -17.94   11.01   -0.37  -67.43   -0.37  -67.42  -18.36   25.98
  17.434  -17.26   12.96   -0.36  -68.29   -0.38  -68.06  -17.44   26.04
  17.515  -16.50   13.21   -0.35  -68.79   -0.37  -68.93  -16.76   25.75
  17.597  -15.86   13.76   -0.36  -69.43   -0.37  -69.51  -16.11   25.09
  17.678  -15.36   14.53   -0.39  -69.90   -0.36  -69.87  -15.57   23.44
  17.760  -14.90   14.46   -0.40  -70.36   -0.39  -70.53  -15.07   22.63
  17.841  -14.52   15.18   -0.44  -71.08   -0.39  -70.83  -14.64   21.46
  17.923  -14.13   14.38   -0.41  -71.54   -0.44  -71.41  -14.19   21.10
  18.004  -13.67   14.69   -0.41  -71.88   -0.42  -71.97  -13.86   20.30
  18.086  -13.27   14.90   -0.45  -72.29   -0.42  -72.56  -13.55   19.15
  18.167  -13.01   14.89   -0.44  -72.98   -0.44  -72.76  -13.11   18.64
  18.249  -12.65   14.96   -0.47  -73.35   -0.44  -73.36  -12.82   17.52
  18.330  -12.39   14.91   -0.48  -74.04   -0.46  -73.81  -12.47   16.82
  18.412  -12.12   14.36   -0.48  -74.52   -0.51  -74.27  -12.17   16.46
  18.493  -11.77   14.55   -0.50  -74.78   -0.51  -74.95  -11.95   15.66
  18.575  -11.58   14.88   -0.56  -75.33   -0.52  -75.38  -11.62   14.27
  18.656  -11.33   14.49   -0.57  -75.80   -0.55  -75.77  -11.32   13.78
  18.738  -11.09   14.40   -0.59  -76.23   -0.59  -76.21  -11.12   12.93
  18.819  -10.88   14.28   -0.60  -76.59   -0.60  -76.52  -10.84   12.14
  18.901  -10.63   14.21   -0.63  -76.96   -0.64  -77.04  -10.68   11.57
  18.982  -10.42   14.61   -0.66  -77.33   -0.63  -77.56  -10.47   10.07
  19.064  -10.28   14.29   -0.69  -77.98   -0.67  -77.85  -10.22    9.69
  19.145  -10.05   13.71   -0.67  -78.40   -0.68  -78.29  -10.02    9.18
  19.227   -9.82   13.58   -0.68  -78.83   -0.68  -78.81   -9.85    8.33
  19.308   -9.68   13.77   -0.71  -79.10   -0.70  -79.15   -9.66    7.44
  19.390   -9.50   13.32   -0.73  -79.68   -0.74  -79.80   -9.55    6.71
  19.471   -9.44   13.81   -0.77  -80.11   -0.71  -80.22   -9.32    5.29
  19.553   -9.36   12.86   -0.79  -80.86   -0.78  -80.56   -9.19    5.45
  19.634   -9.21   12.85   -0.79  -81.24   -0.79  -81.03   -9.06    4.77
  19.716   -8.97   12.90   -0.79  -81.47   -0.82  -81.53   -9.02    4.08
  19.797   -8.97   13.22   -0.84  -81.84   -0.81  -81.71   -8.81    3.55
  19.879   -8.82   13.23   -0.86  -82.19   -0.87  -82.47   -8.78    2.46
  19.960   -8.82   12.89   -0.89  -82.93   -0.82  -82.86   -8.51    2.09
  20.042   -8.72   12.28   -0.90  -83.32   -0.86  -83.09   -8.45    1.99
  20.123   -8.55   11.91   -0.89  -83.91   -0.92  -83.80   -8.45    1.33
  20.205   -8.50   12.51   -0.93  -84.10   -0.91  -84.14   -8.33    0.52
  20.286   -8.41   12.29   -0.95  -84.57   -0.96  -84.52   -8.24    0.14
  20.368   -8.40   12.15   -1.01  -84.96   -0.99  -85.23   -8.15   -0.97
  20.449   -8.33   11.63   -1.01  -85.67   -0.94  -85.79   -7.95   -1.41
  20.531   -8.26   10.81   -1.01  -86.02   -0.99  -85.77   -7.98   -1.01
  20.612   -8.11   10.95   -1.00  -86.44   -1.01  -86.40   -7.96   -2.09
  20.694   -8.14   10.89   -1.02  -86.68   -1.01  -86.75   -7.84   -2.62
  20.775   -8.09   10.25   -1.05  -87.09   -1.05  -87.03   -7.84   -2.96
  20.857   -8.15   10.04   -1.09  -87.60   -1.09  -87.79   -7.77   -4.02
  20.938   -8.15    9.41   -1.09  -88.11   -1.02  -88.09   -7.62   -3.97
  21.020   -8.08    8.52   -1.07  -88.47   -1.06  -88.20   -7.72   -3.81
  21.101   -7.99    9.18   -1.04  -88.68   -1.08  -88.80   -7.74   -5.04
  21.183   -8.08    8.35   -1.06  -89.11   -1.02  -89.07   -7.59   -4.74
  21.264   -8.03    8.19   -1.06  -89.36   -1.08  -89.56   -7.71   -5.85
  21.346   -8.06    7.52   -1.07  -90.24   -1.05  -90.50   -7.59   -6.15
  21.427   -8.13    6.88   -1.06  -90.60   -1.01  -90.75   -7.55   -6.08
  21.509   -7.96    6.08   -1.05  -91.44   -1.05  -91.12   -7.68   -6.16
  21.590   -8.09    6.07   -1.05  -91.74   -1.03  -91.89   -7.57   -6.83
  21.672   -8.03    5.13   -1.06  -92.15   -1.05  -92.14   -7.62   -6.73
