!  American Technical Ceramics  Date:   11/6/2006
!  One Norden Lane
!  Huntington Station,  NY.   11746-2102
!  Tel:  (631) 622-4700               Fax:  (631) 622-4748
!  Part Number  600S560FT       Mounting Orientation: Horizontal
!  Description: Ultra Low ESR Microwave capacitors
!  Application: Coupling, Bypass, Tuning, DC Block
!               Filters, Matching
# GHZ S DB R 50
! Freq   |S11|   S11 Ph  |S21|   S21 Ph  |S12|   S12 Ph  |S22|   S22 Ph
   0.000    0.00    0.00 -999.00   90.00 -999.00   90.00    0.00    0.00
   0.400  -22.89  -86.35   -0.03    2.68   -0.02    2.67  -23.27  -89.08
   0.423  -23.38  -86.61   -0.03    2.37   -0.02    2.34  -23.67  -83.71
   0.445  -23.84  -86.83   -0.03    2.10   -0.02    2.07  -23.34  -85.97
   0.468  -24.29  -87.06   -0.02    1.83   -0.01    1.82  -24.23  -90.88
   0.490  -24.72  -87.24   -0.02    1.58   -0.01    1.56  -25.28  -86.83
   0.513  -25.12  -87.44   -0.02    1.35   -0.01    1.31  -24.91  -84.03
   0.535  -25.52  -87.66   -0.02    1.14   -0.01    1.11  -25.05  -89.86
   0.558  -25.90  -87.85   -0.02    0.92   -0.01    0.90  -26.38  -90.89
   0.580  -26.25  -87.99   -0.02    0.72   -0.01    0.69  -26.58  -84.58
   0.603  -26.59  -88.21   -0.02    0.53   -0.01    0.50  -26.06  -87.35
   0.625  -26.93  -88.47   -0.02    0.34   -0.01    0.32  -26.92  -92.92
   0.648  -27.27  -88.59   -0.02    0.16    0.00    0.13  -28.00  -87.99
   0.670  -27.59  -88.76   -0.02    0.00   -0.01   -0.04  -27.34  -84.70
   0.693  -27.90  -89.05   -0.01   -0.17    0.00   -0.20  -27.34  -91.58
   0.715  -28.23  -89.26   -0.01   -0.34    0.00   -0.36  -28.82  -92.68
   0.738  -28.52  -89.31   -0.01   -0.49    0.00   -0.53  -28.93  -84.56
   0.760  -28.78  -89.58   -0.01   -0.64    0.00   -0.68  -28.13  -87.99
   0.783  -29.08  -89.86   -0.01   -0.80   -0.01   -0.82  -29.08  -94.71
   0.805  -29.37  -89.93   -0.01   -0.95   -0.01   -0.98  -30.27  -88.80
   0.828  -29.62  -90.08   -0.01   -1.09    0.00   -1.12  -29.36  -84.77
   0.850  -29.88  -90.51   -0.01   -1.22    0.00   -1.25  -29.28  -92.92
   0.873  -30.18  -90.88   -0.01   -1.37   -0.01   -1.39  -30.88  -94.23
   0.895  -30.45  -90.86   -0.01   -1.49   -0.01   -1.54  -30.93  -84.70
   0.918  -30.67  -91.19   -0.01   -1.64   -0.01   -1.67  -29.92  -88.50
   0.940  -30.93  -91.61   -0.01   -1.75   -0.01   -1.79  -30.91  -96.46
   0.963  -31.20  -91.78   -0.01   -1.90   -0.01   -1.93  -32.32  -89.17
   0.985  -31.42  -91.90   -0.01   -2.01   -0.01   -2.05  -31.11  -84.41
   1.008  -31.65  -92.36   -0.01   -2.13   -0.01   -2.17  -30.93  -94.08
   1.030  -31.94  -92.84   -0.01   -2.27   -0.01   -2.30  -32.83  -95.78
   1.053  -32.20  -92.87   -0.01   -2.37   -0.01   -2.43  -32.76  -83.68
   1.075  -32.41  -93.20   -0.01   -2.51   -0.01   -2.54  -31.43  -88.61
   1.098  -32.64  -93.74   -0.01   -2.61   -0.01   -2.65  -32.61  -98.51
   1.120  -32.90  -94.14   -0.01   -2.75   -0.01   -2.78  -34.36  -88.77
   1.143  -33.13  -94.41   -0.01   -2.85   -0.01   -2.90  -32.64  -82.78
   1.165  -33.37  -94.84   -0.01   -2.97   -0.01   -3.00  -32.39  -95.18
   1.188  -33.62  -95.20   -0.01   -3.09   -0.01   -3.13  -34.81  -97.34
   1.210  -33.86  -95.50   -0.01   -3.19   -0.01   -3.25  -34.52  -80.95
   1.233  -34.10  -96.04   -0.01   -3.31   -0.01   -3.35  -32.82  -88.09
   1.255  -34.38  -96.59   -0.01   -3.43   -0.01   -3.46  -34.25 -100.39
   1.278  -34.60  -96.86   -0.01   -3.53   -0.01   -3.58  -36.38  -86.77
   1.300  -34.81  -97.53   -0.01   -3.65   -0.01   -3.69  -34.06  -80.98
   1.323  -35.08  -98.48   -0.01   -3.75   -0.01   -3.79  -33.84  -95.94
   1.345  -35.40  -98.88   -0.01   -3.87   -0.01   -3.91  -36.77  -97.65
   1.368  -35.64  -98.89   -0.01   -3.97   -0.01   -4.02  -36.16  -77.52
   1.390  -35.88  -99.62   -0.01   -4.07   -0.01   -4.12  -34.18  -87.17
   1.413  -36.18 -100.31   -0.01   -4.20   -0.01   -4.23  -36.03 -100.90
   1.435  -36.44 -100.57   -0.01   -4.29   -0.01   -4.34  -38.43  -82.24
   1.458  -36.64 -101.47   -0.01   -4.40   -0.01   -4.46  -35.32  -76.86
   1.480  -36.95 -102.79   -0.01   -4.51   -0.01   -4.56  -35.29  -95.50
   1.503  -37.30 -103.34   -0.01   -4.62   -0.01   -4.67  -38.90  -94.69
   1.525  -37.51 -103.78   -0.01   -4.72   -0.01   -4.78  -37.45  -71.49
   1.548  -37.80 -105.39   -0.01   -4.82   -0.01   -4.88  -35.22  -85.43
   1.570  -38.27 -106.40   -0.01   -4.94   -0.01   -4.98  -37.66 -101.79
   1.593  -38.67 -105.81   -0.01   -5.02   -0.01   -5.09  -40.16  -78.14
   1.615  -38.81 -105.94   -0.01   -5.14   -0.01   -5.19  -36.63  -75.09
   1.638  -39.03 -107.62   -0.01   -5.23   -0.01   -5.29  -36.88  -96.69
   1.660  -39.41 -108.99   -0.01   -5.36   -0.01   -5.40  -41.82  -94.09
   1.683  -39.67 -109.47   -0.01   -5.45   -0.01   -5.52  -39.34  -67.81
   1.705  -39.79 -111.30   -0.01   -5.57   -0.01   -5.62  -37.56  -83.67
   1.728  -40.06 -114.37   -0.01   -5.67    0.00   -5.71  -40.52  -97.71
   1.750  -40.48 -116.97   -0.01   -5.77    0.00   -5.82  -42.53  -67.49
   1.773  -40.92 -119.36   -0.01   -5.86    0.00   -5.92  -38.81  -69.03
   1.795  -41.47 -122.15   -0.01   -5.96    0.00   -6.01  -39.81  -90.06
   1.818  -42.09 -124.03   -0.01   -6.07    0.00   -6.12  -44.88  -76.25
   1.840  -42.57 -125.67   -0.01   -6.17    0.00   -6.23  -40.78  -52.72
   1.863  -42.90 -128.52   -0.01   -6.28    0.00   -6.33  -39.48  -75.15
   1.885  -43.46 -132.60   -0.01   -6.38    0.00   -6.43  -44.25  -87.34
   1.908  -44.02 -135.60   -0.01   -6.48    0.00   -6.54  -44.19  -41.49
   1.930  -44.44 -138.91   -0.01   -6.60    0.00   -6.65  -40.15  -56.09
   1.953  -44.82 -143.75   -0.01   -6.70    0.00   -6.76  -42.54  -80.43
   1.975  -45.38 -149.36   -0.01   -6.81    0.00   -6.86  -47.95  -42.51
   1.998  -45.85 -154.62   -0.01   -6.91    0.00   -6.97  -41.54  -33.96
   2.020  -46.37 -161.57   -0.01   -7.02    0.00   -7.07  -41.19  -64.08
   2.043  -46.82 -168.74   -0.01   -7.14    0.00   -7.18  -51.18  -66.63
   2.065  -47.11 -175.28   -0.01   -7.25    0.00   -7.31  -43.05   -2.90
   2.088  -46.88  176.52   -0.01   -7.37   -0.01   -7.42  -40.39  -37.45
   2.110  -46.71  166.27   -0.01   -7.47   -0.01   -7.53  -46.99  -62.61
   2.133  -46.69  157.38   -0.02   -7.59   -0.01   -7.64  -45.59   12.73
   2.155  -46.25  151.61   -0.02   -7.71   -0.01   -7.77  -40.77   -7.40
   2.178  -45.33  143.92   -0.02   -7.83   -0.01   -7.89  -43.50  -29.58
   2.200  -44.49  134.69   -0.02   -7.97   -0.01   -8.01  -46.54   19.69
   2.223  -43.89  126.70   -0.02   -8.07   -0.01   -8.14  -40.07   18.55
   2.245  -43.11  121.32   -0.02   -8.22   -0.01   -8.27  -40.27   -3.42
   2.268  -41.97  115.93   -0.03   -8.36   -0.02   -8.41  -44.19   15.72
   2.290  -40.84  109.60   -0.03   -8.50   -0.02   -8.56  -39.07   36.00
   2.313  -39.83  104.20   -0.03   -8.66   -0.02   -8.71  -37.14   18.73
   2.335  -38.72   98.98   -0.04   -8.81   -0.03   -8.88  -39.27   17.59
   2.358  -37.53   93.19   -0.05   -9.01   -0.04   -9.05  -37.22   41.10
   2.380  -36.39   86.94   -0.06   -9.19   -0.05   -9.25  -33.92   33.23
   2.403  -35.06   80.80   -0.08   -9.41   -0.07   -9.47  -33.74   23.98
   2.425  -33.52   73.29   -0.11   -9.65   -0.10   -9.71  -33.12   32.83
   2.448  -31.86   63.30   -0.15   -9.89   -0.14   -9.95  -29.93   31.82
   2.470  -30.18   50.22   -0.23  -10.06   -0.22  -10.12  -27.90   18.04
   2.493  -28.62   32.29   -0.33   -9.93   -0.32  -10.00  -26.93    5.35
   2.515  -27.80    8.40   -0.42   -9.23   -0.41   -9.28  -25.96   -8.04
   2.538  -28.34  -17.28   -0.39   -8.25   -0.38   -8.31  -25.62  -26.14
   2.560  -30.01  -38.80   -0.29   -7.80   -0.28   -7.87  -26.57  -45.11
   2.583  -32.08  -54.28   -0.20   -7.82   -0.19   -7.88  -28.94  -57.64
   2.605  -34.07  -65.58   -0.15   -8.00   -0.13   -8.07  -31.02  -55.74
   2.628  -35.96  -74.68   -0.11   -8.23   -0.10   -8.30  -31.15  -56.82
   2.650  -37.74  -82.91   -0.08   -8.43   -0.08   -8.50  -32.44  -67.41
   2.673  -39.47  -90.61   -0.07   -8.65   -0.06   -8.69  -35.56  -64.59
   2.695  -40.98  -97.66   -0.06   -8.80   -0.05   -8.88  -35.40  -50.18
   2.718  -42.32 -106.65   -0.05   -8.99   -0.04   -9.06  -34.85  -58.96
   2.740  -43.73 -116.42   -0.04   -9.15   -0.03   -9.22  -37.82  -65.50
   2.763  -44.98 -125.67   -0.04   -9.30   -0.03   -9.37  -39.17  -39.95
   2.785  -45.95 -136.48   -0.04   -9.45   -0.03   -9.51  -36.68  -41.03
   2.808  -46.69 -148.66   -0.04   -9.57   -0.02   -9.64  -38.19  -55.38
   2.830  -47.28 -160.67   -0.03   -9.72   -0.02   -9.78  -43.01  -33.49
   2.853  -47.31 -170.14   -0.03   -9.82   -0.02   -9.90  -37.63  -17.72
   2.875  -46.76  179.19   -0.03   -9.95   -0.02  -10.03  -37.10  -41.85
   2.898  -46.25  169.76   -0.03  -10.07   -0.02  -10.13  -42.93  -43.43
   2.920  -45.85  162.15   -0.03  -10.17   -0.02  -10.25  -39.78    0.24
   2.943  -45.14  157.72   -0.03  -10.30   -0.02  -10.36  -36.85  -19.97
   2.965  -44.24  152.13   -0.02  -10.40   -0.01  -10.48  -40.29  -38.11
   2.988  -43.78  146.18   -0.02  -10.54   -0.01  -10.60  -42.04    7.07
   3.010  -43.23  143.42   -0.02  -10.64   -0.01  -10.73  -36.84    0.18
   3.033  -46.20  109.09   -0.02  -10.75   -0.01  -10.83  -40.28  -19.08
   3.055  -45.14  105.75   -0.02  -10.88   -0.01  -10.94  -46.54   19.86
   3.078  -44.18  104.10   -0.02  -10.97   -0.01  -11.05  -38.79   31.95
   3.100  -43.31  102.13   -0.02  -11.11   -0.01  -11.17  -38.10    4.01
   3.123  -42.45   99.74   -0.02  -11.20   -0.01  -11.30  -43.96    4.52
   3.145  -41.82   96.48   -0.03  -11.34   -0.01  -11.42  -39.72   46.05
   3.168  -41.35   94.90   -0.02  -11.45   -0.02  -11.53  -36.66   23.98
   3.190  -40.69   94.06   -0.03  -11.55   -0.02  -11.63  -39.64    6.40
   3.213  -39.94   91.51   -0.02  -11.69   -0.02  -11.76  -41.04   45.08
   3.235  -39.53   88.37   -0.03  -11.77   -0.02  -11.86  -36.06   39.37
   3.258  -39.31   87.29   -0.03  -11.90   -0.02  -11.97  -36.44   16.66
   3.280  -38.83   87.03   -0.03  -11.98   -0.02  -12.09  -40.63   28.11
   3.303  -38.39   85.96   -0.03  -12.11   -0.02  -12.19  -36.70   50.26
   3.325  -37.97   85.49   -0.03  -12.21   -0.02  -12.30  -34.90   31.61
   3.348  -37.49   85.10   -0.03  -12.34   -0.02  -12.41  -37.86   22.44
   3.370  -36.98   83.71   -0.03  -12.46   -0.02  -12.54  -37.77   51.12
   3.393  -36.62   82.07   -0.04  -12.57   -0.03  -12.66  -34.31   43.43
   3.415  -36.25   81.08   -0.04  -12.69   -0.03  -12.78  -35.23   26.41
   3.438  -35.84   80.38   -0.04  -12.80   -0.03  -12.90  -37.99   41.87
   3.460  -35.43   79.14   -0.04  -12.93   -0.03  -13.01  -34.41   54.26
   3.483  -35.13   78.15   -0.04  -13.04   -0.03  -13.12  -33.31   38.09
   3.505  -34.74   77.94   -0.04  -13.17   -0.03  -13.26  -35.84   35.33
   3.528  -34.33   77.34   -0.04  -13.31   -0.04  -13.39  -34.83   57.68
   3.550  -33.93   76.26   -0.05  -13.43   -0.04  -13.52  -32.24   48.88
   3.573  -33.53   75.43   -0.05  -13.55   -0.04  -13.65  -33.30   36.58
   3.595  -33.14   74.56   -0.05  -13.68   -0.05  -13.77  -34.76   50.92
   3.618  -32.78   73.56   -0.06  -13.82   -0.05  -13.91  -31.91   56.38
   3.640  -32.36   72.84   -0.06  -13.95   -0.05  -14.03  -31.22   43.40
   3.663  -31.88   72.05   -0.06  -14.08   -0.06  -14.19  -32.98   44.41
   3.685  -31.45   70.71   -0.07  -14.25   -0.06  -14.34  -31.64   58.45
   3.708  -31.03   69.78   -0.07  -14.38   -0.07  -14.48  -29.72   50.76
   3.730  -30.58   68.96   -0.08  -14.55   -0.07  -14.63  -30.59   42.34
   3.753  -30.06   67.78   -0.09  -14.71   -0.08  -14.79  -31.16   53.25
   3.775  -29.59   66.02   -0.10  -14.87   -0.09  -14.96  -29.01   55.06
   3.798  -29.16   64.64   -0.11  -15.04   -0.10  -15.12  -28.53   45.15
   3.820  -28.64   63.41   -0.12  -15.21   -0.11  -15.32  -29.53   46.66
   3.843  -28.06   61.52   -0.13  -15.42   -0.13  -15.51  -28.21   55.11
   3.865  -27.54   59.52   -0.15  -15.58   -0.14  -15.68  -26.67   48.70
   3.888  -26.98   57.59   -0.17  -15.81   -0.16  -15.89  -26.95   42.75
   3.910  -26.36   55.33   -0.19  -16.01   -0.18  -16.12  -26.84   48.29
   3.933  -25.76   52.61   -0.22  -16.24   -0.21  -16.33  -25.15   47.77
   3.955  -25.15   49.75   -0.25  -16.46   -0.24  -16.55  -24.47   39.43
   3.978  -24.47   46.65   -0.30  -16.68   -0.29  -16.80  -24.62   37.57
   4.000  -23.73   42.56   -0.35  -16.90   -0.35  -17.00  -23.57   39.11
   4.023  -23.02   37.70   -0.42  -17.04   -0.41  -17.13  -22.26   32.33
   4.045  -22.33   32.19   -0.50  -17.16   -0.49  -17.24  -21.92   24.23
   4.068  -21.63   25.66   -0.60  -17.10   -0.59  -17.21  -21.63   20.93
   4.090  -21.02   17.94   -0.71  -16.84   -0.70  -16.93  -20.59   15.63
   4.113  -20.57    9.06   -0.81  -16.29   -0.80  -16.39  -19.92    4.69
   4.135  -20.34   -0.67   -0.88  -15.47   -0.87  -15.61  -20.04   -5.98
   4.158  -20.37  -10.88   -0.90  -14.49   -0.90  -14.58  -20.29  -13.33
   4.180  -20.66  -20.92   -0.86  -13.54   -0.85  -13.63  -20.21  -21.71
   4.203  -21.22  -30.22   -0.77  -12.83   -0.76  -12.95  -20.57  -33.16
   4.225  -21.93  -38.40   -0.67  -12.40   -0.66  -12.51  -21.76  -42.28
   4.248  -22.77  -45.36   -0.56  -12.23   -0.56  -12.33  -22.79  -45.06
   4.270  -23.67  -51.16   -0.47  -12.24   -0.46  -12.36  -23.05  -49.83
   4.293  -24.59  -55.78   -0.40  -12.36   -0.39  -12.47  -23.96  -59.04
   4.315  -25.49  -59.71   -0.33  -12.56   -0.33  -12.62  -25.75  -62.00
   4.338  -26.37  -63.08   -0.28  -12.73   -0.27  -12.85  -26.32  -58.84
   4.360  -27.26  -65.92   -0.24  -12.98   -0.24  -13.09  -26.33  -64.83
   4.383  -28.10  -67.96   -0.21  -13.19   -0.21  -13.30  -27.92  -72.60
   4.405  -28.87  -69.85   -0.19  -13.40   -0.18  -13.51  -29.61  -66.78
   4.428  -29.67  -71.52   -0.16  -13.61   -0.16  -13.72  -29.02  -64.66
   4.450  -30.51  -72.40   -0.15  -13.80   -0.14  -13.91  -29.54  -75.23
   4.473  -31.24  -72.88   -0.13  -14.01   -0.12  -14.10  -32.17  -76.29
   4.495  -31.94  -73.60   -0.12  -14.18   -0.11  -14.30  -32.30  -63.17
   4.518  -32.70  -74.22   -0.11  -14.37   -0.10  -14.49  -31.35  -70.95
   4.540  -33.40  -74.08   -0.10  -14.55   -0.10  -14.65  -33.47  -82.77
   4.563  -33.99  -74.40   -0.09  -14.69   -0.09  -14.80  -36.02  -67.45
   4.585  -34.62  -75.13   -0.09  -14.87   -0.08  -14.97  -33.90  -63.19
   4.608  -35.43  -75.42   -0.08  -15.00   -0.08  -15.12  -34.49  -80.56
   4.630  -36.22  -74.76   -0.08  -15.16   -0.07  -15.26  -39.09  -79.54
   4.653  -37.02  -73.70   -0.07  -15.26   -0.07  -15.40  -37.80  -50.51
   4.675  -37.88  -71.64   -0.07  -15.41   -0.06  -15.54  -35.89  -65.67
   4.698  -38.50  -68.64   -0.06  -15.56   -0.06  -15.66  -39.37  -81.49
   4.720  -38.98  -66.90   -0.06  -15.69   -0.05  -15.80  -41.91  -44.68
   4.743  -39.58  -66.44   -0.06  -15.83   -0.05  -15.94  -37.62  -49.32
   4.765  -40.37  -64.30   -0.06  -15.96   -0.05  -16.08  -38.97  -77.00
   4.788  -40.95  -61.67   -0.06  -16.09   -0.05  -16.20  -47.24  -65.68
   4.810  -41.60  -59.04   -0.05  -16.20   -0.05  -16.31  -41.19  -27.53
   4.833  -42.35  -55.88   -0.05  -16.32   -0.05  -16.44  -39.73  -58.77
   4.855  -42.98  -50.67   -0.05  -16.45   -0.04  -16.55  -47.00  -86.35
   4.878  -43.53  -45.40   -0.05  -16.54   -0.04  -16.67  -46.00    3.68
   4.900  -44.05  -40.69   -0.04  -16.69   -0.04  -16.80  -40.90  -28.84
   4.923  -44.41  -34.39   -0.05  -16.79   -0.04  -16.92  -45.43  -68.72
   4.945  -44.60  -29.66   -0.05  -16.91   -0.04  -17.02  -51.77   43.21
   4.968  -44.94  -23.27   -0.04  -17.01   -0.04  -17.13  -42.19    8.25
   4.990  -44.93  -16.82   -0.05  -17.12   -0.04  -17.24  -44.26  -34.83
   5.013  -44.51  -11.41   -0.04  -17.24   -0.04  -17.36  -59.35   58.70
   5.035  -44.51   -7.64   -0.04  -17.34   -0.04  -17.46  -42.65   43.32
   5.058  -44.54   -2.11   -0.04  -17.46   -0.04  -17.58  -42.02    1.52
   5.080  -44.14    4.35   -0.04  -17.57   -0.04  -17.69  -53.56   -8.08
   5.103  -43.74    8.13   -0.04  -17.67   -0.04  -17.79  -43.25   68.61
   5.125  -43.42   11.07   -0.04  -17.77   -0.04  -17.89  -40.05   31.72
   5.148  -43.22   15.33   -0.04  -17.88   -0.04  -18.01  -45.33    5.91
   5.170  -42.70   18.74   -0.04  -18.00   -0.04  -18.12  -45.32   78.82
   5.193  -42.31   21.04   -0.04  -18.09   -0.04  -18.23  -39.10   55.80
   5.215  -41.94   23.80   -0.04  -18.21   -0.04  -18.33  -40.71   24.36
   5.238  -41.41   25.82   -0.04  -18.31   -0.04  -18.43  -46.96   56.67
   5.260  -41.03   27.68   -0.04  -18.42   -0.04  -18.53  -39.38   71.17
   5.283  -40.67   29.91   -0.04  -18.52   -0.04  -18.64  -38.05   42.72
   5.305  -40.20   31.95   -0.04  -18.62   -0.04  -18.76  -42.73   34.84
   5.328  -39.70   32.75   -0.04  -18.73   -0.04  -18.86  -40.60   77.03
   5.350  -39.42   33.63   -0.04  -18.82   -0.04  -18.96  -36.74   58.97
   5.373  -39.06   35.18   -0.05  -18.94   -0.04  -19.06  -38.77   37.41
   5.395  -38.60   36.35   -0.04  -19.04   -0.04  -19.16  -41.93   66.54
   5.418  -38.23   36.64   -0.05  -19.14   -0.04  -19.26  -36.76   71.31
   5.440  -37.89   37.57   -0.04  -19.25   -0.04  -19.37  -36.15   47.97
   5.463  -37.47   38.19   -0.05  -19.35   -0.04  -19.48  -40.11   46.53
   5.485  -37.16   38.00   -0.05  -19.46   -0.05  -19.59  -37.81   75.42
   5.508  -36.90   38.96   -0.05  -19.54   -0.05  -19.68  -34.92   59.89
   5.530  -36.47   39.92   -0.05  -19.67   -0.05  -19.79  -36.86   43.94
   5.553  -36.09   39.69   -0.05  -19.76   -0.05  -19.90  -38.80   67.57
   5.575  -35.87   39.58   -0.06  -19.85   -0.05  -19.99  -34.89   69.72
   5.598  -35.59   40.52   -0.05  -19.98   -0.05  -20.10  -34.62   50.64
   5.620  -35.18   40.98   -0.06  -20.05   -0.05  -20.21  -37.69   52.83
   5.643  -34.82   40.31   -0.06  -20.19   -0.06  -20.32  -35.62   72.70
   5.665  -34.55   40.22   -0.06  -20.26   -0.06  -20.41  -33.41   58.94
   5.688  -34.25   40.63   -0.06  -20.39   -0.06  -20.52  -35.13   46.67
   5.710  -33.88   40.39   -0.07  -20.49   -0.06  -20.64  -36.24   65.04
   5.733  -33.51   40.38   -0.07  -20.60   -0.07  -20.74  -33.09   65.73
   5.755  -33.12   40.03   -0.07  -20.70   -0.07  -20.85  -32.89   49.34
   5.778  -32.76   39.46   -0.08  -20.81   -0.08  -20.96  -35.17   50.83
   5.800  -32.43   38.63   -0.09  -20.93   -0.08  -21.06  -33.61   64.83
   5.823  -32.07   37.74   -0.09  -21.00   -0.09  -21.14  -31.77   52.89
   5.845  -31.69   36.60   -0.10  -21.12   -0.10  -21.25  -33.08   40.73
   5.868  -31.34   34.84   -0.11  -21.21   -0.11  -21.36  -34.22   51.88
   5.890  -31.00   33.05   -0.12  -21.27   -0.12  -21.42  -31.88   52.36
   5.913  -30.67   31.11   -0.13  -21.36   -0.13  -21.47  -31.62   36.91
   5.935  -30.37   28.83   -0.14  -21.41   -0.14  -21.56  -33.75   33.20
   5.958  -30.16   25.97   -0.15  -21.45   -0.15  -21.58  -33.34   44.85
   5.980  -30.02   22.96   -0.16  -21.44   -0.16  -21.58  -31.75   34.74
   6.003  -29.96   19.75   -0.17  -21.45   -0.16  -21.59  -33.16   19.05
   6.025  -30.02   16.21   -0.17  -21.43   -0.17  -21.58  -35.94   26.10
   6.048  -30.20   12.94   -0.17  -21.39   -0.17  -21.54  -34.34   34.33
   6.070  -30.46   10.44   -0.16  -21.39   -0.16  -21.52  -34.19   17.93
   6.093  -30.76    8.37   -0.15  -21.38   -0.15  -21.54  -38.17   10.62
   6.115  -31.16    7.08   -0.15  -21.42   -0.14  -21.56  -38.92   43.33
   6.138  -31.56    6.83   -0.13  -21.46   -0.13  -21.59  -36.23   36.21
   6.160  -31.92    7.14   -0.12  -21.54   -0.12  -21.69  -38.93   19.66
   6.183  -32.19    7.38   -0.11  -21.63   -0.11  -21.78  -42.45   58.38
   6.205  -32.52    8.11   -0.10  -21.69   -0.10  -21.85  -37.20   63.39
   6.228  -32.73    9.30   -0.09  -21.83   -0.09  -21.94  -37.55   42.48
   6.250  -32.86   10.56   -0.09  -21.91   -0.09  -22.07  -42.14   58.34
   6.273  -33.01   11.56   -0.08  -22.03   -0.08  -22.17  -37.53   82.58
