!  American Technical Ceramics  Date:   10/26/00
!  One Norden Lane
!  Huntington Station,  NY.   11746-2102
!  Tel:  (631) 622-4700               Fax:  (631) 622-4748
!  Part Number  600S6R2        Mounting Orientation: Horizontal
!  Description: Ultra Low ESR Microwave capacitors
!  Application: Coupling, Bypass, Tuning, DC Block
!               Filters, Matching
# GHZ S DB R 50
! Freq   |S11|   S11 Ph  |S21|   S21 Ph  |S12|   S12 Ph  |S22|   S22 Ph
   0.000   0.00    0.00	  -999.00  90.00  -999.00  90.00    0.00    0.00
   0.400   -5.46  -58.20   -1.56   31.28   -1.57   31.30   -5.43  -57.62
   0.444   -6.11  -61.00   -1.31   28.44   -1.33   28.13   -6.12  -60.70
   0.488   -6.76  -63.59   -1.12   26.02   -1.12   26.10   -6.76  -62.57
   0.532   -7.37  -65.49   -0.95   23.84   -0.97   23.56   -7.35  -65.25
   0.576   -7.96  -67.58   -0.85   21.96   -0.85   22.07   -7.95  -66.54
   0.620   -8.51  -69.05   -0.74   20.25   -0.74   20.07   -8.48  -68.81
   0.664   -9.02  -70.83   -0.65   18.76   -0.66   18.80   -9.03  -69.75
   0.708   -9.55  -71.94   -0.58   17.35   -0.59   17.24   -9.54  -71.51
   0.752  -10.03  -73.30   -0.52   16.14   -0.53   16.10  -10.03  -72.35
   0.796  -10.49  -74.19   -0.47   14.94   -0.47   14.95  -10.50  -73.84
   0.840  -10.94  -75.64   -0.44   13.93   -0.44   13.92  -10.95  -74.53
   0.884  -11.38  -76.22   -0.39   12.96   -0.39   12.96  -11.35  -75.80
   0.928  -11.79  -77.22   -0.36   12.06   -0.37   11.99  -11.78  -76.55
   0.972  -12.18  -77.98   -0.34   11.20   -0.34   11.28  -12.21  -77.28
   1.016  -12.60  -78.89   -0.31   10.47   -0.32   10.33  -12.57  -78.13
   1.060  -12.94  -79.47   -0.29    9.71   -0.29    9.76  -12.95  -78.89
   1.104  -13.34  -80.12   -0.27    9.04   -0.27    8.95  -13.31  -79.56
   1.148  -13.68  -80.67   -0.25    8.37   -0.25    8.42  -13.69  -80.06
   1.192  -14.05  -81.41   -0.24    7.76   -0.24    7.67  -14.02  -80.84
   1.236  -14.37  -81.86   -0.21    7.21   -0.22    7.19  -14.32  -81.21
   1.280  -14.70  -82.36   -0.21    6.57   -0.21    6.56  -14.67  -81.99
   1.324  -15.04  -82.81   -0.20    6.10   -0.20    6.08  -15.00  -82.12
   1.368  -15.34  -83.16   -0.19    5.55   -0.18    5.55  -15.31  -82.79
   1.412  -15.66  -83.73   -0.18    5.07   -0.18    5.03  -15.60  -83.17
   1.456  -15.95  -83.97   -0.17    4.59   -0.17    4.63  -15.91  -83.70
   1.500  -16.27  -84.48   -0.16    4.14   -0.16    4.08  -16.20  -83.86
   1.544  -16.54  -84.48   -0.15    3.67   -0.16    3.71  -16.51  -84.51
   1.588  -16.84  -85.10   -0.15    3.28   -0.15    3.25  -16.78  -84.81
   1.632  -17.09  -85.23   -0.14    2.83   -0.14    2.88  -17.08  -85.33
   1.676  -17.40  -85.66   -0.14    2.46   -0.14    2.40  -17.34  -85.53
   1.720  -17.64  -85.52   -0.13    2.08   -0.14    2.11  -17.62  -85.85
   1.764  -17.88  -86.08   -0.13    1.70   -0.13    1.68  -17.86  -86.38
   1.808  -18.15  -86.25   -0.12    1.37   -0.13    1.37  -18.14  -86.70
   1.852  -18.39  -86.67   -0.12    0.99   -0.11    0.96  -18.38  -87.23
   1.896  -18.66  -86.91   -0.11    0.64   -0.11    0.61  -18.63  -87.46
   1.940  -18.89  -86.98   -0.11    0.26   -0.11    0.31  -18.89  -88.00
   1.984  -19.14  -87.46   -0.11   -0.04   -0.10   -0.05  -19.15  -88.22
   2.028  -19.38  -87.67   -0.11   -0.38   -0.10   -0.37  -19.38  -88.73
   2.072  -19.64  -87.98   -0.10   -0.69   -0.10   -0.72  -19.61  -88.88
   2.116  -19.84  -87.91   -0.10   -1.04   -0.10   -0.98  -19.86  -89.31
   2.160  -20.11  -88.54   -0.10   -1.33   -0.10   -1.36  -20.07  -89.46
   2.204  -20.33  -88.39   -0.10   -1.62   -0.09   -1.60  -20.33  -90.00
   2.248  -20.53  -89.02   -0.10   -1.93   -0.09   -1.94  -20.51  -90.10
   2.292  -20.77  -88.72   -0.09   -2.21   -0.09   -2.20  -20.74  -90.45
   2.336  -20.99  -88.97   -0.09   -2.52   -0.09   -2.52  -20.98  -90.52
   2.380  -21.22  -89.30   -0.09   -2.81   -0.09   -2.80  -21.22  -90.72
   2.424  -21.46  -89.37   -0.09   -3.09   -0.08   -3.07  -21.37  -90.94
   2.468  -21.63  -89.16   -0.09   -3.36   -0.09   -3.35  -21.57  -91.01
   2.512  -21.87  -89.30   -0.09   -3.63   -0.09   -3.59  -21.77  -91.17
   2.556  -22.10  -89.23   -0.10   -3.89   -0.09   -3.89  -22.01  -91.33
   2.600  -22.23  -89.24   -0.10   -4.14   -0.09   -4.11  -22.19  -91.69
   2.644  -22.42  -89.80   -0.09   -4.40   -0.09   -4.42  -22.34  -91.83
   2.688  -22.61  -89.20   -0.09   -4.65   -0.09   -4.63  -22.56  -92.05
   2.732  -22.80  -89.77   -0.09   -4.90   -0.09   -4.91  -22.76  -91.74
   2.776  -23.00  -89.86   -0.09   -5.16   -0.09   -5.11  -22.93  -92.37
   2.820  -23.19  -90.22   -0.09   -5.41   -0.09   -5.41  -23.06  -92.47
   2.864  -23.36  -89.75   -0.09   -5.64   -0.08   -5.61  -23.25  -92.74
   2.908  -23.56  -90.20   -0.09   -5.88   -0.08   -5.86  -23.42  -92.57
   2.952  -23.76  -90.25   -0.09   -6.12   -0.09   -6.10  -23.61  -92.93
   2.996  -23.90  -90.48   -0.09   -6.37   -0.08   -6.34  -23.69  -92.97
   3.040  -23.97  -91.31   -0.09   -6.60   -0.08   -6.57  -23.76  -91.74
   3.084  -24.12  -91.27   -0.09   -6.80   -0.08   -6.77  -23.92  -91.90
   3.128  -24.31  -91.62   -0.09   -7.03   -0.09   -6.99  -24.07  -92.06
   3.172  -24.35  -91.83   -0.09   -7.22   -0.08   -7.18  -24.17  -93.05
   3.216  -24.50  -92.35   -0.08   -7.45   -0.08   -7.45  -24.40  -93.38
   3.260  -24.70  -92.24   -0.08   -7.71   -0.07   -7.68  -24.62  -93.51
   3.304  -24.89  -92.70   -0.08   -7.92   -0.07   -7.91  -24.79  -93.35
   3.348  -24.99  -92.70   -0.08   -8.14   -0.07   -8.11  -24.95  -93.87
   3.392  -25.08  -93.29   -0.08   -8.35   -0.08   -8.36  -25.04  -93.87
   3.436  -25.20  -93.49   -0.08   -8.55   -0.08   -8.52  -25.19  -94.42
   3.480  -25.43  -94.31   -0.08   -8.78   -0.08   -8.78  -25.36  -94.69
   3.524  -25.57  -94.76   -0.08   -9.00   -0.08   -8.94  -25.58  -95.85
   3.568  -25.80  -95.87   -0.08   -9.17   -0.08   -9.16  -25.78  -95.80
   3.612  -26.08  -95.52   -0.08   -9.39   -0.07   -9.34  -25.98  -96.05
   3.656  -26.35  -95.48   -0.07   -9.60   -0.07   -9.55  -26.17  -96.33
   3.700  -26.56  -95.25   -0.07   -9.82   -0.07   -9.79  -26.40  -96.59
   3.744  -26.73  -95.13   -0.07  -10.03   -0.06   -9.99  -26.56  -96.63
   3.788  -26.92  -94.97   -0.07  -10.25   -0.07  -10.24  -26.79  -96.88
   3.832  -27.08  -94.48   -0.06  -10.48   -0.06  -10.44  -26.97  -96.63
   3.876  -27.25  -94.37   -0.06  -10.71   -0.06  -10.70  -27.07  -96.84
   3.920  -27.40  -94.45   -0.07  -10.90   -0.06  -10.87  -27.32  -97.38
   3.964  -27.65  -94.52   -0.06  -11.11   -0.06  -11.11  -27.46  -97.18
   4.008  -27.74  -93.58   -0.06  -11.34   -0.06  -11.29  -27.66  -97.91
   4.052  -27.98  -94.09   -0.07  -11.53   -0.07  -11.50  -27.82  -97.63
   4.096  -28.16  -92.94   -0.06  -11.75   -0.07  -11.71  -27.98  -98.52
   4.140  -28.39  -93.67   -0.07  -11.94   -0.06  -11.90  -28.23  -98.46
   4.184  -28.56  -92.72   -0.06  -12.15   -0.06  -12.12  -28.48  -99.11
   4.228  -28.63  -92.69   -0.07  -12.36   -0.06  -12.31  -28.61  -98.77
   4.272  -28.82  -92.17   -0.07  -12.55   -0.07  -12.51  -28.79  -99.22
   4.316  -29.02  -92.07   -0.07  -12.74   -0.06  -12.70  -29.05  -99.21
   4.360  -29.19  -91.62   -0.06  -12.95   -0.06  -12.91  -29.21  -99.87
   4.404  -29.20  -91.98   -0.06  -13.15   -0.06  -13.10  -29.42 -100.07
   4.448  -29.48  -91.38   -0.06  -13.35   -0.06  -13.31  -29.48 -100.08
   4.492  -29.54  -90.18   -0.06  -13.55   -0.06  -13.51  -29.86 -100.81
   4.536  -29.77  -91.22   -0.06  -13.74   -0.06  -13.72  -30.03 -100.14
   4.580  -29.88  -90.47   -0.06  -13.96   -0.06  -13.91  -30.09 -101.98
   4.624  -29.96  -90.96   -0.06  -14.14   -0.06  -14.12  -30.23 -101.98
   4.668  -30.17  -89.44   -0.06  -14.37   -0.06  -14.33  -30.50 -102.18
   4.712  -30.32  -89.66   -0.06  -14.61   -0.06  -14.53  -30.69 -102.21
   4.756  -30.51  -89.73   -0.07  -14.81   -0.07  -14.71  -30.83 -104.73
   4.800  -30.54  -89.89   -0.06  -15.00   -0.06  -14.92  -31.05 -104.39
   4.844  -30.71  -88.53   -0.07  -15.19   -0.06  -15.17  -31.23 -104.29
   4.888  -30.93  -88.31   -0.06  -15.39   -0.06  -15.31  -31.62 -105.07
   4.932  -31.21  -88.61   -0.07  -15.60   -0.06  -15.53  -31.67 -105.81
   4.976  -31.16  -87.94   -0.07  -15.79   -0.06  -15.73  -31.75 -107.55
   5.020  -31.27  -87.83   -0.07  -15.99   -0.06  -15.94  -32.09 -106.82
   5.064  -31.56  -86.55   -0.07  -16.19   -0.06  -16.13  -32.27 -107.50
   5.108  -31.74  -86.92   -0.07  -16.43   -0.06  -16.36  -32.51 -109.03
   5.152  -31.74  -86.71   -0.07  -16.62   -0.06  -16.55  -32.60 -110.47
   5.196  -31.75  -86.99   -0.07  -16.81   -0.07  -16.74  -32.72 -110.25
   5.240  -31.96  -85.29   -0.07  -17.05   -0.07  -16.99  -32.90 -112.06
   5.284  -31.91  -86.08   -0.08  -17.27   -0.08  -17.22  -33.12 -113.97
   5.328  -31.86  -88.22   -0.08  -17.49   -0.08  -17.45  -32.96 -117.46
   5.372  -31.67  -90.17   -0.10  -17.73   -0.09  -17.67  -32.87 -121.89
   5.416  -31.50  -94.70   -0.12  -18.01   -0.11  -17.93  -33.00 -129.41
   5.460  -31.94 -105.89   -0.17  -18.08   -0.16  -17.99  -33.57 -144.33
   5.504  -34.38 -121.02   -0.18  -17.83   -0.17  -17.74  -36.47 -162.84
   5.548  -38.72 -112.53   -0.14  -17.73   -0.13  -17.68  -41.22 -157.36
   5.592  -39.57  -89.22   -0.10  -17.94   -0.10  -17.90  -43.58 -132.19
   5.636  -39.00  -75.65   -0.09  -18.20   -0.08  -18.17  -42.79 -117.97
   5.680  -38.45  -72.02   -0.08  -18.46   -0.07  -18.39  -42.42 -115.99
   5.724  -38.28  -68.58   -0.08  -18.70   -0.07  -18.64  -42.08 -116.23
   5.768  -37.90  -66.44   -0.07  -18.90   -0.07  -18.85  -42.53 -115.34
   5.812  -38.05  -64.56   -0.07  -19.12   -0.06  -19.06  -42.72 -113.37
   5.856  -38.15  -60.36   -0.07  -19.34   -0.06  -19.28  -43.02 -116.64
   5.900  -38.14  -59.57   -0.07  -19.54   -0.06  -19.50  -44.05 -119.37
   5.944  -38.41  -56.91   -0.07  -19.74   -0.06  -19.65  -44.53 -121.01
   5.988  -38.43  -55.06   -0.07  -19.91   -0.06  -19.84  -45.63 -124.15
   6.032  -38.66  -50.49   -0.07  -20.11   -0.07  -20.04  -46.39 -123.73
   6.076  -38.74  -47.01   -0.07  -20.30   -0.06  -20.24  -48.73 -130.93
   6.120  -39.11  -42.60   -0.07  -20.49   -0.07  -20.42  -50.31 -136.10
   6.164  -39.15  -39.42   -0.07  -20.66   -0.06  -20.58  -52.02 -145.07
   6.208  -38.87  -34.68   -0.07  -20.85   -0.06  -20.76  -53.84 -140.16
   6.252  -38.45  -31.26   -0.06  -21.03   -0.06  -20.93  -58.32 -179.29
   6.296  -38.54  -25.49   -0.07  -21.22   -0.06  -21.11  -58.54  114.69
   6.340  -38.34  -22.22   -0.06  -21.37   -0.06  -21.26  -54.30  117.45
   6.384  -38.11  -21.79   -0.05  -21.50   -0.05  -21.44  -50.81  101.63
   6.428  -37.45  -16.94   -0.05  -21.64   -0.04  -21.58  -48.75   84.78
   6.472  -36.70  -14.58   -0.03  -21.80   -0.04  -21.75  -44.68   77.62
   6.516  -36.15  -12.38   -0.01  -21.95   -0.01  -21.86  -41.88   71.81
   6.560  -35.23  -19.47    0.04  -22.17    0.03  -22.08  -39.57   57.31
   6.604  -35.26  -34.06    0.08  -22.89    0.08  -22.74  -38.40   29.02
   6.648  -37.81  -40.67    0.02  -23.51    0.04  -23.39  -40.08    7.94
   6.692  -41.11  -28.53   -0.03  -23.70   -0.02  -23.63  -43.52    7.58
   6.736  -42.67  -11.13   -0.05  -23.81   -0.06  -23.75  -48.11   18.33
   6.780  -42.33    7.88   -0.08  -23.92   -0.07  -23.84  -48.75   40.75
   6.824  -39.26   20.25   -0.09  -23.97   -0.09  -23.89  -46.40   60.14
   6.868  -37.70   23.67   -0.10  -24.10   -0.09  -24.01  -42.49   71.42
   6.912  -36.73   24.32   -0.09  -24.21   -0.08  -24.12  -40.89   73.43
   6.956  -36.34   20.58   -0.09  -24.38   -0.08  -24.30  -39.98   69.07
   7.000  -35.77   19.89   -0.08  -24.55   -0.08  -24.49  -39.08   63.06
   7.044  -35.35   21.82   -0.08  -24.74   -0.07  -24.68  -37.95   64.57
   7.088  -35.01   25.69   -0.08  -24.93   -0.08  -24.83  -37.36   64.25
   7.132  -34.98   23.48   -0.08  -25.13   -0.07  -25.01  -37.21   64.94
   7.176  -34.64   24.76   -0.08  -25.36   -0.08  -25.23  -36.41   61.19
   7.220  -33.89   25.25   -0.08  -25.48   -0.08  -25.39  -35.78   60.73
   7.264  -33.89   28.70   -0.08  -25.69   -0.08  -25.58  -35.07   62.48
   7.308  -33.66   30.50   -0.08  -25.88   -0.08  -25.80  -34.85   62.16
   7.352  -33.39   30.40   -0.08  -26.11   -0.08  -26.00  -34.43   60.73
   7.396  -32.73   30.77   -0.08  -26.28   -0.07  -26.21  -33.92   58.99
   7.440  -32.57   33.05   -0.08  -26.48   -0.07  -26.38  -33.39   60.25
   7.484  -32.16   35.66   -0.08  -26.66   -0.08  -26.56  -32.96   60.76
   7.528  -32.01   34.68   -0.08  -26.87   -0.07  -26.78  -32.55   59.92
   7.572  -31.44   36.18   -0.08  -27.07   -0.08  -26.99  -31.99   58.02
   7.616  -31.01   36.15   -0.08  -27.27   -0.08  -27.15  -31.53   58.82
   7.660  -30.84   38.93   -0.08  -27.48   -0.08  -27.38  -30.96   58.56
   7.704  -30.38   38.86   -0.09  -27.71   -0.08  -27.59  -30.66   57.31
   7.748  -30.03   37.99   -0.09  -27.91   -0.08  -27.82  -30.11   56.35
   7.792  -29.68   38.43   -0.09  -28.11   -0.09  -28.03  -29.72   55.19
   7.836  -29.35   39.80   -0.09  -28.36   -0.09  -28.28  -29.20   55.40
   7.880  -28.92   39.90   -0.09  -28.51   -0.08  -28.42  -28.78   53.75
   7.924  -28.79   39.22   -0.10  -28.74   -0.09  -28.64  -28.46   52.52
   7.968  -28.32   39.86   -0.10  -28.98   -0.10  -28.85  -28.07   51.05
   8.012  -28.10   38.80   -0.10  -29.18   -0.10  -29.10  -27.68   49.88
   8.056  -27.94   40.22   -0.11  -29.42   -0.10  -29.27  -27.34   48.63
   8.100  -27.68   39.88   -0.11  -29.67   -0.11  -29.53  -27.07   47.92
   8.144  -27.48   40.74   -0.11  -29.89   -0.10  -29.83  -26.79   47.12
   8.188  -27.05   42.27   -0.12  -30.16   -0.10  -30.05  -26.46   46.41
   8.232  -26.53   42.63   -0.12  -30.42   -0.12  -30.34  -26.01   46.39
   8.276  -26.11   42.91   -0.13  -30.72   -0.12  -30.58  -25.54   45.23
   8.320  -25.67   42.59   -0.13  -31.00   -0.13  -30.94  -25.22   44.54
   8.364  -27.40   55.15   -0.14  -31.32   -0.14  -31.14  -25.55   24.22
   8.408  -26.50   54.14   -0.16  -31.63   -0.15  -31.51  -24.86   24.61
   8.452  -25.46   53.90   -0.18  -31.98   -0.17  -31.77  -24.05   25.04
   8.496  -24.62   50.97   -0.21  -32.30   -0.20  -32.17  -23.31   24.87
   8.540  -23.85   49.27   -0.24  -32.71   -0.23  -32.50  -22.54   24.12
   8.584  -22.86   45.78   -0.28  -33.10   -0.28  -32.98  -21.62   22.97
   8.628  -21.96   42.07   -0.34  -33.56   -0.33  -33.40  -20.69   20.88
   8.672  -21.13   37.67   -0.43  -33.93   -0.41  -33.77  -19.82   18.06
   8.716  -20.23   31.01   -0.56  -34.25   -0.55  -34.11  -18.97   13.37
   8.760  -19.56   21.71   -0.72  -34.25   -0.71  -34.08  -18.05    6.83
   8.804  -19.10   10.84   -0.92  -33.68   -0.91  -33.58  -17.46   -1.99
   8.848  -19.24   -2.77   -1.05  -32.29   -1.03  -32.15  -17.30  -12.57
   8.892  -20.23  -17.32   -1.03  -30.55   -1.03  -30.50  -17.90  -24.17
   8.936  -22.11  -29.35   -0.88  -29.32   -0.88  -29.25  -19.11  -33.12
   8.980  -24.57  -36.74   -0.69  -28.87   -0.69  -28.76  -20.66  -37.23
   9.024  -27.73  -38.68   -0.54  -28.98   -0.54  -28.87  -22.40  -38.13
   9.068  -31.34  -33.91   -0.42  -29.30   -0.42  -29.21  -23.96  -34.46
   9.112  -34.64  -17.28   -0.34  -29.69   -0.33  -29.61  -25.04  -28.89
   9.156  -36.28   10.97   -0.28  -30.11   -0.27  -30.00  -25.72  -21.25
   9.200  -34.78   41.23   -0.24  -30.54   -0.23  -30.41  -26.11  -12.29
   9.244  -32.84   53.40   -0.22  -30.86   -0.20  -30.80  -26.06   -5.10
   9.288  -31.22   61.15   -0.20  -31.23   -0.19  -31.10  -25.87    0.52
   9.332  -29.67   63.77   -0.18  -31.61   -0.17  -31.46  -25.36    5.79
   9.376  -28.43   66.08   -0.16  -31.90   -0.16  -31.78  -24.93    9.86
   9.420  -27.46   68.54   -0.15  -32.22   -0.14  -32.10  -24.53   13.28
   9.464  -26.69   69.49   -0.14  -32.49   -0.13  -32.41  -24.11   15.20
   9.508  -26.00   70.07   -0.14  -32.77   -0.12  -32.58  -23.70   16.89
   9.552  -25.29   70.47   -0.13  -32.99   -0.12  -32.93  -23.33   18.92
   9.596  -24.69   71.18   -0.12  -33.27   -0.12  -33.12  -22.95   20.13
   9.640  -24.21   71.44   -0.11  -33.50   -0.10  -33.38  -22.62   21.36
   9.684  -23.67   72.18   -0.10  -33.78   -0.09  -33.63  -22.26   22.26
   9.728  -23.17   71.30   -0.10  -33.98   -0.09  -33.86  -21.93   23.06
   9.772  -22.77   71.87   -0.08  -34.25   -0.08  -34.13  -21.69   24.02
   9.816  -22.34   71.77   -0.08  -34.56   -0.07  -34.37  -21.39   24.57
   9.860  -21.96   71.46   -0.07  -34.82   -0.06  -34.65  -21.15   25.10
   9.904  -21.65   71.32   -0.07  -35.09   -0.05  -34.92  -20.81   25.93
   9.948  -21.26   71.29   -0.06  -35.35   -0.06  -35.24  -20.70   26.24
   9.992  -21.03   70.69   -0.06  -35.68   -0.05  -35.43  -20.42   26.87
  10.036  -20.73   70.33   -0.06  -35.89   -0.05  -35.81  -20.19   26.87
  10.080  -20.50   70.13   -0.06  -36.24   -0.05  -36.05  -19.92   27.85
  10.124  -20.27   69.99   -0.06  -36.46   -0.07  -36.35  -19.73   27.81
  10.168  -20.11   69.69   -0.06  -36.75   -0.06  -36.60  -19.50   28.41
  10.212  -19.86   69.44   -0.08  -36.99   -0.07  -36.88  -19.17   27.85
  10.256  -19.67   69.39   -0.08  -37.21   -0.08  -37.10  -19.00   28.13
  10.300  -19.48   69.67   -0.09  -37.42   -0.08  -37.32  -18.79   28.25
  10.344  -19.26   69.55   -0.09  -37.64   -0.08  -37.54  -18.67   27.75
  10.388  -19.09   69.13   -0.09  -37.86   -0.08  -37.69  -18.42   27.58
  10.432  -18.81   69.44   -0.09  -38.11   -0.09  -38.02  -18.34   27.14
  10.476  -18.61   69.08   -0.10  -38.41   -0.10  -38.22  -18.17   27.83
  10.520  -18.41   68.76   -0.11  -38.61   -0.10  -38.53  -18.07   26.78
  10.564  -18.24   67.58   -0.12  -38.86   -0.12  -38.72  -17.94   27.18
  10.608  -18.06   66.98   -0.14  -39.03   -0.13  -38.94  -17.77   26.81
  10.652  -17.94   66.46   -0.14  -39.26   -0.13  -39.11  -17.71   27.28
  10.696  -17.87   66.10   -0.15  -39.40   -0.14  -39.30  -17.57   26.92
  10.740  -17.79   65.18   -0.15  -39.54   -0.15  -39.39  -17.50   26.34
  10.784  -17.71   64.30   -0.16  -39.72   -0.15  -39.60  -17.34   26.51
  10.828  -17.62   64.15   -0.16  -39.95   -0.15  -39.77  -17.26   26.52
  10.872  -17.64   63.62   -0.16  -40.09   -0.16  -39.90  -17.21   26.51
  10.916  -17.64   63.47   -0.17  -40.24   -0.17  -40.14  -17.16   25.80
  10.960  -17.60   62.82   -0.17  -40.44   -0.16  -40.27  -17.06   26.12
  11.004  -17.57   63.34   -0.17  -40.60   -0.16  -40.40  -16.99   26.16
  11.048  -17.58   63.58   -0.17  -40.74   -0.16  -40.56  -16.98   26.36
  11.092  -17.54   63.85   -0.17  -40.88   -0.17  -40.78  -16.92   25.78
  11.136  -17.47   63.89   -0.16  -41.04   -0.15  -40.84  -16.88   25.98
  11.180  -17.33   64.15   -0.16  -41.23   -0.15  -41.08  -16.78   26.60
  11.224  -17.27   64.34   -0.15  -41.41   -0.14  -41.26  -16.73   26.71
  11.268  -17.20   64.28   -0.15  -41.60   -0.14  -41.42  -16.71   26.81
  11.312  -17.12   64.07   -0.14  -41.80   -0.13  -41.67  -16.57   26.78
  11.356  -17.00   63.77   -0.14  -42.01   -0.13  -41.84  -16.54   27.01
  11.400  -16.92   63.70   -0.13  -42.22   -0.12  -42.05  -16.49   27.36
  11.444  -16.88   63.45   -0.13  -42.41   -0.12  -42.25  -16.39   27.23
  11.488  -16.83   63.19   -0.12  -42.63   -0.12  -42.48  -16.30   26.78
  11.532  -16.76   62.95   -0.11  -42.83   -0.11  -42.68  -16.27   26.88
  11.576  -16.70   62.85   -0.11  -43.02   -0.11  -42.88  -16.25   27.03
  11.620  -16.65   62.49   -0.11  -43.25   -0.11  -43.13  -16.20   26.69
  11.664  -16.61   62.03   -0.11  -43.50   -0.11  -43.36  -16.19   26.40
  11.708  -16.62   61.70   -0.11  -43.72   -0.10  -43.57  -16.12   26.27
  11.752  -16.53   61.39   -0.11  -43.95   -0.10  -43.81  -16.19   26.22
  11.796  -16.56   60.61   -0.12  -44.19   -0.10  -43.97  -16.13   26.45
  11.840  -16.54   60.38   -0.12  -44.41   -0.12  -44.27  -16.10   25.49
  11.884  -16.52   60.12   -0.11  -44.65   -0.11  -44.45  -16.17   25.65
