!  American Technical Ceramics  Date:   11/6/2006
!  One Norden Lane
!  Huntington Station,  NY.   11746-2102
!  Tel:  (631) 622-4700               Fax:  (631) 622-4748
!  Part Number  600S820FT       Mounting Orientation: Horizontal
!  Description: Ultra Low ESR Microwave capacitors
!  Application: Coupling, Bypass, Tuning, DC Block
!               Filters, Matching
# GHZ S DB R 50
! Freq   |S11|   S11 Ph  |S21|   S21 Ph  |S12|   S12 Ph  |S22|   S22 Ph
   0.000    0.00    0.00 -999.00   90.00 -999.00   90.00    0.00    0.00
   0.400  -26.29  -87.93   -0.02    1.34    0.00    1.34  -26.50  -89.40
   0.423  -26.80  -88.06   -0.01    1.10   -0.01    1.10  -26.96  -87.06
   0.445  -27.28  -88.22   -0.01    0.89   -0.01    0.88  -27.06  -88.18
   0.468  -27.75  -88.42   -0.01    0.68   -0.01    0.68  -27.74  -90.61
   0.490  -28.20  -88.49   -0.01    0.48   -0.01    0.47  -28.50  -88.61
   0.513  -28.61  -88.70   -0.01    0.29   -0.01    0.28  -28.53  -87.30
   0.535  -29.01  -89.01   -0.01    0.12   -0.01    0.11  -28.83  -90.40
   0.558  -29.42  -89.17   -0.01   -0.05   -0.01   -0.06  -29.73  -90.95
   0.580  -29.79  -89.22   -0.01   -0.22   -0.01   -0.23  -30.05  -87.88
   0.603  -30.13  -89.40   -0.01   -0.37   -0.01   -0.39  -29.95  -89.51
   0.625  -30.50  -89.75   -0.01   -0.53   -0.01   -0.54  -30.60  -92.56
   0.648  -30.88  -89.85   -0.01   -0.68   -0.01   -0.70  -31.32  -89.96
   0.670  -31.21  -89.99   -0.01   -0.83   -0.01   -0.84  -31.15  -88.27
   0.693  -31.55  -90.48   -0.01   -0.96   -0.01   -0.98  -31.34  -92.00
   0.715  -31.93  -90.81   -0.01   -1.10   -0.01   -1.12  -32.29  -92.59
   0.738  -32.25  -90.77   -0.01   -1.24   -0.01   -1.26  -32.56  -88.57
   0.760  -32.50  -91.02   -0.01   -1.38   -0.01   -1.39  -32.30  -90.27
   0.783  -32.82  -91.45   -0.01   -1.51   -0.01   -1.52  -32.99  -93.97
   0.805  -33.15  -91.58   -0.01   -1.64   -0.01   -1.65  -33.76  -91.07
   0.828  -33.44  -91.67   -0.01   -1.76   -0.01   -1.78  -33.48  -89.11
   0.850  -33.73  -92.36    0.00   -1.88   -0.01   -1.90  -33.58  -93.47
   0.873  -34.09  -92.90    0.00   -2.01   -0.01   -2.03  -34.57  -94.08
   0.895  -34.40  -92.95    0.00   -2.13   -0.01   -2.15  -34.79  -89.42
   0.918  -34.65  -93.43    0.00   -2.25   -0.01   -2.27  -34.44  -91.31
   0.940  -34.95  -94.07    0.00   -2.36   -0.01   -2.39  -35.16  -95.43
   0.963  -35.28  -94.27    0.00   -2.49   -0.01   -2.51  -36.04  -91.65
   0.985  -35.52  -94.37    0.00   -2.60   -0.01   -2.62  -35.59  -89.20
   1.008  -35.78  -95.21    0.00   -2.72   -0.01   -2.74  -35.66  -94.65
   1.030  -36.16  -96.11    0.00   -2.83   -0.01   -2.85  -36.86  -95.39
   1.053  -36.53  -96.18    0.00   -2.94   -0.01   -2.97  -37.00  -89.23
   1.075  -36.78  -96.68    0.00   -3.05   -0.01   -3.07  -36.47  -91.69
   1.098  -37.05  -97.71    0.00   -3.16   -0.01   -3.19  -37.33  -96.77
   1.120  -37.37  -98.50    0.00   -3.27   -0.01   -3.30  -38.39  -91.44
   1.143  -37.69  -99.14    0.00   -3.38   -0.01   -3.41  -37.69  -88.22
   1.165  -38.01  -99.83    0.00   -3.49   -0.01   -3.52  -37.76  -95.25
   1.188  -38.37 -100.58    0.00   -3.60   -0.01   -3.62  -39.30  -95.72
   1.210  -38.74 -101.37    0.00   -3.70   -0.01   -3.73  -39.39  -87.06
   1.233  -39.10 -102.14    0.00   -3.81   -0.01   -3.83  -38.59  -90.68
   1.255  -39.49 -103.07    0.00   -3.92   -0.01   -3.95  -39.75  -97.34
   1.278  -39.83 -103.84    0.00   -4.02   -0.01   -4.05  -41.13  -89.02
   1.300  -40.08 -105.15    0.00   -4.13   -0.01   -4.16  -39.93  -84.88
   1.323  -40.44 -106.97    0.00   -4.24   -0.01   -4.27  -40.01  -94.31
   1.345  -40.92 -108.34    0.00   -4.34   -0.01   -4.37  -42.03  -94.55
   1.368  -41.31 -109.30    0.00   -4.45   -0.01   -4.48  -41.99  -82.59
   1.390  -41.74 -111.30    0.00   -4.55   -0.01   -4.58  -40.99  -87.96
   1.413  -42.31 -113.12    0.00   -4.66   -0.01   -4.69  -42.68  -95.64
   1.435  -42.79 -114.36    0.00   -4.76   -0.01   -4.79  -44.34  -81.63
   1.458  -43.11 -116.84    0.00   -4.87   -0.01   -4.90  -42.63  -77.37
   1.480  -43.64 -120.61    0.00   -4.97   -0.01   -5.01  -42.99  -89.20
   1.503  -44.34 -123.09   -0.01   -5.08   -0.01   -5.12  -45.80  -85.11
   1.525  -44.76 -125.09   -0.01   -5.19   -0.01   -5.23  -44.64  -68.78
   1.548  -45.16 -130.45   -0.01   -5.29   -0.01   -5.33  -43.42  -80.21
   1.570  -46.10 -136.90   -0.01   -5.40   -0.01   -5.43  -46.13  -91.59
   1.593  -47.28 -139.47   -0.01   -5.49   -0.01   -5.54  -48.35  -68.58
   1.615  -47.76 -140.85   -0.01   -5.60   -0.01   -5.64  -45.96  -65.78
   1.638  -47.98 -147.19   -0.01   -5.71   -0.01   -5.76  -47.53  -83.07
   1.660  -48.55 -156.26   -0.01   -5.83   -0.01   -5.87  -53.67  -61.97
   1.683  -49.20 -162.86   -0.01   -5.95   -0.01   -5.99  -49.23  -34.49
   1.705  -49.24 -168.82   -0.01   -6.06   -0.01   -6.10  -49.27  -54.62
   1.728  -48.55 -177.87   -0.01   -6.17   -0.01   -6.22  -57.05  -37.95
   1.750  -47.75  170.47   -0.01   -6.28   -0.01   -6.32  -50.21   11.29
   1.773  -47.04  157.95   -0.01   -6.39   -0.01   -6.44  -48.29   -6.95
   1.795  -46.18  145.56   -0.01   -6.51   -0.01   -6.55  -51.88    7.61
   1.818  -45.47  134.08   -0.01   -6.64   -0.01   -6.68  -46.89   37.62
   1.840  -44.68  125.40   -0.02   -6.77    0.00   -6.81  -44.09   24.69
   1.863  -43.57  118.30   -0.02   -6.91    0.00   -6.95  -45.15   24.91
   1.885  -42.19  110.97   -0.02   -7.06   -0.01   -7.10  -42.89   39.32
   1.908  -40.87  103.62   -0.02   -7.22   -0.01   -7.27  -40.90   41.24
   1.930  -39.51   96.50   -0.03   -7.40   -0.02   -7.44  -39.35   40.68
   1.953  -37.97   89.21   -0.05   -7.59   -0.03   -7.65  -37.67   42.16
   1.975  -36.24   80.48   -0.06   -7.82   -0.05   -7.87  -35.47   41.08
   1.998  -34.31   69.18   -0.10   -8.08   -0.09   -8.12  -33.19   35.88
   2.020  -32.19   53.46   -0.17   -8.28   -0.15   -8.32  -30.86   27.13
   2.043  -30.23   30.10   -0.27   -8.16   -0.26   -8.20  -28.60   11.14
   2.065  -29.60   -1.61   -0.34   -7.30   -0.33   -7.35  -27.56  -13.50
   2.088  -31.09  -32.25   -0.26   -6.53   -0.25   -6.57  -28.63  -37.22
   2.110  -33.64  -54.13   -0.16   -6.45   -0.15   -6.50  -30.78  -51.94
   2.133  -36.15  -69.52   -0.11   -6.65   -0.09   -6.70  -32.93  -58.30
   2.155  -38.39  -82.43   -0.07   -6.88   -0.06   -6.92  -34.58  -61.00
   2.178  -40.53  -95.19   -0.05   -7.10   -0.04   -7.14  -36.15  -62.92
   2.200  -42.64 -106.64   -0.04   -7.29   -0.03   -7.33  -37.82  -61.63
   2.223  -44.41 -116.93   -0.03   -7.45   -0.02   -7.50  -38.99  -56.73
   2.245  -45.65 -129.00   -0.03   -7.62   -0.02   -7.66  -39.59  -55.16
   2.268  -46.59 -145.34   -0.03   -7.76   -0.01   -7.81  -40.99  -53.56
   2.290  -47.22 -162.61   -0.02   -7.90   -0.01   -7.95  -42.08  -44.47
   2.313  -47.21 -176.69   -0.02   -8.04   -0.01   -8.08  -41.89  -38.85
   2.335  -46.74  171.03   -0.02   -8.16   -0.01   -8.21  -42.56  -38.70
   2.358  -46.20  160.73   -0.02   -8.28   -0.01   -8.33  -43.72  -29.72
   2.380  -45.66  154.15   -0.02   -8.41   -0.01   -8.45  -43.14  -20.39
   2.403  -44.86  147.54   -0.02   -8.52   -0.01   -8.57  -43.01  -19.46
   2.425  -44.05  140.96   -0.02   -8.64   -0.01   -8.69  -43.79  -13.16
   2.448  -43.38  135.05   -0.02   -8.76   -0.01   -8.80  -43.15   -2.58
   2.470  -42.67  130.94   -0.02   -8.87   -0.01   -8.91  -42.36   -2.02
   2.493  -41.81  126.97   -0.02   -8.98   -0.01   -9.03  -42.82   -0.41
   2.515  -41.23  122.63   -0.02   -9.09   -0.01   -9.14  -42.66    8.92
   2.538  -40.84  119.69   -0.02   -9.19   -0.01   -9.24  -41.56   11.89
   2.560  -40.35  117.93   -0.02   -9.30   -0.01   -9.35  -41.46   10.15
   2.583  -39.90  114.55   -0.02   -9.41   -0.01   -9.46  -41.71   16.23
   2.605  -39.65  111.79   -0.03   -9.51   -0.01   -9.56  -40.86   21.09
   2.628  -39.32  109.79   -0.02   -9.61   -0.01   -9.66  -40.38   20.84
   2.650  -38.92  108.54   -0.02   -9.72   -0.01   -9.77  -40.53   24.51
   2.673  -38.48  107.18   -0.02   -9.84   -0.01   -9.89  -39.82   31.01
   2.695  -38.09  105.95   -0.02   -9.94   -0.01  -10.00  -38.87   31.62
   2.718  -37.71  105.44   -0.02  -10.06   -0.01  -10.12  -38.74   31.27
   2.740  -37.27  104.43   -0.02  -10.18   -0.01  -10.24  -38.40   36.09
   2.763  -36.90  102.89   -0.02  -10.30   -0.01  -10.36  -37.38   37.74
   2.785  -36.55  101.65   -0.03  -10.42   -0.01  -10.49  -36.90   35.73
   2.808  -36.14  100.46   -0.03  -10.54   -0.01  -10.60  -36.82   37.64
   2.830  -35.74   98.66   -0.03  -10.66   -0.02  -10.73  -36.08   40.49
   2.853  -35.45   97.46   -0.03  -10.79   -0.02  -10.85  -35.38   39.39
   2.875  -35.03   96.91   -0.03  -10.91   -0.02  -10.97  -35.24   39.26
   2.898  -34.63   95.79   -0.03  -11.04   -0.02  -11.09  -34.82   42.25
   2.920  -34.29   94.49   -0.04  -11.16   -0.02  -11.22  -33.99   42.25
   2.943  -33.95   93.76   -0.04  -11.29   -0.03  -11.35  -33.61   40.56
   2.965  -33.53   92.90   -0.04  -11.43   -0.03  -11.49  -33.45   41.72
   2.988  -33.09   91.26   -0.04  -11.57   -0.03  -11.63  -32.76   43.28
   3.010  -32.68   89.99   -0.05  -11.71   -0.03  -11.78  -32.14   42.12
   3.033  -32.13   78.12   -0.05  -11.87   -0.04  -11.93  -31.92   49.92
   3.055  -31.61   76.66   -0.06  -12.04   -0.05  -12.09  -31.34   51.24
   3.078  -31.09   75.36   -0.07  -12.20   -0.05  -12.27  -30.56   50.70
   3.100  -30.53   73.84   -0.08  -12.39   -0.06  -12.45  -30.06   49.38
   3.123  -29.90   71.82   -0.09  -12.57   -0.07  -12.64  -29.55   49.48
   3.145  -29.31   69.16   -0.10  -12.76   -0.09  -12.84  -28.79   49.04
   3.168  -28.72   66.60   -0.12  -12.97   -0.10  -13.04  -28.10   46.86
   3.190  -28.04   64.02   -0.14  -13.18   -0.13  -13.26  -27.55   45.41
   3.213  -27.28   60.66   -0.17  -13.41   -0.15  -13.49  -26.77   44.50
   3.235  -26.53   56.61   -0.20  -13.64   -0.19  -13.71  -25.83   41.72
   3.258  -25.79   52.00   -0.25  -13.87   -0.23  -13.94  -25.07   37.83
   3.280  -25.00   46.80   -0.31  -14.06   -0.29  -14.14  -24.32   34.40
   3.303  -24.19   40.23   -0.38  -14.20   -0.37  -14.27  -23.40   29.87
   3.325  -23.41   32.29   -0.48  -14.20   -0.46  -14.27  -22.51   23.07
   3.348  -22.73   22.66   -0.59  -13.95   -0.57  -14.03  -21.82   14.65
   3.370  -22.25   11.29   -0.69  -13.36   -0.67  -13.43  -21.31    5.00
   3.393  -22.13   -1.40   -0.74  -12.45   -0.73  -12.52  -21.06   -6.07
   3.415  -22.45  -14.27   -0.72  -11.46   -0.71  -11.54  -21.27  -17.77
   3.438  -23.15  -26.17   -0.65  -10.68   -0.64  -10.76  -21.94  -28.39
   3.460  -24.13  -36.46   -0.54  -10.26   -0.53  -10.33  -22.85  -36.72
   3.483  -25.24  -45.26   -0.44  -10.12   -0.43  -10.20  -23.80  -43.71
   3.505  -26.47  -52.51   -0.36  -10.18   -0.34  -10.26  -24.89  -49.83
   3.528  -27.70  -58.23   -0.29  -10.34   -0.28  -10.42  -26.12  -54.12
   3.550  -28.90  -62.88   -0.24  -10.56   -0.22  -10.63  -27.17  -56.36
   3.573  -30.10  -66.66   -0.20  -10.77   -0.18  -10.85  -28.05  -58.97
   3.595  -31.26  -69.81   -0.17  -10.99   -0.16  -11.06  -29.10  -61.66
   3.618  -32.38  -72.66   -0.14  -11.20   -0.13  -11.28  -30.23  -61.93
   3.640  -33.55  -75.27   -0.12  -11.40   -0.11  -11.48  -31.03  -61.58
   3.663  -34.76  -77.19   -0.11  -11.59   -0.10  -11.68  -31.91  -62.86
   3.685  -35.85  -78.26   -0.10  -11.78   -0.09  -11.86  -32.99  -62.54
   3.708  -36.99  -79.94   -0.09  -11.96   -0.08  -12.04  -33.77  -60.21
   3.730  -38.21  -81.82   -0.08  -12.12   -0.07  -12.20  -34.28  -61.03
   3.753  -39.70  -81.91   -0.07  -12.27   -0.06  -12.36  -35.33  -62.26
   3.775  -40.88  -80.53   -0.07  -12.42   -0.06  -12.50  -36.32  -59.18
   3.798  -41.97  -81.75   -0.07  -12.56   -0.06  -12.65  -36.71  -57.51
   3.820  -43.60  -82.46   -0.06  -12.70   -0.05  -12.79  -37.53  -59.87
   3.843  -45.38  -80.06   -0.06  -12.83   -0.05  -12.91  -39.12  -57.22
   3.865  -46.93  -77.23   -0.05  -12.95   -0.05  -13.04  -39.89  -50.46
   3.888  -48.91  -74.49   -0.05  -13.08   -0.04  -13.17  -40.39  -49.48
   3.910  -51.33  -65.79   -0.05  -13.20   -0.04  -13.29  -42.07  -48.14
   3.933  -53.10  -55.58   -0.05  -13.32   -0.04  -13.42  -43.39  -36.77
   3.955  -56.40  -47.23   -0.04  -13.44   -0.03  -13.54  -43.22  -31.05
   3.978  -60.09   -3.38   -0.04  -13.56   -0.03  -13.65  -44.36  -28.77
   4.000  -55.74   28.86   -0.04  -13.68   -0.03  -13.77  -45.43  -12.87
   4.023  -53.70   33.00   -0.04  -13.80   -0.03  -13.88  -44.13   -3.36
   4.045  -52.50   43.93   -0.04  -13.92   -0.03  -14.00  -44.07   -3.35
   4.068  -50.42   50.77   -0.04  -14.02   -0.03  -14.12  -45.14    7.26
   4.090  -48.65   52.44   -0.04  -14.13   -0.03  -14.23  -43.82   19.23
   4.113  -47.60   53.82   -0.04  -14.24   -0.03  -14.34  -43.03   18.76
   4.135  -46.68   56.57   -0.04  -14.35   -0.02  -14.46  -43.58   21.70
   4.158  -45.90   58.06   -0.03  -14.46   -0.02  -14.56  -43.13   32.52
   4.180  -45.21   58.82   -0.03  -14.57   -0.02  -14.66  -41.95   33.02
   4.203  -44.61   60.48   -0.03  -14.68   -0.02  -14.76  -41.98   31.62
   4.225  -44.06   60.31   -0.03  -14.78   -0.02  -14.88  -41.98   38.80
   4.248  -43.58   60.66   -0.03  -14.88   -0.02  -14.98  -40.86   42.26
   4.270  -42.96   62.34   -0.03  -14.99   -0.02  -15.08  -40.43   40.19
   4.293  -42.11   62.39   -0.03  -15.09   -0.02  -15.19  -40.63   43.50
   4.315  -41.66   61.74   -0.03  -15.20   -0.02  -15.30  -39.85   48.97
   4.338  -41.30   62.99   -0.03  -15.30   -0.02  -15.40  -39.13   47.63
   4.360  -40.74   64.30   -0.03  -15.40   -0.02  -15.50  -39.20   47.17
   4.383  -40.29   63.28   -0.03  -15.51   -0.02  -15.61  -38.98   51.13
   4.405  -40.09   62.50   -0.03  -15.61   -0.02  -15.72  -38.24   51.37
   4.428  -39.74   63.36   -0.03  -15.71   -0.02  -15.81  -38.15   49.65
   4.450  -39.11   63.19   -0.03  -15.82   -0.02  -15.92  -38.21   52.12
   4.473  -38.68   61.91   -0.03  -15.92   -0.02  -16.03  -37.47   54.76
   4.495  -38.43   61.62   -0.03  -16.02   -0.02  -16.14  -37.00   52.67
   4.518  -38.01   62.32   -0.03  -16.14   -0.02  -16.24  -37.17   52.81
   4.540  -37.58   61.30   -0.03  -16.25   -0.03  -16.35  -36.87   56.42
   4.563  -37.46   60.50   -0.04  -16.35   -0.03  -16.46  -36.18   56.02
   4.585  -37.30   61.06   -0.04  -16.46   -0.03  -16.56  -36.19   54.41
   4.608  -36.85   61.74   -0.04  -16.56   -0.03  -16.67  -36.13   57.09
   4.630  -36.37   61.10   -0.04  -16.66   -0.03  -16.77  -35.35   58.33
   4.653  -35.91   60.22   -0.04  -16.75   -0.04  -16.86  -34.87   55.61
   4.675  -35.38   59.03   -0.05  -16.85   -0.04  -16.96  -34.77   53.90
   4.698  -34.96   56.96   -0.05  -16.97   -0.04  -17.08  -34.51   53.83
   4.720  -34.76   55.09   -0.05  -17.08   -0.04  -17.18  -34.19   52.32
   4.743  -34.59   54.40   -0.06  -17.19   -0.05  -17.30  -34.19   50.58
   4.765  -34.23   53.27   -0.06  -17.30   -0.06  -17.40  -34.18   50.94
   4.788  -33.93   50.98   -0.07  -17.39   -0.06  -17.50  -33.81   50.48
   4.810  -33.69   48.83   -0.08  -17.47   -0.07  -17.58  -33.61   47.49
   4.833  -33.43   46.66   -0.08  -17.55   -0.08  -17.66  -33.72   45.20
   4.855  -33.16   43.84   -0.09  -17.61   -0.09  -17.73  -33.75   44.35
   4.878  -33.00   40.83   -0.10  -17.66   -0.09  -17.77  -33.61   41.68
   4.900  -32.99   37.61   -0.11  -17.69   -0.10  -17.80  -33.86   37.86
   4.923  -33.10   34.48   -0.11  -17.71   -0.10  -17.82  -34.44   36.68
   4.945  -33.38   31.45   -0.11  -17.71   -0.10  -17.83  -34.87   36.90
   4.968  -33.76   29.64   -0.11  -17.73   -0.10  -17.85  -35.36   36.60
   4.990  -34.10   28.58   -0.10  -17.76   -0.10  -17.88  -36.08   37.76
   5.013  -34.39   27.52   -0.10  -17.81   -0.09  -17.93  -36.57   41.83
   5.035  -34.84   27.66   -0.09  -17.87   -0.08  -17.99  -36.70   44.98
   5.058  -35.17   29.51   -0.08  -17.94   -0.07  -18.07  -36.94   47.79
   5.080  -35.26   31.58   -0.07  -18.04   -0.07  -18.16  -37.06   53.03
   5.103  -35.35   32.93   -0.07  -18.13   -0.06  -18.25  -36.61   57.12
   5.125  -35.49   34.33   -0.06  -18.23   -0.06  -18.35  -36.37   58.28
   5.148  -35.51   36.53   -0.06  -18.33   -0.05  -18.46  -36.35   61.25
   5.170  -35.39   37.97   -0.06  -18.44   -0.05  -18.56  -35.93   64.73
   5.193  -35.30   39.12   -0.05  -18.55   -0.05  -18.66  -35.49   65.47
   5.215  -35.17   40.39   -0.05  -18.65   -0.04  -18.77  -35.40   65.62
   5.238  -34.93   41.24   -0.05  -18.75   -0.04  -18.88  -35.20   67.76
   5.260  -34.81   41.96   -0.05  -18.86   -0.04  -18.98  -34.78   68.75
   5.283  -34.68   43.22   -0.05  -18.96   -0.04  -19.09  -34.52   68.40
   5.305  -34.45   44.14   -0.05  -19.07   -0.04  -19.19  -34.33   69.22
   5.328  -34.25   44.14   -0.05  -19.16   -0.04  -19.29  -34.01   70.11
   5.350  -34.16   44.51   -0.04  -19.27   -0.04  -19.40  -33.75   69.78
   5.373  -33.99   45.45   -0.04  -19.38   -0.04  -19.50  -33.73   70.17
   5.395  -33.73   45.80   -0.04  -19.48   -0.04  -19.61  -33.50   71.91
   5.418  -33.54   45.71   -0.04  -19.58   -0.04  -19.71  -33.10   71.76
   5.440  -33.36   46.31   -0.04  -19.68   -0.04  -19.81  -32.96   70.57
   5.463  -33.13   46.45   -0.04  -19.79   -0.04  -19.91  -32.94   71.04
   5.485  -32.97   46.22   -0.05  -19.89   -0.04  -20.03  -32.63   71.99
   5.508  -32.85   46.78   -0.05  -20.00   -0.04  -20.13  -32.32   71.43
   5.530  -32.56   47.25   -0.05  -20.11   -0.04  -20.23  -32.25   70.83
   5.553  -32.33   46.59   -0.05  -20.20   -0.04  -20.33  -32.14   71.80
   5.575  -32.25   46.18   -0.05  -20.30   -0.04  -20.43  -31.85   71.94
   5.598  -32.11   46.89   -0.05  -20.40   -0.04  -20.53  -31.73   71.17
   5.620  -31.83   47.05   -0.05  -20.50   -0.05  -20.63  -31.66   71.62
   5.643  -31.61   46.42   -0.05  -20.60   -0.05  -20.74  -31.41   71.82
   5.665  -31.50   46.12   -0.05  -20.70   -0.05  -20.84  -31.19   70.77
   5.688  -31.35   46.46   -0.05  -20.81   -0.05  -20.94  -31.17   70.58
   5.710  -31.14   46.30   -0.06  -20.91   -0.05  -21.05  -30.98   71.50
   5.733  -30.93   46.23   -0.06  -21.02   -0.05  -21.15  -30.64   71.25
   5.755  -30.71   46.04   -0.06  -21.12   -0.06  -21.26  -30.50   70.11
   5.778  -30.50   45.83   -0.06  -21.23   -0.06  -21.36  -30.41   70.29
   5.800  -30.33   45.48   -0.06  -21.33   -0.06  -21.48  -30.16   70.43
   5.823  -30.16   45.33   -0.07  -21.43   -0.06  -21.57  -29.93   69.20
   5.845  -29.93   45.19   -0.07  -21.54   -0.06  -21.68  -29.86   68.18
   5.868  -29.72   44.54   -0.07  -21.64   -0.07  -21.79  -29.72   68.14
   5.890  -29.54   44.17   -0.07  -21.75   -0.07  -21.90  -29.47   67.35
   5.913  -29.30   43.95   -0.07  -21.87   -0.07  -22.00  -29.34   66.40
   5.935  -29.04   43.60   -0.08  -21.98   -0.08  -22.13  -29.20   66.06
   5.958  -28.82   43.04   -0.08  -22.10   -0.08  -22.25  -28.94   65.62
   5.980  -28.60   42.59   -0.09  -22.22   -0.09  -22.37  -28.74   63.86
   6.003  -28.34   42.05   -0.09  -22.35   -0.09  -22.49  -28.68   62.71
   6.025  -28.10   41.04   -0.10  -22.47   -0.10  -22.62  -28.52   62.27
   6.048  -27.87   40.06   -0.11  -22.59   -0.11  -22.74  -28.25   60.78
   6.070  -27.60   39.19   -0.12  -22.71   -0.12  -22.85  -28.11   58.82
   6.093  -27.31   37.85   -0.13  -22.83   -0.13  -22.97  -28.00   57.51
   6.115  -27.07   36.60   -0.14  -22.95   -0.14  -23.10  -27.77   56.16
   6.138  -26.81   35.59   -0.15  -23.07   -0.15  -23.21  -27.58   53.83
   6.160  -26.50   34.10   -0.17  -23.17   -0.17  -23.32  -27.50   51.44
   6.183  -26.24   31.99   -0.18  -23.27   -0.18  -23.41  -27.38   49.50
   6.205  -26.03   29.87   -0.21  -23.35   -0.20  -23.50  -27.20   46.70
   6.228  -25.80   27.69   -0.23  -23.43   -0.22  -23.57  -27.13   43.15
   6.250  -25.54   24.99   -0.25  -23.45   -0.25  -23.61  -27.17   40.01
   6.273  -25.37   21.84   -0.27  -23.48   -0.27  -23.63  -27.14   36.82
