!  American Technical Ceramics  Date:   11/6/2006
!  One Norden Lane
!  Huntington Station,  NY.   11746-2102
!  Tel:  (631) 622-4700               Fax:  (631) 622-4748
!  Part Number  600S101FT       Mounting Orientation: Horizontal
!  Description: Ultra Low ESR Microwave capacitors
!  Application: Coupling, Bypass, Tuning, DC Block
!               Filters, Matching
# GHZ S DB R 50
! Freq   |S11|   S11 Ph  |S21|   S21 Ph  |S12|   S12 Ph  |S22|   S22 Ph
   0.000    0.00    0.00 -999.00   90.00 -999.00   90.00    0.00    0.00
   0.400  -27.98  -87.22   -0.02    0.84    0.00    0.83  -27.94  -86.98
   0.423  -28.49  -87.20   -0.02    0.64   -0.01    0.62  -28.48  -88.40
   0.445  -28.96  -87.23   -0.02    0.44   -0.01    0.42  -29.14  -87.92
   0.468  -29.42  -87.36   -0.02    0.26   -0.01    0.24  -29.45  -86.95
   0.490  -29.88  -87.34   -0.02    0.08   -0.01    0.06  -29.75  -87.90
   0.513  -30.27  -87.45   -0.02   -0.08   -0.01   -0.10  -30.39  -88.58
   0.535  -30.66  -87.71   -0.02   -0.24   -0.01   -0.27  -30.78  -87.57
   0.558  -31.06  -87.85   -0.02   -0.40   -0.01   -0.42  -31.12  -87.84
   0.580  -31.40  -87.76   -0.02   -0.54   -0.01   -0.57  -31.54  -88.60
   0.603  -31.73  -87.90   -0.02   -0.69   -0.01   -0.72  -31.99  -88.46
   0.625  -32.10  -88.23   -0.02   -0.83   -0.01   -0.86  -32.26  -87.62
   0.648  -32.47  -88.24   -0.01   -0.97   -0.01   -0.99  -32.54  -88.68
   0.670  -32.79  -88.36   -0.01   -1.10   -0.01   -1.13  -32.94  -88.82
   0.693  -33.13  -88.94   -0.01   -1.23   -0.01   -1.26  -33.27  -88.23
   0.715  -33.51  -89.15   -0.01   -1.35   -0.01   -1.40  -33.55  -88.46
   0.738  -33.81  -89.01   -0.01   -1.48   -0.01   -1.52  -33.95  -88.98
   0.760  -34.04  -89.29   -0.01   -1.61   -0.01   -1.64  -34.36  -88.52
   0.783  -34.36  -89.83   -0.01   -1.74   -0.01   -1.76  -34.60  -88.14
   0.805  -34.70  -89.76   -0.01   -1.85   -0.01   -1.89  -34.83  -89.10
   0.828  -34.96  -89.85   -0.01   -1.97   -0.01   -2.01  -35.27  -89.44
   0.850  -35.25  -90.68   -0.01   -2.09   -0.01   -2.12  -35.56  -88.35
   0.873  -35.64  -91.26   -0.01   -2.20   -0.01   -2.24  -35.69  -88.64
   0.895  -35.95  -91.18   -0.01   -2.32   -0.01   -2.36  -36.08  -89.70
   0.918  -36.18  -91.78   -0.01   -2.43   -0.01   -2.47  -36.57  -88.80
   0.940  -36.48  -92.62   -0.01   -2.54   -0.01   -2.58  -36.75  -87.59
   0.963  -36.83  -92.75   -0.01   -2.66   -0.01   -2.69  -36.93  -88.66
   0.985  -37.07  -92.62   -0.01   -2.77   -0.01   -2.80  -37.42  -89.24
   1.008  -37.35  -93.63   -0.01   -2.88   -0.01   -2.92  -37.77  -87.76
   1.030  -37.78  -94.78   -0.01   -2.98   -0.01   -3.03  -37.86  -87.82
   1.053  -38.21  -94.82   -0.01   -3.10   -0.01   -3.14  -38.24  -88.92
   1.075  -38.46  -95.27   -0.01   -3.20   -0.01   -3.24  -38.95  -87.97
   1.098  -38.75  -96.52   -0.01   -3.31   -0.01   -3.36  -38.97  -83.81
   1.120  -39.13  -97.50   -0.01   -3.42   -0.01   -3.47  -38.96  -87.23
   1.143  -39.51  -98.08   -0.01   -3.53   -0.01   -3.57  -39.94  -89.05
   1.165  -39.89  -99.00   -0.01   -3.63   -0.01   -3.68  -40.45  -83.08
   1.188  -40.38  -99.81   -0.01   -3.74   -0.01   -3.79  -40.00  -83.01
   1.210  -40.86 -100.69   -0.01   -3.85   -0.01   -3.90  -40.79  -85.36
   1.233  -41.33 -102.26   -0.01   -3.96   -0.01   -4.00  -41.93  -83.24
   1.255  -41.94 -103.39   -0.01   -4.07   -0.01   -4.12  -41.69  -77.63
   1.278  -42.51 -104.46   -0.01   -4.18   -0.01   -4.24  -41.73  -81.60
   1.300  -43.00 -106.56   -0.01   -4.29   -0.01   -4.34  -43.20  -81.86
   1.323  -43.67 -109.48   -0.01   -4.41   -0.01   -4.45  -43.69  -72.36
   1.345  -44.63 -112.07   -0.02   -4.52   -0.01   -4.57  -43.22  -73.25
   1.368  -45.71 -113.88   -0.02   -4.64   -0.01   -4.69  -44.79  -76.21
   1.390  -46.90 -118.62   -0.02   -4.76   -0.01   -4.81  -46.70  -63.35
   1.413  -48.71 -123.75   -0.02   -4.88   -0.01   -4.94  -45.71  -52.84
   1.435  -50.78 -129.94   -0.02   -5.01   -0.01   -5.06  -47.10  -49.58
   1.458  -52.94 -145.25   -0.02   -5.15    0.00   -5.21  -46.28  -35.66
   1.480  -55.12  179.73   -0.02   -5.30    0.00   -5.35  -48.24  -31.98
   1.503  -54.16  129.78   -0.03   -5.46   -0.01   -5.51  -47.55    5.83
   1.525  -50.29  100.92   -0.03   -5.63   -0.01   -5.69  -43.79   10.46
   1.548  -45.81   87.71   -0.04   -5.82   -0.02   -5.89  -43.25   14.00
   1.570  -41.61   76.10   -0.06   -6.06   -0.04   -6.12  -40.70   34.13
   1.593  -37.86   63.80   -0.09   -6.33   -0.07   -6.39  -36.27   35.13
   1.615  -34.25   50.14   -0.14   -6.65   -0.12   -6.71  -32.90   27.76
   1.638  -30.51   30.26   -0.26   -6.79   -0.24   -6.87  -29.46   16.24
   1.660  -27.74   -2.42   -0.41   -5.95   -0.39   -6.01  -26.61   -9.21
   1.683  -27.98  -38.31   -0.33   -4.64   -0.31   -4.70  -26.68  -39.76
   1.705  -29.92  -61.97   -0.19   -4.50   -0.17   -4.57  -28.53  -59.92
   1.728  -31.89  -76.11   -0.11   -4.77   -0.10   -4.83  -30.79  -70.12
   1.750  -33.58  -85.20   -0.08   -5.03   -0.06   -5.10  -32.48  -71.29
   1.773  -34.94  -91.78   -0.06   -5.26   -0.04   -5.33  -33.17  -73.32
   1.795  -36.17  -97.21   -0.05   -5.46   -0.03   -5.53  -34.38  -78.03
   1.818  -37.23 -101.12   -0.04   -5.64   -0.02   -5.70  -35.96  -75.40
   1.840  -38.08 -104.60   -0.04   -5.79   -0.02   -5.86  -36.04  -70.41
   1.863  -38.83 -108.54   -0.03   -5.94   -0.02   -6.00  -36.19  -74.79
   1.885  -39.65 -112.75   -0.03   -6.07   -0.01   -6.13  -37.76  -76.27
   1.908  -40.39 -115.98   -0.03   -6.19   -0.01   -6.26  -38.39  -67.46
   1.930  -41.02 -119.39   -0.03   -6.32   -0.01   -6.39  -37.70  -67.64
   1.953  -41.57 -123.62   -0.02   -6.44   -0.01   -6.51  -38.57  -72.90
   1.975  -42.15 -127.67   -0.02   -6.56   -0.01   -6.61  -39.95  -65.59
   1.998  -42.67 -131.38   -0.02   -6.67   -0.01   -6.73  -39.15  -59.04
   2.020  -43.29 -135.47   -0.02   -6.77   -0.01   -6.83  -39.11  -64.91
   2.043  -43.89 -139.41   -0.02   -6.89   -0.01   -6.95  -40.78  -63.21
   2.065  -44.24 -142.57   -0.02   -6.99   -0.01   -7.06  -40.60  -51.50
   2.088  -44.39 -148.66   -0.02   -7.10   -0.01   -7.16  -39.73  -54.73
   2.110  -44.84 -155.65   -0.02   -7.20   -0.01   -7.26  -41.05  -58.94
   2.133  -45.32 -160.02   -0.02   -7.31   -0.01   -7.37  -41.95  -45.24
   2.155  -45.19 -162.92   -0.02   -7.41   -0.01   -7.47  -40.31  -42.24
   2.178  -44.88 -169.42   -0.02   -7.51   -0.01   -7.57  -40.66  -49.96
   2.200  -45.10 -177.32   -0.02   -7.62   -0.01   -7.67  -42.51  -42.65
   2.223  -45.51  177.60   -0.02   -7.70   -0.01   -7.78  -41.25  -30.28
   2.245  -45.47  173.90   -0.02   -7.82   -0.01   -7.88  -40.38  -37.00
   2.268  -45.04  168.05   -0.02   -7.91   -0.01   -7.98  -42.00  -38.28
   2.290  -44.76  161.20   -0.02   -8.02   -0.01   -8.08  -42.06  -23.10
   2.313  -44.47  156.09   -0.02   -8.12   -0.01   -8.18  -40.38  -23.97
   2.335  -44.09  151.72   -0.02   -8.22   -0.01   -8.28  -41.14  -30.70
   2.358  -43.84  147.34   -0.03   -8.32   -0.01   -8.38  -42.34  -18.92
   2.380  -43.72  143.91   -0.03   -8.42   -0.01   -8.49  -40.59  -12.03
   2.403  -43.30  141.21   -0.03   -8.52   -0.01   -8.59  -40.22  -19.12
   2.425  -42.82  136.82   -0.03   -8.62   -0.01   -8.69  -41.67  -15.25
   2.448  -42.53  131.97   -0.03   -8.73   -0.01   -8.80  -40.67   -2.63
   2.470  -42.09  129.37   -0.03   -8.83   -0.01   -8.89  -39.42   -7.31
   2.493  -41.43  126.41   -0.03   -8.93   -0.02   -8.99  -40.40  -10.13
   2.515  -41.00  122.55   -0.03   -9.03   -0.02   -9.10  -40.60    2.24
   2.538  -40.76  119.90   -0.04   -9.12   -0.02   -9.19  -38.89    3.78
   2.560  -40.34  118.23   -0.04   -9.22   -0.02   -9.29  -38.92   -3.15
   2.583  -39.91  114.52   -0.04   -9.32   -0.02   -9.39  -39.98    2.52
   2.605  -39.78  110.82   -0.04   -9.42   -0.02   -9.49  -38.85   10.65
   2.628  -39.58  108.65   -0.04   -9.51   -0.02   -9.59  -38.13    6.50
   2.650  -39.18  107.22   -0.04   -9.62   -0.02   -9.70  -38.99    7.62
   2.673  -38.68  105.11   -0.04   -9.74   -0.02   -9.81  -38.48   18.91
   2.695  -38.35  103.15   -0.04   -9.84   -0.02   -9.92  -37.09   18.37
   2.718  -37.99  102.29   -0.04   -9.96   -0.03  -10.04  -37.23   15.27
   2.740  -37.48  100.45   -0.04  -10.09   -0.03  -10.17  -37.36   22.77
   2.763  -37.15   97.92   -0.05  -10.21   -0.03  -10.29  -35.89   26.36
   2.785  -36.78   96.08   -0.05  -10.34   -0.03  -10.41  -35.28   21.87
   2.808  -36.29   93.97   -0.05  -10.45   -0.04  -10.53  -35.60   23.95
   2.830  -35.78   91.04   -0.06  -10.59   -0.04  -10.66  -34.69   29.78
   2.853  -35.39   88.57   -0.06  -10.71   -0.05  -10.80  -33.56   27.60
   2.875  -34.90   86.74   -0.07  -10.85   -0.05  -10.94  -33.51   25.69
   2.898  -34.36   84.10   -0.08  -11.00   -0.06  -11.08  -33.16   30.45
   2.920  -33.87   80.90   -0.09  -11.13   -0.07  -11.22  -31.88   30.84
   2.943  -33.40   77.96   -0.10  -11.29   -0.08  -11.37  -31.26   27.15
   2.965  -32.79   74.61   -0.11  -11.44   -0.09  -11.53  -31.09   27.61
   2.988  -32.11   69.80   -0.13  -11.62   -0.11  -11.69  -30.07   29.48
   3.010  -31.49   64.64   -0.15  -11.77   -0.14  -11.85  -28.97   26.13
   3.033  -30.20   51.05   -0.18  -11.91   -0.17  -12.00  -28.71   27.69
   3.055  -29.46   44.50   -0.22  -12.03   -0.21  -12.11  -27.95   26.26
   3.078  -28.80   36.95   -0.27  -12.06   -0.26  -12.14  -26.82   21.77
   3.100  -28.23   27.93   -0.33  -12.00   -0.31  -12.08  -26.08   13.88
   3.123  -27.82   17.43   -0.38  -11.76   -0.36  -11.86  -25.74    6.23
   3.145  -27.69    5.28   -0.41  -11.39   -0.39  -11.47  -25.40   -1.32
   3.168  -27.99   -7.24   -0.41  -10.94   -0.40  -11.03  -25.27  -11.19
   3.190  -28.70  -18.84   -0.38  -10.55   -0.37  -10.65  -25.77  -21.49
   3.213  -29.67  -28.75   -0.33  -10.32   -0.32  -10.41  -26.72  -28.20
   3.235  -30.77  -37.25   -0.28  -10.23   -0.27  -10.33  -27.45  -31.92
   3.258  -32.04  -44.89   -0.24  -10.26   -0.22  -10.36  -28.08  -37.03
   3.280  -33.49  -50.85   -0.20  -10.36   -0.18  -10.46  -29.26  -41.65
   3.303  -34.85  -55.11   -0.17  -10.50   -0.15  -10.59  -30.46  -41.05
   3.325  -36.22  -58.76   -0.14  -10.64   -0.13  -10.74  -30.93  -40.74
   3.348  -37.65  -61.87   -0.13  -10.79   -0.11  -10.89  -31.65  -44.03
   3.370  -39.08  -63.30   -0.11  -10.94   -0.09  -11.04  -32.91  -43.61
   3.393  -40.46  -64.50   -0.10  -11.09   -0.08  -11.20  -33.40  -39.30
   3.415  -42.13  -66.05   -0.09  -11.25   -0.08  -11.36  -33.65  -40.07
   3.438  -44.12  -65.15   -0.08  -11.39   -0.07  -11.50  -34.75  -40.62
   3.460  -46.02  -60.61   -0.08  -11.54   -0.06  -11.64  -35.61  -33.87
   3.483  -47.46  -57.94   -0.07  -11.67   -0.06  -11.78  -35.48  -31.10
   3.505  -49.83  -55.49   -0.07  -11.81   -0.06  -11.92  -36.04  -32.84
   3.528  -52.67  -46.82   -0.07  -11.93   -0.05  -12.04  -37.27  -28.30
   3.550  -55.31  -23.64   -0.07  -12.07   -0.05  -12.17  -37.09  -21.29
   3.573  -56.38    8.33   -0.06  -12.18   -0.05  -12.30  -36.97  -22.64
   3.595  -54.27   36.74   -0.06  -12.31   -0.05  -12.41  -38.05  -21.36
   3.618  -51.71   49.23   -0.06  -12.43   -0.05  -12.54  -38.24  -11.08
   3.640  -49.46   57.64   -0.06  -12.55   -0.05  -12.65  -37.46   -8.71
   3.663  -47.22   61.52   -0.06  -12.65   -0.05  -12.77  -38.00   -8.87
   3.685  -45.79   59.51   -0.06  -12.77   -0.05  -12.89  -38.42   -0.49
   3.708  -44.85   60.65   -0.06  -12.89   -0.05  -13.01  -37.46    3.88
   3.730  -43.69   63.41   -0.07  -13.02   -0.05  -13.13  -37.47    0.42
   3.753  -42.22   62.87   -0.07  -13.14   -0.05  -13.24  -38.28    4.75
   3.775  -41.30   59.71   -0.07  -13.25   -0.06  -13.36  -37.58   12.30
   3.798  -40.71   58.71   -0.07  -13.36   -0.06  -13.47  -36.86   10.40
   3.820  -39.77   58.51   -0.08  -13.47   -0.07  -13.59  -37.43   10.66
   3.843  -38.84   56.15   -0.08  -13.59   -0.07  -13.70  -37.11   20.17
   3.865  -38.17   53.22   -0.09  -13.69   -0.08  -13.80  -35.77   21.69
   3.888  -37.48   50.97   -0.10  -13.80   -0.08  -13.92  -35.49   18.77
   3.910  -36.63   48.03   -0.10  -13.91   -0.09  -14.03  -35.43   22.00
   3.933  -36.06   44.00   -0.11  -14.02   -0.10  -14.13  -34.37   24.00
   3.955  -35.56   40.50   -0.13  -14.11   -0.11  -14.23  -33.58   18.69
   3.978  -34.91   36.94   -0.14  -14.18   -0.13  -14.30  -33.61   15.31
   4.000  -34.28   31.19   -0.15  -14.23   -0.14  -14.34  -33.16   15.78
   4.023  -33.93   23.94   -0.17  -14.23   -0.16  -14.34  -32.27   10.68
   4.045  -33.84   17.11   -0.18  -14.21   -0.17  -14.32  -32.23    2.51
   4.068  -33.80   10.47   -0.19  -14.15   -0.18  -14.26  -32.81   -2.00
   4.090  -33.93    3.54   -0.19  -14.07   -0.17  -14.20  -32.89   -4.45
   4.113  -34.41   -3.17   -0.18  -14.02   -0.17  -14.15  -33.10  -11.19
   4.135  -35.12   -8.57   -0.17  -14.00   -0.15  -14.13  -34.22  -17.83
   4.158  -35.92  -12.66   -0.15  -14.02   -0.14  -14.14  -35.56  -17.25
   4.180  -36.76  -15.80   -0.14  -14.07   -0.12  -14.19  -35.84  -16.40
   4.203  -37.71  -17.56   -0.12  -14.14   -0.11  -14.26  -36.58  -21.07
   4.225  -38.49  -18.40   -0.11  -14.23   -0.10  -14.35  -38.37  -20.07
   4.248  -39.25  -18.48   -0.10  -14.32   -0.09  -14.46  -38.97  -11.59
   4.270  -40.09  -16.75   -0.09  -14.43   -0.08  -14.56  -38.93  -11.57
   4.293  -40.68  -12.89   -0.08  -14.54   -0.07  -14.67  -40.44  -12.16
   4.315  -41.04  -10.84   -0.08  -14.66   -0.07  -14.78  -41.51    1.01
   4.338  -41.70   -8.36   -0.07  -14.75   -0.06  -14.89  -40.70    6.15
   4.360  -42.28   -3.62   -0.07  -14.87   -0.06  -15.00  -41.26    3.68
   4.383  -42.27    0.22   -0.06  -14.98   -0.05  -15.11  -42.44   13.96
   4.405  -42.37    0.93   -0.06  -15.08   -0.05  -15.22  -41.28   22.41
   4.428  -42.72    4.13   -0.06  -15.19   -0.05  -15.32  -41.11   18.69
   4.450  -42.52    9.62   -0.06  -15.29   -0.04  -15.43  -42.22   23.67
   4.473  -42.19   11.60   -0.06  -15.40   -0.04  -15.53  -41.37   35.65
   4.495  -42.27   13.50   -0.05  -15.50   -0.04  -15.64  -40.39   33.53
   4.518  -42.26   17.82   -0.05  -15.61   -0.04  -15.74  -41.15   32.69
   4.540  -41.80   20.52   -0.05  -15.71   -0.04  -15.85  -41.27   44.07
   4.563  -41.80   20.48   -0.05  -15.81   -0.04  -15.95  -39.80   45.95
   4.585  -42.05   22.43   -0.05  -15.92   -0.04  -16.06  -40.00   41.68
   4.608  -41.79   26.63   -0.05  -16.01   -0.04  -16.15  -40.60   48.78
   4.630  -41.25   28.88   -0.05  -16.11   -0.04  -16.24  -39.21   55.14
   4.653  -40.81   30.30   -0.05  -16.19   -0.04  -16.33  -38.35   50.14
   4.675  -40.22   31.95   -0.05  -16.29   -0.04  -16.42  -38.86   47.97
   4.698  -39.69   31.16   -0.05  -16.41   -0.04  -16.53  -38.74   53.94
   4.720  -39.62   30.09   -0.05  -16.51   -0.04  -16.63  -37.82   53.12
   4.743  -39.74   31.17   -0.05  -16.61   -0.04  -16.74  -38.19   49.66
   4.765  -39.45   32.90   -0.05  -16.71   -0.04  -16.84  -38.73   55.87
   4.788  -39.19   32.41   -0.05  -16.80   -0.04  -16.94  -37.72   60.19
   4.810  -39.05   32.52   -0.05  -16.89   -0.04  -17.02  -37.30   56.05
   4.833  -38.84   33.54   -0.05  -16.98   -0.04  -17.12  -37.88   56.67
   4.855  -38.45   34.05   -0.05  -17.08   -0.04  -17.22  -37.51   63.10
   4.878  -38.19   34.54   -0.05  -17.17   -0.04  -17.31  -36.55   61.28
   4.900  -37.97   35.02   -0.05  -17.28   -0.04  -17.43  -36.72   57.80
   4.923  -37.71   35.30   -0.05  -17.38   -0.04  -17.51  -36.91   62.16
   4.945  -37.57   35.08   -0.05  -17.47   -0.04  -17.62  -36.14   64.71
   4.968  -37.44   35.89   -0.05  -17.56   -0.04  -17.71  -35.81   61.90
   4.990  -37.11   36.16   -0.05  -17.66   -0.04  -17.82  -36.16   62.25
   5.013  -36.73   34.95   -0.05  -17.77   -0.05  -17.91  -35.77   65.90
   5.035  -36.67   34.65   -0.06  -17.86   -0.05  -18.01  -35.12   63.80
   5.058  -36.52   35.61   -0.06  -17.95   -0.05  -18.11  -35.36   61.13
   5.080  -36.13   36.22   -0.06  -18.06   -0.05  -18.20  -35.47   64.98
   5.103  -35.87   35.77   -0.06  -18.15   -0.05  -18.30  -34.63   66.07
   5.125  -35.77   35.58   -0.06  -18.25   -0.05  -18.40  -34.39   62.22
   5.148  -35.58   36.06   -0.06  -18.35   -0.05  -18.51  -34.79   63.07
   5.170  -35.30   35.85   -0.06  -18.45   -0.06  -18.61  -34.35   66.74
   5.193  -35.09   35.56   -0.07  -18.56   -0.06  -18.71  -33.72   64.44
   5.215  -34.83   35.59   -0.07  -18.66   -0.06  -18.81  -33.97   61.57
   5.238  -34.51   35.14   -0.07  -18.76   -0.06  -18.91  -34.05   64.31
   5.260  -34.30   34.75   -0.07  -18.86   -0.07  -19.02  -33.40   64.77
   5.283  -34.08   35.01   -0.08  -18.96   -0.07  -19.12  -33.15   61.24
   5.305  -33.75   34.94   -0.08  -19.07   -0.07  -19.23  -33.33   61.23
   5.328  -33.46   33.93   -0.08  -19.17   -0.08  -19.33  -32.94   63.18
   5.350  -33.29   33.23   -0.09  -19.27   -0.08  -19.43  -32.47   60.56
   5.373  -33.02   33.16   -0.09  -19.38   -0.09  -19.53  -32.67   58.30
   5.395  -32.65   32.54   -0.10  -19.48   -0.09  -19.64  -32.64   60.56
   5.418  -32.36   31.27   -0.10  -19.58   -0.10  -19.74  -32.00   59.82
   5.440  -32.07   30.56   -0.11  -19.68   -0.10  -19.83  -31.81   55.36
   5.463  -31.72   29.46   -0.12  -19.78   -0.11  -19.94  -32.07   54.23
   5.485  -31.45   27.72   -0.13  -19.88   -0.12  -20.04  -31.73   55.32
   5.508  -31.23   26.51   -0.14  -19.96   -0.13  -20.13  -31.20   52.19
   5.530  -30.88   25.33   -0.15  -20.05   -0.14  -20.21  -31.32   48.14
   5.553  -30.53   22.98   -0.16  -20.12   -0.15  -20.29  -31.45   47.88
   5.575  -30.32   20.19   -0.17  -20.18   -0.17  -20.35  -31.05   46.33
   5.598  -30.15   18.25   -0.18  -20.23   -0.18  -20.40  -30.94   41.10
   5.620  -29.88   15.94   -0.20  -20.25   -0.19  -20.42  -31.30   37.80
   5.643  -29.63   12.53   -0.21  -20.27   -0.21  -20.44  -31.31   36.28
   5.665  -29.56    8.85   -0.22  -20.25   -0.22  -20.42  -31.12   31.52
   5.688  -29.57    5.61   -0.23  -20.24   -0.23  -20.40  -31.57   25.54
   5.710  -29.58    2.02   -0.24  -20.19   -0.23  -20.37  -32.26   23.32
   5.733  -29.70   -1.48   -0.24  -20.14   -0.23  -20.32  -32.52   21.62
   5.755  -29.90   -4.60   -0.24  -20.09   -0.23  -20.27  -32.92   16.32
   5.778  -30.18   -7.73   -0.23  -20.06   -0.22  -20.23  -34.07   12.25
   5.800  -30.55  -10.83   -0.22  -20.03   -0.22  -20.20  -35.09   12.74
   5.823  -31.01  -13.17   -0.21  -20.01   -0.20  -20.19  -35.53   12.03
   5.845  -31.49  -14.47   -0.19  -20.04   -0.19  -20.22  -36.54    7.73
   5.868  -31.90  -15.84   -0.18  -20.07   -0.18  -20.26  -38.35   10.29
   5.890  -32.40  -16.83   -0.17  -20.13   -0.16  -20.31  -38.86   17.30
   5.913  -32.91  -16.48   -0.15  -20.20   -0.15  -20.38  -39.38   17.20
   5.935  -33.33  -15.50   -0.14  -20.29   -0.14  -20.47  -41.15   21.48
   5.958  -33.75  -14.93   -0.13  -20.38   -0.13  -20.56  -41.62   36.43
   5.980  -34.21  -13.60   -0.12  -20.48   -0.12  -20.65  -40.86   38.75
   6.003  -34.53  -11.48   -0.11  -20.59   -0.11  -20.76  -41.94   39.57
   6.025  -34.75  -10.06   -0.11  -20.70   -0.10  -20.88  -42.39   54.37
   6.048  -34.99   -8.66   -0.10  -20.81   -0.10  -20.99  -40.78   59.99
   6.070  -35.15   -5.99   -0.09  -20.92   -0.09  -21.10  -40.67   57.20
   6.093  -35.11   -3.98   -0.09  -21.03   -0.09  -21.21  -41.21   64.29
   6.115  -35.19   -2.27   -0.09  -21.15   -0.09  -21.34  -39.78   71.22
   6.138  -35.29    0.54   -0.08  -21.27   -0.08  -21.45  -38.99   67.39
   6.160  -35.18    3.03   -0.08  -21.37   -0.08  -21.56  -39.61   67.10
   6.183  -35.03    3.78   -0.08  -21.49   -0.08  -21.67  -39.22   74.36
   6.205  -35.06    4.54   -0.08  -21.59   -0.08  -21.77  -38.10   72.76
   6.228  -35.01    6.23   -0.08  -21.71   -0.08  -21.88  -38.30   68.11
   6.250  -34.82    7.12   -0.08  -21.80   -0.08  -21.99  -38.85   72.76
   6.273  -34.76    7.40   -0.08  -21.91   -0.08  -22.09  -37.90   76.41
