!  American Technical Ceramics  Date:   10/26/00
!  One Norden Lane
!  Huntington Station,  NY.   11746-2102
!  Tel:  (631) 622-4700               Fax:  (631) 622-4748
!  Part Number  600S3R6       Mounting Orientation: Horizontal
!  Description: Ultra Low ESR Microwave capacitors
!  Application: Coupling, Bypass, Tuning, DC Block
!               Filters, Matching
# GHZ S DB R 50
! Freq   |S11|   S11 Ph  |S21|   S21 Ph  |S12|   S12 Ph  |S22|   S22 Ph
   0.000    0.00    0.00 -999.00   90.00 -999.00   90.00    0.00    0.00
   0.400   -2.66  -43.68   -3.41   46.20   -3.42   46.11   -2.64  -43.26
   0.465   -3.30  -48.22   -2.74   41.65   -2.75   41.51   -3.31  -47.82
   0.530   -3.99  -51.94   -2.24   37.68   -2.27   36.90   -3.99  -52.01
   0.595   -4.64  -55.85   -1.88   34.32   -1.89   34.09   -4.62  -54.37
   0.660   -5.21  -58.73   -1.56   31.26   -1.59   31.47   -5.25  -57.37
   0.725   -5.84  -61.00   -1.34   28.62   -1.35   28.60   -5.82  -60.47
   0.790   -6.37  -63.53   -1.14   26.05   -1.15   25.86   -6.43  -63.37
   0.855   -6.96  -66.04   -1.00   24.08   -1.01   23.77   -6.96  -65.01
   0.920   -7.49  -67.88   -0.86   22.21   -0.89   21.99   -7.49  -66.77
   0.985   -7.99  -69.77   -0.77   20.45   -0.76   20.57   -8.01  -68.10
   1.050   -8.46  -70.80   -0.67   18.84   -0.68   18.91   -8.49  -70.54
   1.115   -8.95  -72.28   -0.59   17.43   -0.61   17.24   -8.95  -72.01
   1.180   -9.43  -74.28   -0.54   16.04   -0.55   15.78   -9.45  -72.93
   1.245   -9.86  -75.22   -0.46   14.94   -0.48   14.78   -9.83  -74.12
   1.310  -10.29  -76.19   -0.43   13.72   -0.45   13.81  -10.28  -75.26
   1.375  -10.70  -77.07   -0.39   12.64   -0.38   12.66  -10.68  -76.46
   1.440  -11.06  -78.09   -0.35   11.60   -0.37   11.51  -11.13  -77.67
   1.505  -11.50  -79.26   -0.31   10.76   -0.33   10.46  -11.45  -78.25
   1.570  -11.88  -80.08   -0.30    9.89   -0.31    9.81  -11.87  -78.85
   1.635  -12.21  -80.54   -0.27    8.92   -0.27    8.99  -12.23  -80.19
   1.700  -12.58  -80.95   -0.25    8.24   -0.26    8.18  -12.56  -81.00
   1.765  -12.89  -82.03   -0.23    7.42   -0.24    7.28  -12.93  -81.70
   1.830  -13.25  -82.96   -0.21    6.81   -0.23    6.58  -13.24  -82.17
   1.895  -13.57  -83.50   -0.19    6.05   -0.21    5.93  -13.55  -83.08
   1.960  -13.86  -83.81   -0.18    5.37   -0.18    5.41  -13.90  -83.92
   2.025  -14.18  -84.44   -0.17    4.71   -0.17    4.65  -14.20  -84.76
   2.090  -14.48  -85.18   -0.16    4.09   -0.17    3.97  -14.51  -85.31
   2.155  -14.80  -85.99   -0.15    3.53   -0.16    3.35  -14.80  -85.70
   2.220  -15.08  -86.27   -0.14    2.99   -0.14    2.89  -15.07  -86.38
   2.285  -15.35  -86.45   -0.13    2.38   -0.14    2.38  -15.36  -87.26
   2.350  -15.63  -86.95   -0.12    1.80   -0.13    1.78  -15.64  -87.86
   2.415  -15.92  -87.74   -0.12    1.32   -0.13    1.16  -15.89  -87.89
   2.480  -16.16  -88.07   -0.12    0.77   -0.13    0.62  -16.16  -88.49
   2.545  -16.41  -87.95   -0.11    0.30   -0.11    0.27  -16.39  -89.24
   2.610  -16.65  -88.29   -0.10   -0.14   -0.11   -0.15  -16.64  -89.72
   2.675  -16.88  -88.50   -0.10   -0.65   -0.11   -0.65  -16.90  -90.29
   2.740  -17.12  -89.20   -0.10   -1.06   -0.10   -1.22  -17.11  -90.50
   2.805  -17.35  -89.39   -0.09   -1.49   -0.10   -1.65  -17.33  -90.95
   2.870  -17.52  -89.48   -0.08   -1.94   -0.10   -2.01  -17.57  -91.92
   2.935  -17.71  -89.58   -0.09   -2.39   -0.09   -2.42  -17.79  -92.42
   3.000  -17.97  -91.09   -0.07   -2.82   -0.09   -2.88  -17.94  -91.80
   3.065  -18.13  -91.81   -0.08   -3.20   -0.08   -3.36  -18.18  -92.06
   3.130  -18.38  -92.10   -0.06   -3.61   -0.08   -3.72  -18.32  -92.22
   3.195  -18.55  -92.13   -0.06   -3.97   -0.06   -4.04  -18.51  -93.01
   3.260  -18.74  -92.85   -0.06   -4.40   -0.06   -4.44  -18.68  -93.55
   3.325  -18.95  -93.28   -0.06   -4.78   -0.06   -4.85  -18.89  -93.65
   3.390  -19.21  -93.61   -0.06   -5.16   -0.07   -5.29  -19.07  -93.96
   3.455  -19.30  -93.99   -0.06   -5.50   -0.07   -5.63  -19.22  -94.44
   3.520  -19.48  -93.82   -0.06   -5.91   -0.06   -5.92  -19.41  -95.43
   3.585  -19.66  -94.56   -0.05   -6.21   -0.05   -6.28  -19.59  -95.79
   3.650  -19.85  -95.28   -0.05   -6.61   -0.05   -6.70  -19.75  -96.26
   3.715  -20.00  -95.55   -0.04   -6.94   -0.05   -7.11  -19.98  -96.67
   3.780  -20.26  -95.62   -0.04   -7.34   -0.05   -7.44  -20.18  -97.52
   3.845  -20.39  -95.99   -0.03   -7.69   -0.04   -7.74  -20.38  -97.97
   3.910  -20.57  -96.19   -0.04   -8.00   -0.04   -8.07  -20.56  -98.04
   3.975  -20.53  -96.11   -0.03   -8.40   -0.04   -8.49  -20.47  -97.51
   4.040  -20.95  -96.73   -0.04   -8.70   -0.04   -8.86  -20.92  -98.63
   4.105  -21.13  -96.85   -0.03   -9.07   -0.04   -9.18  -21.10  -99.34
   4.170  -21.26  -96.73   -0.03   -9.38   -0.04   -9.45  -21.32  -99.69
   4.235  -21.47  -97.49   -0.03   -9.76   -0.04   -9.83  -21.47  -99.88
   4.300  -21.65  -98.08   -0.03  -10.03   -0.03  -10.14  -21.66 -100.39
   4.365  -21.88  -98.11   -0.03  -10.34   -0.04  -10.50  -21.88 -100.59
   4.430  -22.07  -97.58   -0.02  -10.66   -0.04  -10.77  -22.05 -101.02
   4.495  -22.19  -97.72   -0.03  -10.99   -0.03  -11.07  -22.19 -101.41
   4.560  -22.31  -98.05   -0.02  -11.30   -0.03  -11.38  -22.33 -101.46
   4.625  -22.53  -98.21   -0.03  -11.63   -0.03  -11.78  -22.48 -102.22
   4.690  -22.68  -98.37   -0.02  -11.94   -0.03  -12.09  -22.64 -102.52
   4.755  -22.77  -98.07   -0.02  -12.31   -0.04  -12.42  -22.85 -103.28
   4.820  -22.98  -98.29   -0.02  -12.63   -0.02  -12.66  -23.01 -103.88
   4.885  -23.13  -99.10   -0.02  -12.92   -0.03  -12.99  -23.16 -103.88
   4.950  -23.35  -98.99   -0.02  -13.25   -0.03  -13.32  -23.32 -104.32
   5.015  -23.50  -98.93   -0.01  -13.54   -0.03  -13.69  -23.58 -105.03
   5.080  -23.73  -99.04   -0.02  -13.86   -0.03  -13.94  -23.72 -105.59
   5.145  -23.88  -99.19   -0.02  -14.15   -0.02  -14.23  -23.95 -105.62
   5.210  -24.13  -99.34   -0.01  -14.50   -0.02  -14.59  -24.08 -105.76
   5.275  -24.33  -99.71   -0.01  -14.78   -0.03  -14.90  -24.27 -105.90
   5.340  -24.49  -99.20   -0.02  -15.12   -0.03  -15.26  -24.48 -106.76
   5.405  -24.67  -99.51   -0.01  -15.41   -0.03  -15.52  -24.70 -106.78
   5.470  -24.93  -99.27   -0.02  -15.68   -0.02  -15.79  -24.84 -107.05
   5.535  -25.19 -100.00   -0.01  -16.02   -0.02  -16.11  -25.08 -106.73
   5.600  -25.40  -99.85   -0.01  -16.31   -0.03  -16.43  -25.27 -107.21
   5.665  -25.73  -99.82   -0.01  -16.62   -0.02  -16.75  -25.50 -106.64
   5.730  -26.21  -99.77   -0.01  -16.93   -0.02  -17.06  -25.58 -106.07
   5.795  -26.80  -97.31    0.00  -17.22   -0.01  -17.32  -25.29 -104.35
   5.860  -26.49  -91.85   -0.01  -17.55   -0.01  -17.66  -24.96 -108.88
   5.925  -26.15  -93.42   -0.01  -17.92   -0.02  -18.02  -25.43 -112.24
   5.990  -26.16  -94.61   -0.01  -18.19   -0.02  -18.33  -25.95 -113.24
   6.055  -26.43  -95.41   -0.01  -18.52   -0.02  -18.59  -26.24 -113.73
   6.120  -26.64  -95.82   -0.02  -18.85   -0.02  -18.94  -26.53 -114.58
   6.185  -26.82  -96.30   -0.02  -19.17   -0.03  -19.27  -26.76 -114.57
   6.250  -27.02  -95.57   -0.02  -19.48   -0.03  -19.60  -27.14 -116.40
   6.315  -27.10  -95.28   -0.03  -19.81   -0.04  -19.94  -27.41 -116.98
   6.380  -27.24  -95.22   -0.03  -20.15   -0.04  -20.27  -27.80 -118.39
   6.445  -27.15  -95.67   -0.04  -20.51   -0.05  -20.60  -28.05 -121.34
   6.510  -26.77  -96.45   -0.07  -20.93   -0.07  -21.04  -28.75 -126.25
   6.575  -26.18 -103.69   -0.13  -21.13   -0.14  -21.21  -30.87 -133.62
   6.640  -27.26 -118.90   -0.15  -20.75   -0.15  -20.89  -34.48 -115.65
   6.705  -29.67 -119.73   -0.08  -20.89   -0.08  -21.00  -32.48  -98.39
   6.770  -31.04 -115.94   -0.04  -21.30   -0.05  -21.40  -31.50  -97.36
   6.835  -31.60 -114.86   -0.03  -21.68   -0.04  -21.80  -31.26  -98.90
   6.900  -32.22 -112.22   -0.03  -22.12   -0.04  -22.24  -31.19  -98.34
   6.965  -33.30 -115.51   -0.04  -22.53   -0.05  -22.63  -31.18  -97.28
   7.030  -34.72 -120.49   -0.06  -22.90   -0.07  -23.03  -30.65  -95.57
   7.095  -38.41 -124.39   -0.10  -23.27   -0.11  -23.38  -29.57  -97.93
   7.160  -43.66  -55.96   -0.15  -23.08   -0.15  -23.19  -29.01 -114.58
   7.225  -36.31  -60.28   -0.09  -22.97   -0.09  -23.12  -31.29 -127.51
   7.290  -35.30  -68.92   -0.04  -23.36   -0.05  -23.49  -33.55 -126.54
   7.355  -36.13  -73.58   -0.03  -23.76   -0.04  -23.88  -35.15 -123.30
   7.420  -36.71  -75.01   -0.03  -24.09   -0.03  -24.18  -36.22 -120.89
   7.485  -37.24  -72.18   -0.02  -24.45   -0.02  -24.57  -37.76 -117.55
   7.550  -38.43  -68.31   -0.02  -24.78   -0.03  -24.89  -39.34 -116.22
   7.615  -39.84  -67.44   -0.01  -25.09   -0.02  -25.18  -41.05 -109.95
   7.680  -40.43  -60.09   -0.01  -25.41   -0.02  -25.55  -43.19 -102.68
   7.745  -41.70  -51.77   -0.01  -25.75   -0.03  -25.90  -45.08  -89.48
   7.810  -42.40  -38.80   -0.01  -26.05   -0.01  -26.15  -48.10  -65.17
   7.875  -42.84  -25.39   -0.01  -26.37   -0.01  -26.46  -47.43  -36.97
   7.940  -42.23  -12.60   -0.01  -26.72   -0.02  -26.87  -45.50   -9.29
   8.005  -41.42   -0.15   -0.01  -27.00   -0.02  -27.17  -42.91    1.49
   8.070  -41.03    5.30   -0.01  -27.32   -0.02  -27.51  -40.74    7.69
   8.135  -40.61   13.03   -0.01  -27.62   -0.02  -27.77  -39.26   12.21
   8.200  -39.65   22.25   -0.01  -27.96   -0.02  -28.09  -37.77   15.96
   8.265  -39.08   32.38   -0.01  -28.30   -0.02  -28.42  -36.82   18.55
   8.330  -45.14  126.29   -0.01  -28.67   -0.02  -28.81  -33.13  -19.61
   8.395  -40.22   97.05   -0.01  -29.05   -0.02  -29.16  -32.47  -10.91
   8.460  -36.96   89.05   -0.02  -29.38   -0.03  -29.49  -31.58   -5.00
   8.525  -34.28   81.57   -0.02  -29.75   -0.03  -29.95  -30.59    2.54
   8.590  -32.19   76.37   -0.03  -30.10   -0.05  -30.19  -29.66    7.70
   8.655  -30.44   72.95   -0.05  -30.44   -0.06  -30.56  -28.68   11.87
   8.720  -29.04   70.46   -0.05  -30.72   -0.06  -30.95  -27.74   15.68
   8.785  -27.85   67.76   -0.06  -31.14   -0.07  -31.26  -26.74   18.30
   8.850  -26.77   65.50   -0.06  -31.44   -0.07  -31.60  -25.97   20.01
   8.915  -25.96   63.24   -0.07  -31.82   -0.08  -32.00  -25.13   22.26
   8.980  -25.40   62.29   -0.08  -32.21   -0.09  -32.31  -24.54   24.61
   9.045  -24.58   62.95   -0.09  -32.61   -0.10  -32.74  -23.66   26.44
   9.110  -23.74   64.43   -0.09  -33.00   -0.11  -33.14  -22.77   28.70
   9.175  -22.88   63.64   -0.10  -33.46   -0.11  -33.62  -21.85   29.47
   9.240  -21.88   62.61   -0.12  -33.92   -0.12  -34.09  -20.99   30.13
   9.305  -20.97   61.93   -0.14  -34.42   -0.15  -34.63  -20.15   30.30
   9.370  -20.12   60.43   -0.15  -35.04   -0.17  -35.20  -19.32   30.16
   9.435  -19.22   58.90   -0.17  -35.70   -0.19  -35.84  -18.48   29.42
   9.500  -18.34   56.97   -0.21  -36.45   -0.22  -36.50  -17.54   29.48
   9.565  -17.39   53.90   -0.26  -37.28   -0.28  -37.39  -16.65   28.56
   9.630  -16.27   51.18   -0.35  -38.33   -0.36  -38.49  -15.61   26.56
   9.695  -15.14   46.97   -0.47  -39.61   -0.49  -39.74  -14.43   23.88
   9.760  -13.78   39.85   -0.70  -41.23   -0.72  -41.24  -13.05   19.88
   9.825  -12.31   29.28   -1.15  -42.85   -1.16  -42.81  -11.53   12.49
   9.890  -11.01   12.59   -2.04  -42.95   -2.02  -42.64  -10.11   -0.75
   9.955  -10.46  -12.83   -2.99  -36.26   -2.96  -36.15   -9.58  -21.34
  10.020  -12.06  -39.92   -2.51  -26.17   -2.51  -26.86  -10.70  -44.04
  10.085  -15.36  -62.63   -1.42  -24.12   -1.42  -24.58  -13.26  -58.41
  10.150  -19.20  -77.59   -0.76  -25.69   -0.78  -25.92  -16.27  -64.45
  10.215  -23.52  -88.58   -0.45  -27.58   -0.47  -27.70  -19.14  -63.35
  10.280  -28.87  -99.97   -0.29  -29.17   -0.30  -29.37  -21.64  -56.09
  10.345  -36.27 -128.25   -0.19  -30.45   -0.22  -30.64  -23.41  -43.94
  10.410  -38.47  145.88   -0.13  -31.52   -0.16  -31.77  -24.24  -31.49
  10.475  -32.56  108.61   -0.11  -32.44   -0.11  -32.58  -24.25  -18.84
  10.540  -28.80   97.93   -0.09  -33.22   -0.10  -33.39  -24.08   -9.91
  10.605  -26.87   91.17   -0.08  -33.85   -0.11  -34.06  -23.53   -3.39
  10.670  -25.55   85.51   -0.09  -34.44   -0.11  -34.65  -22.99    2.23
  10.735  -24.52   83.32   -0.08  -34.95   -0.10  -35.12  -22.57    5.61
  10.800  -23.95   80.72   -0.07  -35.47   -0.08  -35.61  -22.04    9.22
  10.865  -23.39   79.62   -0.07  -35.89   -0.09  -35.98  -21.63   10.37
  10.930  -22.82   79.81   -0.06  -36.33   -0.08  -36.47  -21.32   12.07
  10.995  -22.42   78.95   -0.07  -36.75   -0.08  -36.89  -21.03   13.39
  11.060  -21.99   78.19   -0.06  -37.12   -0.07  -37.29  -20.66   15.02
  11.125  -21.49   78.22   -0.05  -37.50   -0.07  -37.59  -20.54   15.85
  11.190  -21.22   77.15   -0.05  -37.90   -0.07  -38.09  -20.21   16.75
  11.255  -20.89   76.70   -0.04  -38.27   -0.05  -38.42  -20.05   17.35
  11.320  -20.73   75.87   -0.04  -38.62   -0.06  -38.83  -19.80   18.08
  11.385  -20.46   75.01   -0.03  -38.96   -0.05  -39.08  -19.67   18.93
  11.450  -20.35   74.91   -0.03  -39.29   -0.04  -39.44  -19.45   19.12
  11.515  -20.13   74.93   -0.02  -39.61   -0.05  -39.78  -19.40   19.10
  11.580  -19.97   74.28   -0.01  -39.95   -0.03  -40.13  -19.25   19.68
  11.645  -19.78   74.24    0.00  -40.35   -0.01  -40.55  -19.17   20.23
  11.710  -19.70   73.42    0.01  -40.73    0.00  -40.95  -19.05   20.40
  11.775  -19.47   72.38    0.01  -41.19    0.00  -41.37  -19.02   20.96
  11.840  -19.44   72.32    0.01  -41.57   -0.01  -41.81  -18.92   20.49
  11.905  -19.31   70.93    0.01  -41.96   -0.01  -42.16  -18.89   21.12
  11.970  -19.33   70.28    0.01  -42.32    0.00  -42.55  -18.80   21.16
  12.035  -19.30   69.59    0.00  -42.69   -0.01  -42.81  -18.80   21.25
  12.100  -19.30   69.09    0.00  -43.03   -0.01  -43.20  -18.79   21.03
  12.165  -19.23   67.90   -0.01  -43.40   -0.02  -43.57  -18.84   21.27
  12.230  -19.31   68.03   -0.01  -43.73   -0.03  -43.97  -18.86   20.94
  12.295  -19.30   66.69   -0.01  -44.06   -0.02  -44.19  -18.88   21.74
  12.360  -19.34   66.66   -0.01  -44.35   -0.03  -44.55  -18.95   21.66
  12.425  -19.37   65.58   -0.01  -44.71   -0.03  -44.85  -18.98   22.01
  12.490  -19.30   65.51   -0.01  -45.02   -0.02  -45.17  -19.00   21.90
  12.555  -19.46   64.10   -0.01  -45.37   -0.03  -45.49  -19.11   22.35
  12.620  -19.53   63.51   -0.02  -45.68   -0.03  -45.88  -19.09   22.31
  12.685  -19.56   62.86   -0.01  -45.97   -0.03  -46.16  -19.21   22.96
  12.750  -19.60   62.40   -0.01  -46.33   -0.03  -46.54  -19.34   22.65
  12.815  -19.74   60.95   -0.02  -46.64   -0.03  -46.87  -19.37   23.16
  12.880  -19.75   60.96   -0.01  -47.00   -0.02  -47.17  -19.45   23.47
  12.945  -19.98   59.42   -0.01  -47.29   -0.01  -47.51  -19.55   23.91
  13.010  -19.98   58.57   -0.03  -47.69   -0.03  -47.91  -19.61   23.99
  13.075  -20.04   58.61   -0.02  -48.00   -0.04  -48.24  -19.76   24.51
  13.140  -20.19   56.97   -0.03  -48.40   -0.05  -48.60  -19.93   24.36
  13.205  -20.31   55.64   -0.03  -48.75   -0.05  -49.10  -19.84   25.06
  13.270  -20.32   55.05   -0.04  -49.12   -0.05  -49.28  -20.08   25.52
  13.335  -20.54   53.84   -0.03  -49.48   -0.05  -49.65  -20.15   25.73
  13.400  -20.56   52.50   -0.05  -49.80   -0.07  -49.93  -20.27   26.27
  13.465  -20.68   52.11   -0.05  -50.15   -0.06  -50.26  -20.36   27.04
  13.530  -20.80   50.11   -0.04  -50.48   -0.07  -50.66  -20.40   27.25
  13.595  -20.83   49.13   -0.08  -50.91   -0.07  -51.02  -20.39   27.65
  13.660  -20.87   47.97   -0.06  -51.27   -0.07  -51.38  -20.52   28.24
  13.725  -20.98   46.51   -0.06  -51.60   -0.09  -51.82  -20.52   28.13
  13.790  -21.10   44.90   -0.05  -51.94   -0.10  -52.11  -20.48   29.34
  13.855  -21.10   43.51   -0.08  -52.38   -0.08  -52.49  -20.49   29.40
  13.920  -21.05   42.11   -0.06  -52.74   -0.07  -53.00  -20.43   29.53
  13.985  -20.95   40.65   -0.07  -53.22   -0.08  -53.36  -20.46   29.77
  14.050  -20.85   39.01   -0.08  -53.63   -0.08  -53.75  -20.37   29.47
  14.115  -20.69   36.72   -0.08  -54.08   -0.09  -54.39  -20.24   30.20
  14.180  -20.57   34.92   -0.09  -54.52   -0.11  -54.72  -20.12   30.48
  14.245  -20.28   32.17   -0.10  -55.02   -0.13  -55.26  -20.05   30.34
  14.310  -20.05   30.77   -0.12  -55.52   -0.13  -55.76  -19.80   29.92
  14.375  -19.93   28.18   -0.14  -56.05   -0.15  -56.23  -19.57   30.15
  14.440  -19.55   26.02   -0.14  -56.52   -0.16  -56.61  -19.25   29.14
  14.505  -19.18   24.46   -0.15  -57.08   -0.17  -57.25  -18.95   28.92
  14.570  -18.64   22.20   -0.16  -57.77   -0.19  -57.93  -18.74   27.26
  14.635  -18.16   19.62   -0.18  -58.41   -0.20  -58.52  -18.36   26.34
  14.700  -17.62   16.96   -0.21  -59.20   -0.23  -59.30  -18.07   25.13
  14.765  -17.19   13.58   -0.24  -59.90   -0.25  -60.11  -17.66   24.11
  14.830  -16.66   10.47   -0.28  -60.72   -0.28  -60.85  -17.38   23.29
  14.895  -16.21    8.46   -0.31  -61.68   -0.34  -61.80  -16.92   22.44
  14.960  -15.72    6.62   -0.37  -62.60   -0.39  -62.80  -16.27   21.86
  15.025  -15.12    5.10   -0.43  -63.78   -0.47  -64.02  -15.44   20.22
  15.090  -14.28    2.53   -0.55  -65.15   -0.57  -65.34  -14.68   18.09
  15.155  -13.38    0.42   -0.70  -66.53   -0.72  -66.65  -13.78   14.73
  15.220  -12.48   -2.50   -0.90  -68.08   -0.91  -68.15  -12.90   10.93
  15.285  -11.50   -5.97   -1.15  -69.81   -1.21  -69.94  -11.94    5.46
  15.350  -10.43  -10.83   -1.54  -71.40   -1.56  -71.65  -10.89    0.59
  15.415   -9.31  -16.71   -2.07  -73.12   -2.09  -73.24   -9.89   -6.56
  15.480   -8.19  -24.23   -2.83  -74.22   -2.84  -74.17   -8.88  -15.57
  15.545   -7.19  -33.56   -3.88  -73.29   -3.86  -73.21   -7.94  -25.91
  15.610   -6.53  -44.96   -5.06  -68.51   -5.04  -68.28   -7.25  -37.95
  15.675   -6.18  -57.46   -5.80  -58.30   -5.74  -58.28   -6.86  -51.89
  15.740   -6.27  -70.54   -5.40  -46.79   -5.38  -47.42   -7.00  -65.57
  15.805   -6.79  -81.57   -4.31  -40.13   -4.28  -40.73   -7.52  -79.31
  15.870   -7.65  -90.99   -3.21  -38.35   -3.19  -38.81   -8.20  -90.82
  15.935   -8.60  -99.11   -2.38  -38.92   -2.39  -39.25   -9.17  -99.66
  16.000   -9.65 -104.65   -1.80  -40.30   -1.80  -40.61  -10.08 -107.87
  16.065  -10.58 -109.02   -1.41  -41.99   -1.44  -42.38  -11.16 -114.51
  16.130  -11.55 -112.03   -1.13  -43.54   -1.15  -43.94  -12.12 -120.41
  16.195  -12.48 -114.56   -0.93  -44.99   -0.96  -45.34  -12.99 -125.32
  16.260  -13.40 -116.38   -0.78  -46.27   -0.81  -46.44  -13.89 -129.12
  16.325  -14.19 -117.79   -0.66  -47.44   -0.70  -47.61  -14.78 -132.94
  16.390  -14.94 -118.21   -0.57  -48.40   -0.60  -48.67  -15.69 -136.26
  16.455  -15.75 -119.03   -0.51  -49.40   -0.53  -49.58  -16.53 -139.51
  16.520  -16.49 -119.21   -0.44  -50.26   -0.45  -50.49  -17.26 -142.05
  16.585  -17.32 -119.48   -0.40  -51.04   -0.40  -51.32  -18.07 -144.13
  16.650  -18.12 -119.51   -0.36  -51.80   -0.38  -52.00  -18.88 -147.06
  16.715  -18.78 -118.28   -0.32  -52.49   -0.34  -52.61  -19.70 -149.63
  16.780  -19.68 -117.56   -0.31  -53.17   -0.32  -53.39  -20.52 -152.61
  16.845  -20.45 -116.86   -0.29  -53.81   -0.32  -54.03  -21.33 -156.05
  16.910  -21.28 -115.09   -0.27  -54.34   -0.29  -54.57  -22.23 -158.15
  16.975  -22.22 -113.58   -0.26  -54.97   -0.27  -55.16  -23.35 -161.67
  17.040  -23.13 -110.96   -0.25  -55.50   -0.27  -55.65  -24.25 -166.16
  17.105  -24.01 -107.65   -0.24  -55.96   -0.25  -56.09  -25.45 -169.55
  17.170  -25.22 -103.48   -0.24  -56.45   -0.24  -56.63  -26.73 -175.70
  17.235  -26.23  -98.21   -0.23  -56.92   -0.23  -57.26  -27.78  179.02
  17.300  -27.14  -90.04   -0.22  -57.35   -0.24  -57.56  -29.64  172.38
  17.365  -28.11  -81.42   -0.22  -57.74   -0.24  -57.97  -31.10  158.61
