!  American Technical Ceramics  Date:   4/26/2005
!  One Norden Lane
!  Huntington Station,  NY.   11746-2102
!  Tel:  (631) 622-4700               Fax:  (631) 622-4748
!  Part Number  600S1R1         Mounting Orientation: Horizontal
!  Description: Ultra Low ESR Microwave capacitors
!  Application: Coupling, Bypass, Tuning, DC Block
!               Filters, Matching
# GHZ S DB R 50
! Freq   |S11|   S11 Ph  |S21|   S21 Ph  |S12|   S12 Ph  |S22|   S22 Ph
   0.000   0.00    0.00	  -999.00  90.00  -999.00  90.00    0.00    0.00
   0.400   -0.27  -15.86  -11.98   73.41  -12.22   75.53   -0.66  -14.18
   0.482   -0.38  -18.92  -10.40   69.65  -10.59   71.46   -0.75  -17.72
   0.563   -0.52  -21.48   -9.15   66.77   -9.32   68.17   -0.85  -21.47
   0.645   -0.71  -23.98   -8.12   64.19   -8.22   65.38   -0.86  -24.47
   0.726   -0.98  -27.04   -7.31   61.53   -7.35   62.32   -1.01  -27.38
   0.808   -1.07  -29.82   -6.52   58.85   -6.62   60.03   -1.23  -29.90
   0.889   -1.36  -32.47   -5.94   56.65   -5.92   57.60   -1.34  -32.22
   0.971   -1.45  -35.12   -5.37   53.78   -5.40   55.03   -1.66  -34.97
   1.052   -1.71  -37.32   -4.89   51.57   -4.88   52.33   -1.80  -37.67
   1.134   -1.93  -39.33   -4.47   49.40   -4.46   50.03   -2.02  -40.12
   1.215   -2.22  -42.16   -4.14   46.85   -4.08   47.49   -2.25  -42.24
   1.297   -2.39  -44.15   -3.71   44.76   -3.69   45.31   -2.46  -44.71
   1.378   -2.65  -46.20   -3.44   42.99   -3.38   43.57   -2.68  -46.31
   1.460   -2.88  -48.22   -3.16   40.90   -3.15   41.37   -2.97  -48.57
   1.541   -3.14  -50.19   -2.88   39.28   -2.86   39.38   -3.13  -50.50
   1.623   -3.38  -51.88   -2.69   37.72   -2.67   37.94   -3.39  -51.95
   1.704   -3.64  -53.52   -2.54   35.91   -2.47   35.95   -3.60  -52.97
   1.786   -3.82  -55.67   -2.32   34.15   -2.27   34.37   -3.89  -55.31
   1.867   -4.10  -57.14   -2.17   32.78   -2.13   32.84   -4.11  -56.70
   1.949   -4.37  -58.79   -2.02   31.08   -1.99   31.02   -4.35  -58.46
   2.030   -4.60  -60.59   -1.87   29.68   -1.81   29.66   -4.57  -59.56
   2.112   -4.86  -61.99   -1.74   28.34   -1.72   28.23   -4.80  -60.97
   2.193   -5.09  -63.72   -1.64   26.91   -1.59   26.82   -5.04  -62.18
   2.275   -5.31  -65.03   -1.52   25.71   -1.47   25.59   -5.26  -63.37
   2.356   -5.56  -66.27   -1.43   24.49   -1.40   24.38   -5.50  -64.59
   2.438   -5.81  -67.74   -1.36   23.26   -1.31   22.96   -5.74  -65.63
   2.519   -6.03  -69.01   -1.28   22.00   -1.24   21.72   -5.97  -66.78
   2.601   -6.26  -70.20   -1.20   20.73   -1.17   20.61   -6.20  -68.02
   2.682   -6.51  -71.52   -1.11   19.76   -1.09   19.39   -6.38  -68.82
   2.764   -6.75  -72.47   -1.06   18.65   -1.04   18.50   -6.64  -69.88
   2.845   -6.97  -73.71   -1.00   17.59   -0.98   17.28   -6.84  -70.86
   2.927   -7.21  -74.67   -0.95   16.50   -0.94   16.31   -7.08  -71.78
   3.008   -7.41  -75.82   -0.93   15.47   -0.89   15.15   -7.34  -72.64
   3.090   -7.55  -76.33   -0.88   14.58   -0.88   14.50   -7.52  -73.59
   3.171   -7.74  -77.32   -0.84   13.84   -0.82   13.54   -7.70  -74.10
   3.253   -7.95  -78.05   -0.82   12.97   -0.78   12.86   -7.92  -75.06
   3.334   -8.16  -78.87   -0.76   12.16   -0.76   12.01   -8.06  -75.84
   3.416   -8.32  -79.73   -0.72   11.44   -0.71   11.20   -8.23  -76.41
   3.497   -8.48  -80.55   -0.70   10.66   -0.67   10.46   -8.47  -77.40
   3.579   -8.71  -81.24   -0.66    9.71   -0.65    9.69   -8.61  -78.34
   3.660   -8.84  -82.00   -0.63    9.09   -0.61    8.85   -8.83  -78.83
   3.742   -9.05  -82.48   -0.62    8.29   -0.61    8.29   -9.01  -79.76
   3.823   -9.22  -83.40   -0.59    7.49   -0.58    7.43   -9.16  -80.46
   3.905   -9.38  -84.14   -0.55    6.86   -0.55    6.74   -9.33  -81.06
   3.986   -9.54  -84.74   -0.55    6.24   -0.53    6.17   -9.54  -81.85
   4.068   -9.74  -85.57   -0.53    5.44   -0.51    5.45   -9.68  -82.81
   4.149   -9.88  -86.29   -0.49    5.01   -0.49    4.91   -9.87  -83.03
   4.231  -10.07  -86.77   -0.50    4.32   -0.49    4.35  -10.12  -84.02
   4.312  -10.25  -87.72   -0.46    3.57   -0.45    3.54  -10.23  -84.42
   4.394  -10.41  -88.13   -0.42    3.03   -0.41    3.01  -10.38  -84.68
   4.475  -10.56  -88.47   -0.42    2.47   -0.41    2.43  -10.59  -85.26
   4.557  -10.74  -89.17   -0.40    1.73   -0.39    1.80  -10.69  -86.03
   4.638  -10.86  -89.92   -0.37    1.26   -0.37    1.26  -10.88  -86.24
   4.720  -11.07  -90.45   -0.39    0.55   -0.38    0.56  -11.07  -86.91
   4.801  -11.19  -91.24   -0.36   -0.13   -0.34   -0.08  -11.20  -87.49
   4.883  -11.37  -91.85   -0.33   -0.58   -0.33   -0.44  -11.32  -87.67
   4.964  -11.47  -92.39   -0.34   -1.07   -0.33   -1.14  -11.58  -88.21
   5.046  -11.71  -92.95   -0.33   -1.77   -0.31   -1.61  -11.65  -88.69
   5.127  -11.78  -93.68   -0.31   -2.16   -0.32   -2.15  -11.86  -88.82
   5.209  -12.00  -94.18   -0.32   -2.83   -0.31   -2.77  -12.03  -89.50
   5.290  -12.17  -94.80   -0.29   -3.39   -0.27   -3.25  -12.15  -89.93
   5.372  -12.30  -95.78   -0.27   -3.82   -0.28   -3.70  -12.32  -89.77
   5.453  -12.47  -95.81   -0.28   -4.30   -0.26   -4.29  -12.49  -90.83
   5.535  -12.69  -96.81   -0.27   -4.88   -0.26   -4.72  -12.61  -90.74
   5.616  -12.79  -97.54   -0.25   -5.36   -0.26   -5.28  -12.83  -91.03
   5.698  -13.00  -97.85   -0.26   -5.94   -0.25   -5.84  -12.95  -91.77
   5.779  -13.14  -98.85   -0.22   -6.40   -0.23   -6.24  -13.11  -91.62
   5.861  -13.33  -99.17   -0.23   -6.84   -0.23   -6.73  -13.30  -92.16
   5.942  -13.52  -99.61   -0.23   -7.33   -0.22   -7.23  -13.48  -92.51
   6.024  -13.77 -100.75   -0.22   -7.93   -0.24   -7.62  -13.60  -92.07
   6.105  -13.84 -100.69   -0.20   -8.35   -0.23   -8.23  -13.87  -92.75
   6.187  -14.11 -101.49   -0.20   -8.92   -0.21   -8.50  -13.96  -92.61
   6.268  -14.23 -101.55   -0.19   -9.23   -0.20   -8.95  -14.20  -92.75
   6.350  -14.47 -102.06   -0.20   -9.73   -0.18   -9.30  -14.32  -93.01
   6.431  -14.69 -102.87   -0.20  -10.20   -0.16   -9.69  -14.38  -92.87
   6.513  -14.80 -103.79   -0.18  -10.72   -0.14  -10.40  -14.61  -93.11
   6.594  -14.93 -104.16   -0.17  -11.14   -0.11  -10.92  -14.79  -93.65
   6.676  -15.13 -104.62   -0.17  -11.56   -0.12  -11.39  -14.96  -93.86
   6.757  -15.24 -104.56   -0.15  -11.93   -0.11  -11.93  -15.22  -94.47
   6.839  -15.58 -105.32   -0.17  -12.44   -0.10  -12.30  -15.20  -94.38
   6.920  -15.59 -106.02   -0.15  -12.95   -0.12  -12.91  -15.56  -94.51
   7.002  -15.80 -106.89   -0.13  -13.50   -0.10  -13.40  -15.71  -94.88
   7.083  -15.94 -107.13   -0.13  -13.84   -0.10  -13.89  -15.94  -95.33
   7.165  -16.18 -108.03   -0.12  -14.26   -0.09  -14.33  -16.15  -95.85
   7.246  -16.48 -108.61   -0.13  -14.68   -0.08  -14.71  -16.26  -96.29
   7.328  -16.65 -109.77   -0.13  -15.18   -0.10  -15.10  -16.55  -95.71
   7.409  -16.76 -110.70   -0.11  -15.68   -0.11  -15.61  -16.85  -95.85
   7.491  -17.00 -110.34   -0.10  -16.05   -0.08  -16.11  -17.10  -96.52
   7.572  -17.19 -110.89   -0.09  -16.45   -0.08  -16.60  -17.33  -96.74
   7.654  -17.61 -111.73   -0.11  -16.89   -0.07  -17.01  -17.41  -96.92
   7.735  -17.78 -112.64   -0.09  -17.33   -0.07  -17.40  -17.75  -96.84
   7.817  -18.11 -113.82   -0.10  -17.84   -0.07  -17.77  -17.93  -96.23
   7.898  -18.20 -113.60   -0.08  -18.24   -0.09  -18.35  -18.35  -97.34
   7.980  -18.56 -113.88   -0.08  -18.61   -0.07  -18.70  -18.52  -97.31
   8.061  -18.90 -113.88   -0.09  -18.96   -0.07  -19.12  -18.76  -97.83
   8.143  -19.15 -115.22   -0.08  -19.51   -0.06  -19.58  -19.00  -97.29
   8.224  -19.41 -115.59   -0.08  -19.89   -0.06  -19.97  -19.32  -97.31
   8.306  -19.70 -115.73   -0.07  -20.32   -0.06  -20.42  -19.61  -97.67
   8.387  -19.72 -115.51   -0.07  -20.79   -0.07  -20.96  -19.72  -99.58
   8.469  -20.08 -115.74   -0.08  -21.11   -0.07  -21.32  -19.98  -99.75
   8.550  -20.38 -116.65   -0.08  -21.61   -0.06  -21.76  -20.21  -99.51
   8.632  -20.69 -117.18   -0.08  -22.04   -0.05  -22.16  -20.47  -99.04
   8.713  -20.90 -116.66   -0.07  -22.44   -0.07  -22.58  -20.79  -99.33
   8.795  -21.18 -116.99   -0.08  -22.78   -0.07  -22.95  -20.86  -99.50
   8.876  -21.56 -116.88   -0.08  -23.13   -0.07  -23.34  -21.23 -100.31
   8.958  -21.81 -117.25   -0.07  -23.51   -0.06  -23.63  -21.68 -100.69
   9.039  -22.13 -118.07   -0.06  -23.89   -0.05  -24.00  -22.08 -100.49
   9.121  -22.46 -118.69   -0.06  -24.27   -0.06  -24.37  -22.55  -99.02
   9.202  -22.76 -118.80   -0.05  -24.67   -0.04  -24.85  -22.78  -98.00
   9.284  -23.00 -118.88   -0.03  -25.11   -0.03  -25.25  -22.93  -96.93
   9.365  -23.28 -119.96   -0.03  -25.53   -0.03  -25.61  -23.14  -96.99
   9.447  -23.77 -120.66   -0.04  -25.89   -0.05  -26.05  -23.32  -97.77
   9.528  -24.29 -120.69   -0.04  -26.22   -0.03  -26.45  -23.66  -98.00
   9.610  -24.66 -120.65   -0.03  -26.61   -0.02  -26.74  -23.98  -98.07
   9.691  -24.99 -121.05   -0.02  -27.03   -0.01  -27.21  -24.42  -98.43
   9.773  -25.29 -121.21   -0.01  -27.46    0.00  -27.60  -24.75  -98.47
   9.854  -25.69 -121.38   -0.01  -27.88   -0.01  -28.02  -25.24  -98.14
   9.936  -26.13 -121.35    0.00  -28.29   -0.01  -28.39  -25.57  -97.80
  10.017  -26.55 -121.86    0.00  -28.71   -0.01  -28.84  -25.93  -97.09
  10.099  -26.92 -122.27    0.00  -29.13   -0.01  -29.28  -26.43  -96.48
  10.180  -27.34 -122.30   -0.01  -29.57   -0.01  -29.68  -26.70  -96.04
  10.262  -27.87 -122.58   -0.01  -29.96   -0.01  -30.12  -27.16  -95.57
  10.343  -28.34 -122.46   -0.01  -30.39   -0.01  -30.52  -27.46  -95.67
  10.425  -28.79 -122.83   -0.01  -30.81   -0.01  -30.84  -27.85  -94.82
  10.506  -29.20 -123.65   -0.01  -31.15   -0.01  -31.32  -28.43  -94.52
  10.588  -29.65 -123.83    0.00  -31.60   -0.01  -31.69  -28.88  -94.13
  10.669  -30.31 -123.59    0.00  -31.93    0.00  -31.97  -29.50  -93.41
  10.751  -30.99 -124.77   -0.01  -32.33   -0.01  -32.39  -29.89  -92.10
  10.832  -31.84 -124.65    0.00  -32.68    0.00  -32.83  -30.44  -90.36
  10.914  -32.78 -123.58    0.00  -33.08    0.00  -33.19  -30.79  -88.66
  10.995  -33.47 -120.92    0.00  -33.43    0.00  -33.57  -31.34  -87.57
  11.077  -34.07 -118.41   -0.01  -33.85   -0.01  -33.95  -31.69  -87.29
  11.158  -34.46 -117.76   -0.01  -34.24   -0.01  -34.36  -31.97  -86.28
  11.240  -35.06 -115.90   -0.01  -34.61   -0.01  -34.71  -32.83  -85.57
  11.321  -35.67 -115.01   -0.01  -34.99   -0.01  -35.13  -33.36  -84.26
  11.403  -36.47 -111.99   -0.01  -35.38   -0.01  -35.51  -34.13  -82.49
  11.484  -37.30 -111.30   -0.01  -35.83   -0.01  -35.94  -34.66  -80.23
  11.566  -38.15 -110.80   -0.01  -36.23   -0.01  -36.30  -35.25  -78.36
  11.647  -39.12 -111.24   -0.01  -36.61   -0.01  -36.68  -36.09  -77.75
  11.729  -40.62 -111.54   -0.01  -37.04   -0.01  -37.13  -37.31  -73.50
  11.810  -42.47 -106.11   -0.01  -37.43   -0.01  -37.47  -38.54  -71.30
  11.892  -44.73  -97.31   -0.01  -37.87   -0.01  -37.97  -39.43  -62.27
  11.973  -46.64  -83.40   -0.01  -38.34   -0.01  -38.44  -40.74  -53.32
  12.055  -48.53  -61.73   -0.01  -38.72   -0.01  -38.85  -41.49  -41.03
  12.136  -49.11  -34.67   -0.01  -39.16   -0.01  -39.23  -41.53  -27.29
  12.218  -47.22  -10.43   -0.01  -39.56   -0.01  -39.70  -41.47  -15.41
  12.299  -45.56    5.93   -0.01  -39.98   -0.01  -40.09  -40.66   -4.72
  12.381  -43.80   15.93   -0.01  -40.44    0.00  -40.50  -39.91    3.49
  12.462  -41.49   20.64   -0.01  -40.83   -0.01  -40.95  -39.09   11.62
  12.544  -40.07   25.62   -0.01  -41.23   -0.01  -41.34  -38.32   17.71
  12.625  -38.71   27.85   -0.01  -41.62   -0.01  -41.69  -37.39   22.88
  12.707  -37.23   31.56   -0.01  -42.08   -0.01  -42.17  -36.68   29.66
  12.788  -36.00   33.68   -0.01  -42.51   -0.01  -42.66  -35.58   33.28
  12.870  -34.61   33.29    0.00  -42.96   -0.02  -43.01  -34.64   37.67
  12.951  -33.51   34.98   -0.01  -43.31   -0.01  -43.41  -33.46   39.27
  13.033  -32.54   34.95   -0.01  -43.79    0.00  -43.84  -32.34   40.92
  13.114  -31.64   34.22   -0.01  -44.23   -0.02  -44.28  -31.49   42.04
  13.196  -30.91   34.49   -0.01  -44.63   -0.01  -44.65  -30.56   42.17
  13.277  -30.04   33.54   -0.01  -45.09   -0.01  -45.13  -29.78   43.21
  13.359  -29.21   33.42    0.00  -45.61   -0.03  -45.68  -29.15   42.17
  13.440  -28.56   33.19   -0.01  -46.06   -0.02  -45.99  -28.44   42.49
  13.522  -27.78   32.68    0.00  -46.52   -0.01  -46.56  -27.83   42.21
  13.603  -27.06   32.23   -0.01  -47.14   -0.03  -47.34  -27.10   42.67
  13.685  -26.28   31.32   -0.03  -47.53   -0.03  -47.50  -26.65   42.92
  13.766  -25.79   30.32   -0.02  -47.87   -0.04  -47.88  -26.05   43.18
  13.848  -25.15   30.51   -0.04  -48.50   -0.04  -48.53  -25.39   43.53
  13.929  -24.50   30.57   -0.05  -48.99   -0.06  -48.92  -24.64   43.40
  14.011  -23.77   30.29   -0.04  -49.47   -0.06  -49.40  -23.94   43.58
  14.092  -23.00   27.94   -0.06  -50.03   -0.05  -49.94  -23.31   43.78
  14.174  -22.33   26.68   -0.07  -50.68   -0.08  -50.70  -22.57   42.29
  14.255  -21.89   24.56   -0.08  -51.29   -0.08  -51.34  -21.90   41.67
  14.337  -21.44   23.31   -0.09  -51.88   -0.10  -51.86  -21.26   40.62
  14.418  -21.07   23.86   -0.12  -52.60   -0.12  -52.44  -20.62   39.67
  14.500  -20.54   24.18   -0.15  -53.23   -0.14  -53.17  -19.90   38.53
  14.581  -19.66   24.02   -0.16  -53.90   -0.15  -53.79  -19.36   37.55
  14.663  -18.95   23.39   -0.18  -54.72   -0.19  -54.60  -18.68   35.72
  14.744  -18.30   21.72   -0.23  -55.49   -0.22  -55.48  -17.99   34.98
  14.826  -17.49   20.66   -0.26  -56.30   -0.26  -56.33  -17.34   33.66
  14.907  -16.68   19.57   -0.32  -57.29   -0.32  -57.17  -16.57   31.71
  14.989  -15.91   17.68   -0.37  -58.23   -0.38  -58.26  -15.72   29.96
  15.070  -14.98   15.57   -0.45  -59.38   -0.44  -59.29  -14.90   27.70
  15.152  -14.10   12.72   -0.55  -60.76   -0.54  -60.67  -13.96   25.12
  15.233  -13.10    9.06   -0.71  -62.35   -0.70  -62.31  -12.97   21.74
  15.315  -11.99    4.95   -0.94  -64.21   -0.92  -64.00  -11.99   16.95
  15.396  -10.87   -0.67   -1.28  -66.23   -1.27  -65.95  -10.80   11.53
  15.478   -9.69   -8.20   -1.81  -68.35   -1.82  -68.05   -9.61    4.06
  15.559   -8.46  -18.64   -2.69  -69.62   -2.66  -69.32   -8.46   -5.70
  15.641   -7.53  -31.97   -4.00  -67.77   -3.96  -67.11   -7.48  -19.03
  15.722   -7.02  -49.01   -5.27  -58.31   -5.10  -58.20   -7.11  -35.44
  15.804   -7.46  -67.13   -5.00  -44.53   -4.86  -44.90   -7.45  -53.18
  15.885   -8.66  -83.52   -3.62  -37.64   -3.54  -38.18   -8.55  -69.03
  15.967  -10.30  -97.15   -2.42  -37.17   -2.43  -37.54  -10.14  -80.62
  16.048  -12.09 -106.18   -1.66  -38.86   -1.64  -39.21  -11.90  -90.09
  16.130  -13.99 -113.54   -1.21  -40.91   -1.19  -41.15  -13.71  -96.35
  16.211  -15.85 -119.58   -0.91  -42.91   -0.91  -43.08  -15.51 -100.56
  16.293  -17.75 -123.97   -0.72  -44.62   -0.72  -44.71  -17.30 -103.45
  16.374  -19.73 -127.70   -0.59  -46.07   -0.58  -46.21  -19.02 -105.43
  16.456  -21.73 -131.30   -0.51  -47.34   -0.49  -47.47  -20.84 -105.64
  16.537  -23.84 -134.16   -0.44  -48.50   -0.43  -48.63  -22.68 -105.55
  16.619  -26.21 -137.77   -0.39  -49.51   -0.38  -49.66  -24.69 -103.36
  16.700  -29.12 -141.02   -0.37  -50.42   -0.35  -50.71  -27.04 -101.29
  16.782  -32.76 -145.94   -0.35  -51.24   -0.33  -51.31  -29.54  -93.68
  16.863  -38.17 -155.80   -0.32  -51.93   -0.31  -52.17  -32.74  -80.17
  16.945  -45.69  146.51   -0.30  -52.63   -0.30  -52.65  -34.78  -54.42
  17.026  -40.71   72.86   -0.29  -53.15   -0.27  -53.37  -34.48  -20.37
  17.108  -35.14   59.08   -0.28  -53.83   -0.24  -54.10  -32.66   -3.99
  17.189  -31.90   52.34   -0.26  -54.47   -0.22  -54.65  -30.26    6.20
  17.271  -29.48   47.20   -0.25  -55.05   -0.24  -55.41  -28.72   14.52
  17.352  -27.71   44.94   -0.25  -55.65   -0.24  -55.92  -27.21   15.53
  17.434  -26.21   39.74   -0.23  -56.12   -0.23  -56.47  -25.78   19.89
  17.515  -25.07   36.96   -0.24  -56.73   -0.24  -57.06  -25.05   18.58
  17.597  -24.37   34.36   -0.24  -57.24   -0.23  -57.53  -24.05   18.67
  17.678  -23.97   32.43   -0.24  -57.65   -0.25  -58.00  -23.60   18.81
  17.760  -23.45   33.10   -0.24  -58.04   -0.23  -58.55  -23.00   18.17
  17.841  -22.96   33.57   -0.22  -58.44   -0.25  -58.96  -22.72   20.77
  17.923  -22.29   33.73   -0.23  -58.86   -0.27  -59.32  -22.58   20.52
  18.004  -21.68   33.62   -0.21  -59.37   -0.25  -59.83  -21.85   22.46
  18.086  -21.26   33.63   -0.20  -59.83   -0.27  -60.12  -21.45   23.21
  18.167  -20.69   31.73   -0.20  -60.25   -0.25  -60.57  -20.85   23.94
  18.249  -20.26   31.03   -0.20  -60.78   -0.25  -61.13  -20.48   24.03
  18.330  -19.85   29.85   -0.20  -61.21   -0.26  -61.54  -20.04   23.26
  18.412  -19.45   29.59   -0.22  -61.64   -0.26  -62.03  -19.82   23.69
  18.493  -19.24   29.44   -0.21  -62.07   -0.27  -62.27  -19.46   22.10
  18.575  -18.97   28.19   -0.20  -62.46   -0.29  -62.71  -19.12   23.25
  18.656  -18.73   27.60   -0.20  -62.90   -0.29  -63.08  -18.99   22.35
  18.738  -18.45   27.00   -0.20  -63.32   -0.27  -63.29  -18.63   22.49
  18.819  -18.26   26.21   -0.19  -63.76   -0.28  -63.80  -18.57   22.55
  18.901  -17.99   26.02   -0.19  -64.12   -0.25  -64.06  -18.25   21.75
  18.982  -17.84   25.39   -0.18  -64.57   -0.26  -64.54  -18.08   22.57
  19.064  -17.53   24.92   -0.18  -64.91   -0.26  -64.95  -17.96   21.63
  19.145  -17.36   24.86   -0.19  -65.37   -0.25  -65.30  -17.72   21.96
  19.227  -17.23   24.17   -0.18  -65.86   -0.25  -65.71  -17.57   21.16
  19.308  -17.07   23.45   -0.17  -66.29   -0.24  -66.15  -17.31   21.67
  19.390  -16.91   22.99   -0.18  -66.73   -0.23  -66.55  -17.22   21.28
  19.471  -16.70   21.97   -0.18  -67.16   -0.25  -66.99  -17.05   21.21
  19.553  -16.57   21.94   -0.21  -67.47   -0.24  -67.43  -16.93   20.29
  19.634  -16.45   20.97   -0.22  -67.87   -0.26  -67.80  -16.77   19.82
  19.716  -16.39   20.05   -0.22  -68.32   -0.24  -68.05  -16.55   20.04
  19.797  -16.20   19.32   -0.20  -68.59   -0.26  -68.47  -16.56   19.14
  19.879  -16.16   18.48   -0.20  -69.08   -0.25  -68.78  -16.36   19.00
  19.960  -16.05   18.21   -0.20  -69.30   -0.24  -69.20  -16.40   18.27
  20.042  -16.05   17.39   -0.19  -69.84   -0.22  -69.83  -16.22   17.35
  20.123  -16.11   16.47   -0.21  -70.35   -0.21  -70.00  -16.11   17.96
  20.205  -16.01   15.79   -0.19  -70.81   -0.20  -70.54  -16.09   17.46
  20.286  -16.01   15.43   -0.19  -71.20   -0.20  -70.95  -16.00   17.47
  20.368  -15.96   14.95   -0.18  -71.59   -0.20  -71.39  -15.99   16.81
  20.449  -15.97   15.35   -0.22  -72.04   -0.24  -71.99  -15.97   16.55
  20.531  -15.99   14.97   -0.21  -72.59   -0.18  -72.54  -15.82   15.82
  20.612  -15.93   13.77   -0.21  -73.14   -0.23  -72.89  -15.84   16.50
  20.694  -15.87   13.74   -0.20  -73.53   -0.21  -73.38  -15.85   16.11
  20.775  -15.87   13.03   -0.21  -73.93   -0.22  -73.79  -15.77   16.04
  20.857  -15.87   12.93   -0.24  -74.24   -0.26  -74.04  -15.85   16.26
  20.938  -15.86   12.55   -0.26  -74.85   -0.26  -74.93  -15.74   15.41
  21.020  -15.92   11.91   -0.27  -75.26   -0.24  -75.10  -15.64   16.30
  21.101  -15.77   11.10   -0.26  -75.80   -0.30  -75.57  -15.76   16.04
  21.183  -15.87   11.59   -0.29  -76.14   -0.28  -76.10  -15.67   15.58
  21.264  -15.86   10.86   -0.29  -76.43   -0.30  -76.18  -15.79   16.39
  21.346  -15.88   11.15   -0.33  -76.94   -0.34  -76.86  -15.77   16.73
  21.427  -15.84   11.59   -0.34  -77.36   -0.33  -77.31  -15.65   16.92
  21.509  -15.71   10.57   -0.36  -77.87   -0.34  -77.55  -15.58   18.53
  21.590  -15.62   11.64   -0.35  -78.10   -0.37  -78.03  -15.46   17.96
  21.672  -15.45   10.86   -0.37  -78.45   -0.36  -78.41  -15.27   18.20
