!  American Technical Ceramics  Date:   10/27/06
!  One Norden Lane
!  Huntington Station,  NY.   11746-2102
!  Tel:  (631) 622-4700               Fax:  (631) 622-4748
!  Part Number  600S8R2.        Mounting Orientation: Horizontal
!  Description: Ultra Low ESR Microwave capacitors
!  Application: Coupling, Bypass, Tuning, DC Block
!               Filters, Matching
# GHZ S DB R 50
! Freq   |S11|   S11 Ph  |S21|   S21 Ph  |S12|   S12 Ph  |S22|   S22 Ph
   0.000   0.00    0.00	  -999.00  90.00  -999.00  90.00    0.00    0.00
   0.400   -7.08  -65.29   -0.97   24.82   -0.96   24.79   -7.06  -64.46
   0.445   -7.84  -67.87   -0.80   22.32   -0.79   22.29   -7.82  -66.93
   0.490   -8.55  -70.09   -0.67   20.17   -0.66   20.14   -8.53  -68.98
   0.535   -9.22  -71.99   -0.57   18.31   -0.56   18.28   -9.20  -70.77
   0.580   -9.84  -73.68   -0.49   16.69   -0.48   16.65   -9.82  -72.40
   0.625  -10.43  -75.20   -0.43   15.25   -0.41   15.22  -10.41  -73.76
   0.670  -10.98  -76.56   -0.37   13.97   -0.36   13.94  -10.96  -75.03
   0.715  -11.51  -77.81   -0.33   12.82   -0.32   12.78  -11.48  -76.06
   0.760  -12.01  -78.89   -0.29   11.77   -0.28   11.74  -11.99  -77.10
   0.805  -12.48  -79.94   -0.26   10.81   -0.25   10.79  -12.46  -78.02
   0.850  -12.93  -80.91   -0.24    9.95   -0.22    9.91  -12.92  -78.86
   0.895  -13.37  -81.79   -0.21    9.13   -0.20    9.10  -13.34  -79.66
   0.940  -13.78  -82.65   -0.19    8.39   -0.18    8.36  -13.76  -80.30
   0.985  -14.18  -83.35   -0.18    7.68   -0.16    7.65  -14.16  -81.06
   1.030  -14.56  -84.14   -0.16    7.04   -0.15    7.00  -14.54  -81.64
   1.075  -14.93  -84.78   -0.15    6.41   -0.14    6.38  -14.92  -82.28
   1.120  -15.29  -85.47   -0.14    5.85   -0.13    5.81  -15.27  -82.80
   1.165  -15.63  -86.07   -0.13    5.29   -0.11    5.25  -15.63  -83.27
   1.210  -15.98  -86.61   -0.12    4.76   -0.11    4.73  -15.97  -83.84
   1.255  -16.31  -87.17   -0.11    4.26   -0.10    4.22  -16.30  -84.23
   1.300  -16.62  -87.69   -0.10    3.79   -0.09    3.75  -16.63  -84.78
   1.345  -16.94  -88.20   -0.09    3.33   -0.08    3.29  -16.94  -85.08
   1.390  -17.25  -88.67   -0.09    2.89   -0.08    2.85  -17.27  -85.49
   1.435  -17.55  -89.10   -0.08    2.46   -0.07    2.42  -17.55  -85.76
   1.480  -17.85  -89.71   -0.08    2.04   -0.07    2.00  -17.86  -86.01
   1.525  -18.15  -89.95   -0.07    1.66   -0.06    1.61  -18.11  -86.57
   1.570  -18.46  -90.47   -0.07    1.28   -0.06    1.23  -18.43  -86.70
   1.615  -18.73  -90.67   -0.07    0.91   -0.06    0.86  -18.71  -87.07
   1.660  -19.00  -91.18   -0.06    0.55   -0.05    0.49  -18.98  -87.19
   1.705  -19.25  -91.59   -0.06    0.19   -0.05    0.14  -19.28  -87.44
   1.750  -19.52  -92.26   -0.06   -0.16   -0.05   -0.20  -19.52  -87.57
   1.795  -19.81  -92.83   -0.05   -0.48   -0.05   -0.53  -19.81  -87.62
   1.840  -20.09  -93.19   -0.05   -0.80   -0.04   -0.85  -20.07  -87.87
   1.885  -20.36  -93.74   -0.05   -1.13   -0.04   -1.18  -20.34  -87.70
   1.930  -20.62  -94.24   -0.05   -1.44   -0.04   -1.48  -20.60  -87.94
   1.975  -20.89  -94.74   -0.04   -1.75   -0.03   -1.80  -20.81  -87.75
   2.020  -21.14  -95.19   -0.04   -2.05   -0.03   -2.10  -21.09  -87.81
   2.065  -21.38  -95.60   -0.04   -2.35   -0.03   -2.40  -21.28  -87.93
   2.110  -21.63  -96.31   -0.04   -2.64   -0.03   -2.69  -21.56  -87.81
   2.155  -21.84  -96.83   -0.04   -2.93   -0.03   -2.98  -21.76  -87.98
   2.200  -22.11  -97.58   -0.04   -3.22   -0.03   -3.26  -21.99  -87.61
   2.245  -22.33  -97.93   -0.04   -3.49   -0.03   -3.53  -22.23  -87.79
   2.290  -22.58  -98.59   -0.04   -3.76   -0.03   -3.81  -22.40  -87.73
   2.335  -22.81  -99.30   -0.03   -4.04   -0.03   -4.08  -22.67  -87.82
   2.380  -23.04  -99.78   -0.03   -4.31   -0.02   -4.36  -22.82  -87.89
   2.425  -23.28 -100.32   -0.03   -4.58   -0.02   -4.63  -23.06  -87.58
   2.470  -23.50 -100.70   -0.03   -4.85   -0.02   -4.89  -23.26  -88.08
   2.515  -23.73 -101.18   -0.03   -5.11   -0.02   -5.16  -23.44  -87.93
   2.560  -23.92 -101.60   -0.03   -5.36   -0.03   -5.42  -23.69  -88.38
   2.605  -24.11 -101.68   -0.04   -5.61   -0.03   -5.65  -23.83  -88.42
   2.650  -24.26 -102.24   -0.04   -5.83   -0.03   -5.89  -24.15  -88.59
   2.695  -24.44 -102.86   -0.03   -6.08   -0.02   -6.13  -24.33  -88.97
   2.740  -24.66 -103.66   -0.03   -6.32   -0.02   -6.37  -24.59  -88.60
   2.785  -24.84 -103.88   -0.03   -6.57   -0.02   -6.62  -24.80  -89.09
   2.830  -25.06 -104.23   -0.03   -6.81   -0.02   -6.86  -25.02  -88.47
   2.875  -25.22 -104.79   -0.03   -7.05   -0.02   -7.10  -25.29  -88.82
   2.920  -25.42 -105.17   -0.03   -7.30   -0.02   -7.35  -25.45  -88.72
   2.965  -25.57 -105.93   -0.03   -7.53   -0.02   -7.59  -25.73  -88.51
   3.010  -26.01 -104.08   -0.03   -7.75   -0.02   -7.81  -26.01  -90.30
   3.055  -26.24 -104.31   -0.02   -8.00   -0.01   -8.07  -26.34  -89.66
   3.100  -26.46 -104.84   -0.02   -8.25   -0.02   -8.32  -26.68  -90.14
   3.145  -26.73 -104.95   -0.03   -8.49   -0.02   -8.56  -26.88  -89.10
   3.190  -26.99 -105.54   -0.03   -8.72   -0.02   -8.78  -27.19  -89.04
   3.235  -27.33 -105.18   -0.03   -8.94   -0.02   -9.00  -27.34  -88.48
   3.280  -27.56 -105.80   -0.03   -9.15   -0.02   -9.21  -27.67  -88.15
   3.325  -27.89 -106.32   -0.03   -9.37   -0.02   -9.44  -27.91  -88.96
   3.370  -28.29 -106.51   -0.03   -9.60   -0.02   -9.66  -28.16  -88.04
   3.415  -28.62 -106.75   -0.03   -9.82   -0.02   -9.89  -28.43  -88.98
   3.460  -29.06 -106.66   -0.03  -10.05   -0.02  -10.12  -28.77  -88.67
   3.505  -29.33 -107.09   -0.03  -10.29   -0.02  -10.36  -29.26  -88.84
   3.550  -29.75 -107.61   -0.03  -10.51   -0.02  -10.58  -29.47  -88.95
   3.595  -30.23 -108.22   -0.03  -10.73   -0.02  -10.80  -29.91  -88.71
   3.640  -30.65 -108.73   -0.03  -10.95   -0.02  -11.01  -30.36  -89.21
   3.685  -31.21 -109.12   -0.03  -11.17   -0.02  -11.25  -30.79  -87.30
   3.730  -31.68 -110.18   -0.03  -11.40   -0.02  -11.47  -31.23  -88.25
   3.775  -32.30 -110.28   -0.03  -11.62   -0.02  -11.69  -31.50  -87.86
   3.820  -32.78 -111.37   -0.03  -11.82   -0.02  -11.89  -32.13  -88.35
   3.865  -33.38 -111.74   -0.03  -12.04   -0.02  -12.11  -32.66  -88.26
   3.910  -34.09 -112.72   -0.03  -12.27   -0.02  -12.34  -33.46  -86.57
   3.955  -34.64 -114.03   -0.03  -12.49   -0.02  -12.57  -34.01  -87.22
   4.000  -35.50 -114.77   -0.03  -12.72   -0.02  -12.80  -34.75  -84.39
   4.045  -36.00 -115.67   -0.03  -12.96   -0.02  -13.03  -35.59  -82.48
   4.090  -36.92 -117.01   -0.03  -13.19   -0.02  -13.27  -36.05  -79.09
   4.135  -37.74 -119.10   -0.03  -13.42   -0.02  -13.50  -36.96  -75.56
   4.180  -38.52 -120.32   -0.03  -13.66   -0.02  -13.74  -37.45  -73.61
   4.225  -39.57 -122.93   -0.03  -13.89   -0.02  -13.98  -38.04  -67.61
   4.270  -40.76 -126.23   -0.03  -14.14   -0.02  -14.22  -38.77  -65.18
   4.315  -42.47 -129.73   -0.03  -14.37   -0.02  -14.47  -39.29  -58.94
   4.360  -44.16 -136.06   -0.03  -14.62   -0.02  -14.71  -40.39  -53.39
   4.405  -46.34 -137.39   -0.03  -14.88   -0.02  -14.96  -40.72  -49.03
   4.450  -49.28 -149.92   -0.03  -15.13   -0.02  -15.21  -41.82  -37.27
   4.495  -54.03 -167.41   -0.03  -15.38   -0.02  -15.49  -42.43  -29.78
   4.540  -55.75  125.05   -0.03  -15.65   -0.02  -15.75  -42.66  -14.37
   4.585  -52.09   89.64   -0.03  -15.94   -0.03  -16.04  -43.38   -0.65
   4.630  -47.47   70.07   -0.04  -16.24   -0.03  -16.33  -42.44   13.03
   4.675  -44.36   67.32   -0.04  -16.53   -0.04  -16.62  -41.37   31.30
   4.720  -41.37   65.62   -0.05  -16.80   -0.04  -16.89  -39.66   41.47
   4.765  -38.66   63.38   -0.05  -17.08   -0.04  -17.17  -37.45   49.98
   4.810  -36.65   59.12   -0.05  -17.42   -0.05  -17.51  -35.90   54.56
   4.855  -34.69   56.53   -0.05  -17.78   -0.05  -17.87  -34.07   56.93
   4.900  -32.95   54.81   -0.06  -18.16   -0.06  -18.25  -32.45   59.87
   4.945  -31.33   52.94   -0.07  -18.58   -0.07  -18.67  -30.93   60.71
   4.990  -29.68   51.83   -0.08  -19.04   -0.08  -19.14  -29.29   62.15
   5.035  -28.14   49.81   -0.10  -19.55   -0.10  -19.64  -27.86   61.56
   5.080  -26.45   48.54   -0.12  -20.15   -0.12  -20.23  -26.20   60.97
   5.125  -24.79   46.45   -0.16  -20.82   -0.16  -20.93  -24.60   59.86
   5.170  -23.00   43.96   -0.21  -21.66   -0.21  -21.75  -22.84   57.43
   5.215  -21.08   40.56   -0.30  -22.67   -0.30  -22.77  -20.98   54.29
   5.260  -18.96   35.54   -0.46  -23.95   -0.45  -24.05  -18.92   48.90
   5.305  -16.58   27.71   -0.75  -25.50   -0.75  -25.60  -16.57   40.77
   5.350  -14.03   14.30   -1.36  -26.66   -1.36  -26.75  -14.09   26.90
   5.395  -11.87   -7.96   -2.38  -23.85   -2.37  -23.95  -11.97    4.11
   5.440  -11.48  -37.13   -2.56  -14.03   -2.55  -14.14  -11.63  -25.68
   5.485  -13.07  -61.02   -1.56   -9.59   -1.56   -9.69  -13.26  -50.15
   5.530  -15.26  -75.59   -0.87  -10.28   -0.87  -10.39  -15.48  -65.37
   5.575  -17.27  -83.97   -0.53  -11.76   -0.53  -11.87  -17.53  -74.33
   5.620  -19.07  -89.25   -0.35  -13.04   -0.35  -13.15  -19.35  -80.11
   5.665  -20.58  -92.41   -0.25  -14.09   -0.25  -14.19  -20.87  -83.85
   5.710  -21.97  -94.73   -0.19  -14.92   -0.19  -15.03  -22.29  -86.36
   5.755  -23.20  -96.29   -0.15  -15.60   -0.15  -15.72  -23.51  -88.55
   5.800  -24.34  -97.37   -0.12  -16.19   -0.12  -16.30  -24.64  -89.52
   5.845  -25.39  -98.32   -0.10  -16.68   -0.10  -16.80  -25.70  -90.67
   5.890  -26.37  -98.88   -0.09  -17.14   -0.08  -17.25  -26.60  -90.87
   5.935  -27.38  -99.50   -0.07  -17.55   -0.07  -17.66  -27.66  -91.25
   5.980  -28.31 -100.10   -0.06  -17.93   -0.06  -18.04  -28.44  -91.19
   6.025  -29.21 -100.23   -0.05  -18.29   -0.05  -18.40  -29.30  -90.52
   6.070  -30.10 -100.57   -0.05  -18.63   -0.04  -18.74  -30.05  -90.72
   6.115  -30.90 -100.25   -0.04  -18.95   -0.04  -19.07  -30.75  -89.12
   6.160  -31.86 -100.63   -0.04  -19.26   -0.04  -19.38  -31.57  -89.11
   6.205  -32.50 -100.51   -0.04  -19.55   -0.04  -19.67  -32.04  -88.06
   6.250  -33.30 -100.44   -0.04  -19.82   -0.04  -19.94  -32.83  -87.56
   6.295  -33.96 -100.59   -0.03  -20.07   -0.04  -20.20  -33.30  -87.32
   6.340  -34.76  -99.80   -0.03  -20.33   -0.04  -20.45  -34.02  -84.99
   6.385  -35.30 -100.55   -0.03  -20.58   -0.03  -20.71  -34.56  -86.00
   6.430  -35.92  -99.96   -0.03  -20.83   -0.03  -20.94  -35.05  -84.64
   6.475  -36.50  -99.50   -0.03  -21.07   -0.03  -21.19  -35.73  -85.82
   6.520  -37.17  -99.60   -0.03  -21.31   -0.03  -21.43  -36.26  -85.55
   6.565  -37.89  -98.02   -0.03  -21.55   -0.03  -21.67  -37.19  -85.21
   6.610  -38.37  -98.49   -0.03  -21.78   -0.03  -21.89  -37.82  -87.26
   6.655  -38.97  -95.48   -0.03  -22.00   -0.03  -22.12  -38.77  -86.26
   6.700  -39.56  -93.98   -0.03  -22.22   -0.03  -22.34  -39.59  -89.03
   6.745  -40.25  -91.02   -0.03  -22.44   -0.03  -22.56  -40.53  -87.35
   6.790  -40.80  -86.02   -0.03  -22.65   -0.03  -22.79  -42.10  -89.82
   6.835  -41.24  -83.24   -0.03  -22.88   -0.03  -23.00  -43.08  -93.05
   6.880  -41.59  -75.36   -0.03  -23.08   -0.03  -23.22  -45.03  -93.90
   6.925  -42.24  -71.57   -0.03  -23.30   -0.04  -23.43  -46.52  -99.42
   6.970  -42.23  -62.56   -0.03  -23.49   -0.03  -23.63  -50.19  -97.11
   7.015  -42.51  -56.95   -0.03  -23.70   -0.04  -23.82  -53.82 -122.60
   7.060  -42.40  -49.12   -0.03  -23.90   -0.04  -24.03  -60.10 -150.04
   7.105  -42.34  -38.63   -0.03  -24.10   -0.04  -24.24  -57.77  125.61
   7.150  -42.04  -31.18   -0.03  -24.31   -0.04  -24.43  -53.60  105.65
   7.195  -41.34  -22.34   -0.03  -24.52   -0.04  -24.64  -48.00   92.41
   7.240  -40.96  -15.67   -0.03  -24.72   -0.04  -24.85  -46.02   94.58
   7.285  -40.16   -9.72   -0.03  -24.92   -0.04  -25.05  -44.02   85.79
   7.330  -39.49   -2.45   -0.03  -25.13   -0.04  -25.27  -42.28   83.58
   7.375  -38.80    2.27   -0.04  -25.32   -0.04  -25.45  -40.90   79.18
   7.420  -38.02    7.91   -0.04  -25.52   -0.04  -25.64  -39.54   79.60
   7.465  -37.38   13.00   -0.04  -25.71   -0.04  -25.84  -39.04   77.08
   7.510  -36.44   16.23   -0.04  -25.89   -0.05  -26.03  -37.89   73.62
   7.555  -35.59   20.35   -0.04  -26.06   -0.05  -26.20  -37.07   73.43
   7.600  -34.98   20.95   -0.04  -26.26   -0.05  -26.38  -36.20   70.69
   7.645  -34.44   23.62   -0.04  -26.46   -0.04  -26.58  -35.59   70.35
   7.690  -34.13   25.37   -0.04  -26.66   -0.05  -26.80  -35.24   66.87
   7.735  -33.51   28.43   -0.04  -26.85   -0.05  -26.98  -34.51   65.88
   7.780  -33.02   31.19   -0.04  -27.01   -0.05  -27.15  -34.26   65.10
   7.825  -32.44   32.23   -0.04  -27.18   -0.05  -27.31  -33.62   64.26
   7.870  -32.03   33.66   -0.04  -27.35   -0.05  -27.50  -33.35   63.51
   7.915  -31.66   34.24   -0.04  -27.53   -0.05  -27.67  -32.83   60.34
   7.960  -31.27   35.01   -0.03  -27.72   -0.04  -27.86  -32.40   60.14
   8.005  -31.09   35.46   -0.03  -27.92   -0.04  -28.05  -32.19   57.71
   8.050  -30.92   35.15   -0.03  -28.12   -0.04  -28.24  -31.87   56.74
   8.095  -30.81   35.61   -0.02  -28.32   -0.03  -28.46  -31.75   54.48
   8.140  -30.93   35.76   -0.02  -28.57   -0.03  -28.70  -31.44   52.59
   8.185  -30.93   37.98   -0.02  -28.80   -0.04  -28.94  -31.48   52.48
   8.230  -31.01   39.93   -0.03  -29.00   -0.04  -29.15  -31.32   51.09
   8.275  -30.85   41.28   -0.03  -29.19   -0.05  -29.33  -31.23   51.29
   8.320  -30.94   43.26   -0.04  -29.37   -0.05  -29.51  -31.08   52.56
   8.365  -30.75   43.80   -0.04  -29.53   -0.05  -29.67  -30.75   52.50
   8.410  -30.65   45.28   -0.04  -29.70   -0.05  -29.84  -30.62   51.59
   8.455  -30.60   44.94   -0.03  -29.88   -0.04  -30.03  -30.32   50.46
   8.500  -30.42   45.47   -0.03  -30.09   -0.04  -30.25  -30.19   49.29
   8.545  -30.43   45.63   -0.03  -30.33   -0.04  -30.48  -29.95   47.03
   8.590  -30.24   45.70   -0.03  -30.57   -0.04  -30.71  -29.81   46.04
   8.635  -30.22   45.75   -0.04  -30.78   -0.05  -30.92  -29.86   43.86
   8.680  -30.09   44.45   -0.04  -30.98   -0.05  -31.13  -29.92   43.39
   8.725  -30.05   43.38   -0.05  -31.18   -0.06  -31.33  -30.21   42.13
   8.770  -30.30   43.02   -0.06  -31.37   -0.07  -31.51  -30.31   42.53
   8.815  -30.25   44.29   -0.06  -31.53   -0.07  -31.66  -30.53   45.85
   8.860  -30.20   46.61   -0.07  -31.67   -0.08  -31.80  -30.35   49.05
   8.905  -29.67   46.69   -0.07  -31.81   -0.08  -31.95  -29.92   52.12
   8.950  -29.27   46.24   -0.07  -31.97   -0.08  -32.10  -29.41   51.98
   8.995  -28.96   44.79   -0.06  -32.15   -0.07  -32.29  -28.81   52.02
   9.040  -28.67   44.16   -0.06  -32.34   -0.07  -32.48  -28.54   51.14
   9.085  -28.53   43.71   -0.06  -32.54   -0.07  -32.68  -28.30   49.92
   9.130  -28.08   43.21   -0.06  -32.72   -0.08  -32.88  -28.14   49.41
   9.175  -27.84   43.10   -0.06  -32.91   -0.08  -33.06  -27.88   48.73
   9.220  -27.37   42.03   -0.07  -33.09   -0.08  -33.23  -27.65   49.41
   9.265  -27.05   41.32   -0.07  -33.26   -0.08  -33.40  -27.60   49.04
   9.310  -26.73   39.39   -0.07  -33.42   -0.08  -33.56  -27.28   49.12
   9.355  -26.46   38.19   -0.06  -33.58   -0.08  -33.73  -27.04   48.91
   9.400  -26.38   37.21   -0.06  -33.75   -0.08  -33.89  -26.72   48.71
   9.445  -26.24   36.92   -0.06  -33.95   -0.07  -34.08  -26.57   49.26
   9.490  -26.21   37.52   -0.05  -34.14   -0.07  -34.26  -26.32   48.25
   9.535  -25.99   37.82   -0.05  -34.33   -0.06  -34.47  -26.00   48.06
   9.580  -25.79   38.86   -0.04  -34.53   -0.05  -34.66  -25.78   47.87
   9.625  -25.59   39.56   -0.04  -34.75   -0.05  -34.87  -25.43   47.79
   9.670  -25.33   40.31   -0.03  -34.98   -0.04  -35.12  -25.19   47.14
   9.715  -25.12   40.93   -0.03  -35.23   -0.04  -35.36  -24.86   45.93
   9.760  -24.88   41.17   -0.03  -35.47   -0.04  -35.60  -24.63   45.36
   9.805  -24.68   42.57   -0.03  -35.71   -0.04  -35.85  -24.43   44.61
   9.850  -24.46   42.88   -0.03  -35.94   -0.04  -36.08  -24.20   43.87
   9.895  -24.23   43.55   -0.03  -36.17   -0.04  -36.30  -24.03   42.65
   9.940  -24.06   43.91   -0.03  -36.41   -0.04  -36.54  -23.77   42.05
   9.985  -23.75   44.50   -0.03  -36.66   -0.05  -36.79  -23.62   41.71
  10.030  -23.60   44.91   -0.03  -36.91   -0.04  -37.03  -23.39   40.84
  10.075  -23.35   44.68   -0.04  -37.19   -0.05  -37.30  -23.24   40.20
  10.120  -23.18   44.98   -0.04  -37.46   -0.05  -37.57  -23.05   39.20
  10.165  -23.00   44.75   -0.04  -37.73   -0.06  -37.85  -22.84   38.87
  10.210  -22.82   44.79   -0.05  -38.00   -0.06  -38.12  -22.75   38.25
  10.255  -22.71   44.48   -0.06  -38.27   -0.07  -38.39  -22.51   37.96
  10.300  -22.50   44.08   -0.07  -38.54   -0.08  -38.66  -22.35   37.76
  10.345  -22.36   43.97   -0.08  -38.83   -0.09  -38.92  -22.11   37.29
  10.390  -22.13   43.28   -0.09  -39.12   -0.10  -39.22  -21.91   37.19
  10.435  -21.95   42.82   -0.10  -39.40   -0.11  -39.50  -21.69   36.59
  10.480  -21.77   41.95   -0.11  -39.68   -0.13  -39.79  -21.41   36.50
  10.525  -21.48   41.06   -0.13  -39.97   -0.13  -40.02  -21.16   36.30
  10.570  -21.27   39.84   -0.14  -40.29   -0.15  -40.34  -20.86   35.86
  10.615  -20.92   38.36   -0.16  -40.61   -0.17  -40.67  -20.58   35.63
  10.660  -20.60   36.46   -0.18  -40.97   -0.19  -41.03  -20.21   34.69
  10.705  -20.21   34.11   -0.21  -41.31   -0.22  -41.38  -19.83   34.53
  10.750  -19.86   31.55   -0.25  -41.69   -0.26  -41.72  -19.43   33.36
  10.795  -19.48   28.44   -0.29  -42.04   -0.29  -42.09  -18.96   32.50
  10.840  -19.09   25.07   -0.34  -42.43   -0.34  -42.47  -18.52   31.00
  10.885  -18.67   21.43   -0.41  -42.81   -0.41  -42.87  -17.98   29.17
  10.930  -18.19   16.90   -0.49  -43.21   -0.49  -43.25  -17.45   26.95
  10.975  -17.73   11.93   -0.59  -43.51   -0.60  -43.57  -16.86   23.57
  11.020  -17.22    5.78   -0.73  -43.72   -0.73  -43.76  -16.28   19.45
  11.065  -16.81   -1.76   -0.90  -43.61   -0.91  -43.69  -15.75   13.73
  11.110  -16.54  -10.72   -1.09  -43.09   -1.09  -43.15  -15.34    6.89
  11.155  -16.53  -20.97   -1.25  -41.94   -1.25  -42.00  -15.16   -1.51
  11.200  -16.88  -32.10   -1.32  -40.28   -1.32  -40.32  -15.29  -10.63
  11.245  -17.71  -43.10   -1.26  -38.55   -1.26  -38.61  -15.88  -19.64
  11.290  -18.97  -53.00   -1.09  -37.31   -1.10  -37.37  -16.84  -27.34
  11.335  -20.61  -60.91   -0.89  -36.71   -0.90  -36.76  -18.07  -33.01
  11.380  -22.59  -66.06   -0.71  -36.64   -0.71  -36.68  -19.39  -36.53
  11.425  -24.75  -68.99   -0.55  -36.89   -0.56  -36.92  -20.76  -37.13
  11.470  -27.29  -68.49   -0.43  -37.28   -0.44  -37.34  -22.14  -36.36
  11.515  -29.87  -64.34   -0.34  -37.76   -0.35  -37.80  -23.29  -33.11
  11.560  -32.66  -52.41   -0.28  -38.23   -0.28  -38.28  -24.28  -28.73
  11.605  -34.98  -33.77   -0.23  -38.72   -0.23  -38.73  -24.96  -23.08
  11.650  -35.88   -7.02   -0.19  -39.17   -0.20  -39.21  -25.55  -16.58
  11.695  -34.63   15.63   -0.16  -39.60   -0.16  -39.67  -25.81  -11.21
  11.740  -32.97   27.31   -0.13  -40.02   -0.14  -40.07  -25.84   -5.69
  11.785  -31.30   35.89   -0.12  -40.41   -0.12  -40.46  -25.76   -0.87
  11.830  -29.98   41.06   -0.10  -40.79   -0.11  -40.84  -25.53    3.32
  11.875  -28.89   43.92   -0.09  -41.16   -0.10  -41.22  -25.38    7.15
  11.920  -27.97   46.23   -0.08  -41.50   -0.09  -41.57  -25.08    9.71
  11.965  -27.15   47.87   -0.08  -41.84   -0.09  -41.89  -24.78   12.60
  12.010  -26.44   48.96   -0.07  -42.15   -0.08  -42.23  -24.52   14.30
  12.055  -25.92   49.88   -0.07  -42.48   -0.08  -42.55  -24.23   16.11
  12.100  -25.40   50.43   -0.07  -42.77   -0.08  -42.83  -24.01   17.40
  12.145  -24.97   51.02   -0.07  -43.07   -0.08  -43.12  -23.73   18.26
