!  American Technical Ceramics  Date:   10/27/06
!  One Norden Lane
!  Huntington Station,  NY.   11746-2102
!  Tel:  (631) 622-4700               Fax:  (631) 622-4748
!  Part Number  600S0R5         Mounting Orientation: Horizontal
!  Description: Ultra Low ESR Microwave capacitors
!  Application: Coupling, Bypass, Tuning, DC Block
!               Filters, Matching
# GHZ S DB R 50
! Freq   |S11|   S11 Ph  |S21|   S21 Ph  |S12|   S12 Ph  |S22|   S22 Ph
   0.000   0.00    0.00	  -999.00  90.00  -999.00  90.00    0.00    0.00
   0.400   -0.06   -7.89  -18.93   81.88  -18.93   81.80   -0.08   -7.70
   0.465   -0.07   -9.17  -17.65   80.65  -17.64   80.61   -0.10   -8.93
   0.530   -0.10  -10.44  -16.53   79.42  -16.53   79.42   -0.12  -10.13
   0.595   -0.13  -11.71  -15.56   78.18  -15.57   78.16   -0.14  -11.35
   0.660   -0.15  -12.97  -14.69   76.96  -14.70   76.89   -0.18  -12.57
   0.725   -0.18  -14.20  -13.90   75.73  -13.91   75.62   -0.20  -13.78
   0.790   -0.22  -15.44  -13.19   74.51  -13.19   74.43   -0.24  -14.98
   0.855   -0.25  -16.67  -12.54   73.30  -12.54   73.28   -0.28  -16.18
   0.920   -0.29  -17.89  -11.95   72.10  -11.96   72.10   -0.32  -17.37
   0.985   -0.33  -19.10  -11.40   70.90  -11.41   70.89   -0.35  -18.54
   1.050   -0.37  -20.29  -10.88   69.71  -10.90   69.65   -0.40  -19.72
   1.115   -0.42  -21.47  -10.41   68.57  -10.42   68.47   -0.45  -20.88
   1.180   -0.47  -22.65   -9.96   67.41   -9.97   67.35   -0.50  -22.04
   1.245   -0.52  -23.82   -9.55   66.23   -9.55   66.23   -0.55  -23.19
   1.310   -0.57  -24.96   -9.16   65.11   -9.18   65.14   -0.60  -24.33
   1.375   -0.62  -26.11   -8.79   63.98   -8.81   63.98   -0.65  -25.43
   1.440   -0.68  -27.25   -8.45   62.83   -8.47   62.76   -0.71  -26.54
   1.505   -0.74  -28.37   -8.13   61.72   -8.14   61.63   -0.77  -27.65
   1.570   -0.80  -29.47   -7.82   60.64   -7.82   60.60   -0.82  -28.76
   1.635   -0.86  -30.53   -7.53   59.57   -7.53   59.60   -0.89  -29.84
   1.700   -0.92  -31.62   -7.25   58.48   -7.27   58.54   -0.95  -30.92
   1.765   -0.98  -32.70   -6.99   57.45   -7.01   57.46   -1.01  -31.97
   1.830   -1.05  -33.76   -6.73   56.39   -6.75   56.34   -1.08  -33.00
   1.895   -1.12  -34.79   -6.49   55.34   -6.50   55.26   -1.15  -34.05
   1.960   -1.19  -35.83   -6.27   54.31   -6.27   54.28   -1.22  -35.10
   2.025   -1.26  -36.84   -6.05   53.28   -6.05   53.31   -1.29  -36.13
   2.090   -1.33  -37.85   -5.85   52.25   -5.86   52.31   -1.36  -37.16
   2.155   -1.40  -38.84   -5.65   51.25   -5.67   51.26   -1.43  -38.15
   2.220   -1.48  -39.84   -5.46   50.24   -5.48   50.19   -1.50  -39.12
   2.285   -1.56  -40.81   -5.28   49.26   -5.29   49.18   -1.58  -40.09
   2.350   -1.64  -41.78   -5.11   48.27   -5.11   48.24   -1.67  -41.10
   2.415   -1.72  -42.70   -4.95   47.30   -4.96   47.34   -1.74  -42.07
   2.480   -1.80  -43.63   -4.80   46.32   -4.81   46.38   -1.82  -43.03
   2.545   -1.89  -44.51   -4.66   45.36   -4.68   45.39   -1.90  -43.96
   2.610   -1.96  -45.33   -4.52   44.51   -4.53   44.47   -1.98  -44.86
   2.675   -2.03  -46.21   -4.37   43.64   -4.38   43.57   -2.06  -45.77
   2.740   -2.11  -47.16   -4.23   42.73   -4.24   42.72   -2.15  -46.73
   2.805   -2.19  -48.06   -4.10   41.80   -4.11   41.85   -2.23  -47.68
   2.870   -2.28  -48.93   -3.98   40.86   -3.99   40.94   -2.31  -48.61
   2.935   -2.37  -49.81   -3.86   39.96   -3.88   39.99   -2.39  -49.50
   3.000   -2.42  -50.95   -3.75   39.28   -3.77   39.25   -2.47  -49.85
   3.065   -2.50  -51.78   -3.64   38.48   -3.64   38.42   -2.55  -50.71
   3.130   -2.59  -52.60   -3.53   37.65   -3.53   37.66   -2.63  -51.62
   3.195   -2.67  -53.40   -3.43   36.83   -3.44   36.90   -2.71  -52.49
   3.260   -2.76  -54.23   -3.34   35.95   -3.36   36.03   -2.79  -53.29
   3.325   -2.84  -55.08   -3.25   35.11   -3.26   35.14   -2.88  -54.07
   3.390   -2.92  -55.89   -3.16   34.33   -3.17   34.32   -2.96  -54.81
   3.455   -3.01  -56.71   -3.07   33.57   -3.08   33.53   -3.05  -55.58
   3.520   -3.10  -57.48   -2.99   32.84   -2.99   32.86   -3.13  -56.41
   3.585   -3.19  -58.22   -2.92   32.08   -2.92   32.15   -3.21  -57.22
   3.650   -3.28  -58.96   -2.84   31.30   -2.85   31.38   -3.29  -57.99
   3.715   -3.37  -59.69   -2.76   30.56   -2.78   30.59   -3.36  -58.72
   3.780   -3.46  -60.40   -2.69   29.85   -2.71   29.83   -3.45  -59.45
   3.845   -3.54  -61.08   -2.62   29.19   -2.62   29.17   -3.54  -60.21
   3.910   -3.62  -61.75   -2.55   28.53   -2.55   28.56   -3.63  -61.03
   3.975   -3.70  -62.46   -2.48   27.81   -2.48   27.89   -3.72  -61.85
   4.040   -3.78  -63.18   -2.41   27.08   -2.42   27.14   -3.80  -62.57
   4.105   -3.86  -63.88   -2.35   26.34   -2.36   26.38   -3.88  -63.21
   4.170   -3.95  -64.59   -2.28   25.65   -2.30   25.63   -3.97  -63.82
   4.235   -4.03  -65.27   -2.23   24.98   -2.23   24.96   -4.07  -64.50
   4.300   -4.11  -65.94   -2.17   24.30   -2.17   24.35   -4.17  -65.25
   4.365   -4.20  -66.60   -2.12   23.64   -2.12   23.73   -4.24  -66.00
   4.430   -4.28  -67.26   -2.07   22.95   -2.08   23.04   -4.32  -66.67
   4.495   -4.37  -67.91   -2.02   22.29   -2.04   22.34   -4.40  -67.23
   4.560   -4.45  -68.61   -1.97   21.72   -1.98   21.69   -4.50  -67.67
   4.625   -4.54  -69.27   -1.90   21.10   -1.90   21.09   -4.58  -68.19
   4.690   -4.62  -69.90   -1.86   20.35   -1.85   20.42   -4.66  -69.05
   4.755   -4.71  -70.48   -1.83   19.72   -1.83   19.82   -4.74  -69.80
   4.820   -4.80  -71.07   -1.79   19.11   -1.80   19.19   -4.81  -70.41
   4.885   -4.89  -71.67   -1.74   18.46   -1.76   18.51   -4.88  -70.91
   4.950   -4.97  -72.26   -1.70   17.87   -1.71   17.85   -4.98  -71.43
   5.015   -5.05  -72.87   -1.67   17.28   -1.66   17.28   -5.08  -72.04
   5.080   -5.13  -73.44   -1.63   16.68   -1.63   16.76   -5.18  -72.76
   5.145   -5.22  -73.99   -1.60   16.11   -1.60   16.20   -5.25  -73.42
   5.210   -5.31  -74.54   -1.57   15.50   -1.58   15.59   -5.32  -73.94
   5.275   -5.39  -75.11   -1.53   14.91   -1.54   14.94   -5.39  -74.37
   5.340   -5.48  -75.67   -1.50   14.36   -1.50   14.36   -5.48  -74.81
   5.405   -5.56  -76.22   -1.47   13.80   -1.46   13.82   -5.59  -75.35
   5.470   -5.64  -76.74   -1.44   13.26   -1.43   13.35   -5.68  -76.06
   5.535   -5.73  -77.23   -1.41   12.73   -1.41   12.82   -5.74  -76.68
   5.600   -5.81  -77.73   -1.39   12.18   -1.40   12.26   -5.79  -77.13
   5.665   -5.89  -78.26   -1.36   11.65   -1.37   11.68   -5.87  -77.51
   5.730   -5.97  -78.77   -1.33   11.14   -1.33   11.13   -5.96  -77.90
   5.795   -6.05  -79.27   -1.30   10.66   -1.29   10.68   -6.08  -78.47
   5.860   -6.13  -79.76   -1.27   10.15   -1.27   10.25   -6.16  -79.19
   5.925   -6.21  -80.25   -1.25    9.64   -1.25    9.75   -6.21  -79.77
   5.990   -6.29  -80.76   -1.22    9.10   -1.23    9.18   -6.27  -80.16
   6.055   -6.37  -81.27   -1.19    8.57   -1.20    8.60   -6.34  -80.44
   6.120   -6.45  -81.76   -1.17    8.08   -1.17    8.07   -6.44  -80.79
   6.185   -6.53  -82.25   -1.15    7.61   -1.14    7.64   -6.55  -81.37
   6.250   -6.61  -82.75   -1.12    7.12   -1.12    7.21   -6.63  -82.09
   6.315   -6.69  -83.23   -1.11    6.64   -1.11    6.75   -6.68  -82.64
   6.380   -6.77  -83.75   -1.08    6.14   -1.09    6.23   -6.73  -83.02
   6.445   -6.85  -84.26   -1.06    5.66   -1.06    5.70   -6.81  -83.31
   6.510   -6.93  -84.74   -1.03    5.18   -1.03    5.18   -6.92  -83.64
   6.575   -7.01  -85.20   -1.01    4.74   -1.01    4.79   -7.03  -84.24
   6.640   -7.10  -85.67   -0.99    4.25   -0.98    4.35   -7.10  -84.95
   6.705   -7.18  -86.13   -0.98    3.80   -0.97    3.90   -7.15  -85.48
   6.770   -7.27  -86.62   -0.96    3.31   -0.96    3.39   -7.20  -85.84
   6.835   -7.35  -87.08   -0.93    2.83   -0.94    2.86   -7.29  -86.02
   6.900   -7.44  -87.52   -0.92    2.38   -0.91    2.39   -7.41  -86.40
   6.965   -7.52  -87.97   -0.90    1.94   -0.89    2.00   -7.52  -87.04
   7.030   -7.60  -88.40   -0.88    1.49   -0.87    1.59   -7.59  -87.69
   7.095   -7.69  -88.83   -0.87    1.04   -0.86    1.13   -7.65  -88.16
   7.160   -7.78  -89.27   -0.85    0.59   -0.85    0.65   -7.72  -88.43
   7.225   -7.86  -89.71   -0.83    0.13   -0.83    0.19   -7.81  -88.62
   7.290   -7.95  -90.10   -0.82   -0.29   -0.81   -0.24   -7.92  -88.96
   7.355   -8.03  -90.53   -0.80   -0.71   -0.79   -0.64   -8.00  -89.50
   7.420   -8.12  -90.92   -0.78   -1.15   -0.77   -1.07   -8.08  -89.99
   7.485   -8.21  -91.34   -0.77   -1.60   -0.76   -1.53   -8.15  -90.43
   7.550   -8.30  -91.69   -0.76   -2.04   -0.75   -1.97   -8.23  -90.77
   7.615   -8.38  -92.06   -0.74   -2.47   -0.73   -2.42   -8.33  -91.00
   7.680   -8.46  -92.44   -0.72   -2.89   -0.72   -2.84   -8.43  -91.33
   7.745   -8.54  -92.81   -0.71   -3.32   -0.71   -3.24   -8.52  -91.75
   7.810   -8.62  -93.20   -0.70   -3.72   -0.70   -3.64   -8.59  -92.11
   7.875   -8.71  -93.61   -0.69   -4.11   -0.69   -4.03   -8.66  -92.48
   7.940   -8.80  -93.97   -0.68   -4.49   -0.67   -4.43   -8.72  -92.82
   8.005   -8.87  -94.24   -0.66   -4.91   -0.65   -4.85   -8.81  -93.05
   8.070   -8.94  -94.62   -0.64   -5.33   -0.63   -5.28   -8.91  -93.40
   8.135   -9.02  -95.13   -0.63   -5.75   -0.62   -5.68   -8.98  -93.96
   8.200   -9.10  -95.59   -0.62   -6.17   -0.61   -6.08   -9.05  -94.46
   8.265   -9.19  -96.01   -0.62   -6.55   -0.61   -6.48   -9.12  -94.95
   8.330   -9.26  -96.42   -0.60   -7.01   -0.59   -6.94   -9.20  -95.37
   8.395   -9.35  -96.89   -0.60   -7.41   -0.58   -7.36   -9.31  -95.70
   8.460   -9.45  -97.46   -0.59   -7.78   -0.58   -7.72   -9.43  -96.09
   8.525   -9.57  -97.88   -0.58   -8.11   -0.56   -8.03   -9.55  -96.54
   8.590   -9.67  -98.05   -0.56   -8.46   -0.55   -8.39   -9.63  -96.83
   8.655   -9.74  -98.29   -0.54   -8.88   -0.53   -8.80   -9.69  -97.02
   8.720   -9.80  -98.71   -0.53   -9.27   -0.52   -9.21   -9.75  -97.30
   8.785   -9.89  -99.16   -0.52   -9.64   -0.51   -9.60   -9.84  -97.77
   8.850   -9.99  -99.56   -0.51  -10.02   -0.49   -9.97   -9.98  -98.23
   8.915  -10.08  -99.94   -0.49  -10.38   -0.48  -10.32  -10.11  -98.64
   8.980  -10.14 -100.32   -0.47  -10.80   -0.46  -10.72  -10.19  -98.89
   9.045  -10.21 -100.91   -0.46  -11.23   -0.45  -11.16  -10.25  -98.92
   9.110  -10.32 -101.58   -0.45  -11.65   -0.44  -11.60  -10.33  -99.08
   9.175  -10.46 -102.13   -0.45  -12.04   -0.44  -11.99  -10.41  -99.39
   9.240  -10.60 -102.50   -0.44  -12.41   -0.43  -12.35  -10.51  -99.76
   9.305  -10.73 -102.75   -0.44  -12.77   -0.42  -12.70  -10.61 -100.33
   9.370  -10.85 -102.89   -0.43  -13.11   -0.41  -13.03  -10.67 -100.86
   9.435  -10.94 -102.97   -0.42  -13.47   -0.40  -13.39  -10.76 -101.04
   9.500  -11.03 -103.11   -0.40  -13.82   -0.39  -13.77  -10.87 -101.21
   9.565  -11.11 -103.41   -0.39  -14.19   -0.38  -14.15  -10.98 -101.42
   9.630  -11.19 -103.72   -0.38  -14.57   -0.36  -14.52  -11.10 -101.71
   9.695  -11.29 -104.06   -0.37  -14.95   -0.35  -14.88  -11.21 -102.16
   9.760  -11.38 -104.39   -0.36  -15.31   -0.34  -15.24  -11.27 -102.57
   9.825  -11.47 -104.53   -0.35  -15.67   -0.34  -15.62  -11.34 -102.62
   9.890  -11.55 -104.77   -0.34  -16.04   -0.32  -16.02  -11.43 -102.71
   9.955  -11.63 -105.00   -0.33  -16.43   -0.31  -16.41  -11.54 -102.86
  10.020  -11.70 -105.29   -0.31  -16.83   -0.30  -16.80  -11.65 -103.21
  10.085  -11.76 -105.70   -0.31  -17.26   -0.29  -17.22  -11.75 -103.73
  10.150  -11.82 -106.09   -0.31  -17.64   -0.30  -17.60  -11.80 -103.90
  10.215  -11.87 -106.69   -0.31  -17.97   -0.30  -17.94  -11.85 -104.09
  10.280  -11.97 -107.31   -0.30  -18.31   -0.29  -18.30  -11.91 -104.39
  10.345  -12.08 -107.84   -0.29  -18.68   -0.28  -18.67  -12.05 -104.68
  10.410  -12.19 -108.39   -0.29  -19.04   -0.27  -19.02  -12.20 -105.23
  10.475  -12.30 -108.86   -0.28  -19.41   -0.26  -19.37  -12.30 -105.88
  10.540  -12.41 -109.22   -0.27  -19.76   -0.27  -19.77  -12.37 -106.12
  10.605  -12.53 -109.69   -0.27  -20.12   -0.27  -20.16  -12.44 -106.24
  10.670  -12.64 -110.03   -0.27  -20.48   -0.26  -20.54  -12.54 -106.33
  10.735  -12.76 -110.36   -0.26  -20.83   -0.26  -20.89  -12.67 -106.55
  10.800  -12.87 -110.68   -0.26  -21.15   -0.25  -21.19  -12.81 -106.96
  10.865  -12.98 -110.97   -0.25  -21.49   -0.24  -21.51  -12.89 -107.48
  10.930  -13.08 -111.25   -0.24  -21.82   -0.24  -21.84  -12.96 -107.74
  10.995  -13.20 -111.57   -0.23  -22.16   -0.23  -22.19  -13.04 -107.91
  11.060  -13.30 -111.65   -0.22  -22.51   -0.22  -22.57  -13.13 -107.91
  11.125  -13.39 -111.79   -0.22  -22.89   -0.21  -22.95  -13.26 -108.09
  11.190  -13.46 -112.11   -0.21  -23.23   -0.21  -23.29  -13.38 -108.63
  11.255  -13.53 -112.45   -0.21  -23.58   -0.20  -23.62  -13.44 -109.21
  11.320  -13.61 -112.84   -0.20  -23.93   -0.19  -23.97  -13.49 -109.49
  11.385  -13.70 -113.37   -0.20  -24.26   -0.19  -24.31  -13.58 -109.76
  11.450  -13.79 -113.69   -0.19  -24.61   -0.18  -24.69  -13.69 -109.94
  11.515  -13.87 -114.04   -0.18  -24.96   -0.17  -25.03  -13.82 -110.19
  11.580  -13.96 -114.54   -0.17  -25.31   -0.17  -25.39  -13.95 -110.95
  11.645  -14.05 -114.94   -0.17  -25.71   -0.16  -25.73  -14.01 -111.69
  11.710  -14.15 -115.46   -0.16  -26.05   -0.16  -26.10  -14.07 -111.98
  11.775  -14.25 -116.00   -0.16  -26.38   -0.15  -26.46  -14.14 -112.20
  11.840  -14.36 -116.38   -0.16  -26.77   -0.15  -26.87  -14.27 -112.24
  11.905  -14.47 -116.75   -0.15  -27.13   -0.14  -27.20  -14.46 -112.75
  11.970  -14.58 -117.12   -0.16  -27.48   -0.14  -27.55  -14.60 -113.68
  12.035  -14.69 -117.46   -0.15  -27.84   -0.14  -27.89  -14.65 -114.51
  12.100  -14.80 -117.85   -0.15  -28.17   -0.14  -28.23  -14.72 -114.84
  12.165  -14.91 -118.28   -0.15  -28.50   -0.14  -28.56  -14.80 -114.77
  12.230  -15.00 -118.67   -0.14  -28.84   -0.14  -28.93  -14.98 -114.83
  12.295  -15.11 -119.01   -0.14  -29.16   -0.13  -29.24  -15.18 -115.36
  12.360  -15.23 -119.40   -0.14  -29.51   -0.13  -29.55  -15.31 -116.21
  12.425  -15.34 -119.73   -0.14  -29.86   -0.13  -29.90  -15.37 -116.95
  12.490  -15.44 -120.17   -0.13  -30.20   -0.13  -30.26  -15.42 -117.20
  12.555  -15.55 -120.54   -0.13  -30.52   -0.12  -30.62  -15.53 -117.15
  12.620  -15.66 -120.94   -0.13  -30.87   -0.12  -30.94  -15.71 -117.47
  12.685  -15.77 -121.32   -0.12  -31.19   -0.11  -31.30  -15.87 -118.09
  12.750  -15.89 -121.71   -0.12  -31.55   -0.11  -31.63  -15.99 -118.85
  12.815  -16.03 -122.29   -0.12  -31.88   -0.11  -31.97  -16.08 -119.61
  12.880  -16.15 -122.62   -0.12  -32.21   -0.11  -32.28  -16.13 -119.92
  12.945  -16.29 -123.00   -0.12  -32.55   -0.11  -32.65  -16.26 -119.94
  13.010  -16.44 -123.38   -0.12  -32.89   -0.11  -32.96  -16.46 -120.41
  13.075  -16.55 -123.73   -0.11  -33.23   -0.10  -33.32  -16.62 -121.16
  13.140  -16.70 -123.84   -0.11  -33.59   -0.10  -33.66  -16.76 -122.00
  13.205  -16.86 -124.28   -0.11  -33.91   -0.09  -34.01  -16.86 -122.82
  13.270  -16.98 -124.58   -0.11  -34.25   -0.10  -34.33  -16.90 -123.06
  13.335  -17.14 -124.87   -0.11  -34.60   -0.09  -34.69  -17.06 -123.04
  13.400  -17.28 -125.14   -0.11  -34.96   -0.10  -35.06  -17.28 -123.68
  13.465  -17.42 -125.24   -0.11  -35.30   -0.10  -35.40  -17.44 -124.47
  13.530  -17.60 -125.46   -0.11  -35.62   -0.10  -35.75  -17.60 -125.31
  13.595  -17.74 -125.74   -0.11  -35.97   -0.10  -36.05  -17.67 -126.24
  13.660  -17.91 -125.78   -0.12  -36.28   -0.11  -36.39  -17.74 -126.38
  13.725  -18.07 -125.86   -0.13  -36.58   -0.11  -36.67  -17.93 -126.30
  13.790  -18.22 -125.98   -0.13  -36.82   -0.11  -36.97  -18.14 -126.89
  13.855  -18.35 -125.56   -0.12  -37.06   -0.10  -37.17  -18.28 -127.49
  13.920  -18.46 -125.65   -0.10  -37.34   -0.09  -37.46  -18.38 -128.66
  13.985  -18.63 -125.74   -0.08  -37.72   -0.07  -37.82  -18.41 -129.83
  14.050  -18.76 -125.75   -0.07  -38.13   -0.06  -38.28  -18.53 -130.07
  14.115  -18.89 -125.79   -0.07  -38.57   -0.06  -38.68  -18.77 -130.64
  14.180  -19.00 -125.80   -0.08  -38.99   -0.07  -39.08  -19.04 -131.54
  14.245  -19.07 -125.65   -0.09  -39.37   -0.08  -39.47  -19.36 -132.58
  14.310  -19.17 -125.90   -0.11  -39.71   -0.09  -39.80  -19.57 -133.57
  14.375  -19.23 -126.58   -0.12  -39.95   -0.11  -40.04  -19.66 -133.31
  14.440  -19.40 -127.70   -0.12  -40.16   -0.11  -40.26  -19.77 -132.45
  14.505  -19.65 -128.49   -0.11  -40.42   -0.09  -40.54  -19.87 -132.42
  14.570  -19.88 -128.54   -0.10  -40.77   -0.08  -40.87  -19.98 -132.88
  14.635  -20.11 -128.52   -0.10  -41.10   -0.08  -41.23  -20.20 -134.41
  14.700  -20.33 -128.42   -0.09  -41.46   -0.07  -41.56  -20.27 -136.63
  14.765  -20.51 -128.31   -0.09  -41.81   -0.07  -41.93  -20.34 -136.93
  14.830  -20.71 -128.59   -0.08  -42.18   -0.07  -42.28  -20.58 -137.32
  14.895  -20.84 -128.91   -0.09  -42.49   -0.07  -42.64  -20.78 -138.02
  14.960  -21.05 -129.05   -0.08  -42.84   -0.07  -42.98  -21.08 -138.65
  15.025  -21.23 -129.27   -0.09  -43.21   -0.07  -43.35  -21.37 -140.14
  15.090  -21.43 -129.48   -0.09  -43.58   -0.07  -43.71  -21.41 -141.61
  15.155  -21.67 -129.59   -0.09  -43.93   -0.08  -44.06  -21.60 -141.72
  15.220  -21.91 -130.15   -0.09  -44.25   -0.08  -44.41  -21.81 -142.42
  15.285  -22.12 -130.32   -0.10  -44.61   -0.08  -44.77  -21.99 -142.66
  15.350  -22.32 -130.62   -0.10  -44.95   -0.08  -45.10  -22.39 -143.38
  15.415  -22.58 -131.43   -0.10  -45.31   -0.09  -45.48  -22.64 -145.99
  15.480  -22.81 -131.51   -0.11  -45.68   -0.09  -45.82  -22.68 -147.36
  15.545  -23.16 -132.03   -0.12  -46.02   -0.10  -46.17  -22.86 -147.98
  15.610  -23.49 -132.97   -0.12  -46.32   -0.11  -46.49  -23.13 -148.98
  15.675  -23.81 -133.21   -0.13  -46.65   -0.11  -46.82  -23.48 -149.47
  15.740  -24.22 -134.02   -0.13  -46.95   -0.12  -47.13  -23.95 -151.08
  15.805  -24.59 -134.66   -0.14  -47.29   -0.12  -47.48  -24.16 -154.10
  15.870  -24.99 -134.91   -0.14  -47.64   -0.13  -47.81  -24.30 -155.57
  15.935  -25.53 -135.29   -0.15  -47.97   -0.14  -48.15  -24.54 -156.87
  16.000  -26.02 -135.91   -0.16  -48.23   -0.15  -48.44  -24.88 -158.38
  16.065  -26.55 -136.40   -0.16  -48.56   -0.15  -48.72  -25.48 -159.80
  16.130  -27.12 -136.86   -0.17  -48.87   -0.16  -49.01  -25.99 -163.75
  16.195  -27.72 -137.46   -0.18  -49.15   -0.17  -49.29  -26.42 -167.05
  16.260  -28.51 -137.50   -0.19  -49.41   -0.17  -49.57  -26.92 -169.35
  16.325  -29.29 -137.02   -0.18  -49.71   -0.17  -49.86  -27.47 -170.85
  16.390  -30.15 -136.62   -0.18  -49.98   -0.17  -50.20  -28.20 -171.89
  16.455  -31.07 -135.98   -0.19  -50.27   -0.17  -50.46  -29.20 -174.78
  16.520  -31.88 -135.87   -0.19  -50.58   -0.17  -50.79  -29.79  179.72
  16.585  -32.93 -134.96   -0.19  -50.89   -0.17  -51.09  -30.40  176.29
  16.650  -34.14 -133.40   -0.19  -51.22   -0.18  -51.43  -31.01  172.56
  16.715  -35.58 -131.34   -0.19  -51.55   -0.18  -51.75  -31.65  170.20
  16.780  -37.51 -129.08   -0.20  -51.88   -0.18  -52.06  -33.16  167.75
  16.845  -39.68 -124.28   -0.20  -52.18   -0.18  -52.36  -34.46  156.55
  16.910  -42.13 -122.03   -0.20  -52.48   -0.19  -52.66  -34.90  146.67
  16.975  -46.46 -101.85   -0.21  -52.76   -0.19  -52.97  -35.54  137.93
  17.040  -49.92  -57.62   -0.21  -53.07   -0.19  -53.25  -35.72  127.90
  17.105  -45.98  -11.87   -0.21  -53.36   -0.19  -53.56  -36.57  119.40
  17.170  -41.41    6.33   -0.21  -53.65   -0.19  -53.85  -37.22   98.95
  17.235  -38.40   12.16   -0.21  -53.99   -0.19  -54.17  -35.69   83.49
  17.300  -36.35   11.27   -0.21  -54.28   -0.19  -54.49  -34.92   73.20
  17.365  -34.42   12.22   -0.21  -54.62   -0.20  -54.85  -33.84   64.18
