!  American Technical Ceramics  Date:   10/27/06
!  One Norden Lane
!  Huntington Station,  NY.   11746-2102
!  Tel:  (631) 622-4700               Fax:  (631) 622-4748
!  Part Number  600S1R0         Mounting Orientation: Horizontal
!  Description: Ultra Low ESR Microwave capacitors
!  Application: Coupling, Bypass, Tuning, DC Block
!               Filters, Matching
# GHZ S DB R 50
! Freq   |S11|   S11 Ph  |S21|   S21 Ph  |S12|   S12 Ph  |S22|   S22 Ph
   0.000   0.00    0.00	  -999.00  90.00  -999.00  90.00    0.00    0.00
   0.400   -0.25  -15.00  -12.55   74.74  -12.52   74.35   -0.28  -14.83
   0.465   -0.33  -17.35  -11.33   72.43  -11.28   72.39   -0.37  -17.15
   0.530   -0.43  -19.64  -10.28   70.17  -10.26   70.48   -0.46  -19.43
   0.595   -0.54  -21.91   -9.39   67.93   -9.43   68.21   -0.56  -21.64
   0.660   -0.65  -24.11   -8.60   65.76   -8.67   65.73   -0.67  -23.76
   0.725   -0.77  -26.23   -7.91   63.64   -7.94   63.31   -0.80  -25.83
   0.790   -0.90  -28.32   -7.29   61.56   -7.27   61.25   -0.94  -27.87
   0.855   -1.04  -30.36   -6.74   59.54   -6.70   59.55   -1.09  -29.96
   0.920   -1.18  -32.33   -6.25   57.59   -6.25   57.88   -1.23  -31.99
   0.985   -1.33  -34.25   -5.80   55.67   -5.85   55.90   -1.36  -33.87
   1.050   -1.49  -36.10   -5.40   53.83   -5.47   53.78   -1.51  -35.61
   1.115   -1.64  -37.90   -5.04   52.05   -5.07   51.72   -1.68  -37.26
   1.180   -1.81  -39.65   -4.71   50.32   -4.69   50.06   -1.87  -39.01
   1.245   -1.97  -41.34   -4.41   48.62   -4.37   48.67   -2.05  -40.85
   1.310   -2.13  -42.96   -4.13   47.03   -4.13   47.34   -2.20  -42.65
   1.375   -2.30  -44.55   -3.87   45.44   -3.92   45.67   -2.33  -44.15
   1.440   -2.48  -46.09   -3.64   43.89   -3.70   43.82   -2.50  -45.44
   1.505   -2.65  -47.55   -3.43   42.44   -3.46   42.11   -2.69  -46.73
   1.570   -2.83  -48.99   -3.24   40.99   -3.22   40.74   -2.91  -48.20
   1.635   -3.00  -50.34   -3.05   39.63   -3.02   39.71   -3.11  -49.89
   1.700   -3.17  -51.70   -2.89   38.28   -2.89   38.60   -3.24  -51.47
   1.765   -3.34  -53.02   -2.73   37.01   -2.77   37.24   -3.37  -52.68
   1.830   -3.52  -54.26   -2.58   35.75   -2.64   35.69   -3.53  -53.57
   1.895   -3.70  -55.48   -2.45   34.53   -2.47   34.22   -3.74  -54.50
   1.960   -3.87  -56.67   -2.32   33.33   -2.30   33.11   -3.98  -55.75
   2.025   -4.04  -57.81   -2.20   32.18   -2.17   32.26   -4.18  -57.36
   2.090   -4.21  -58.93   -2.10   31.06   -2.10   31.35   -4.31  -58.82
   2.155   -4.38  -60.02   -2.00   29.96   -2.04   30.18   -4.41  -59.79
   2.220   -4.56  -61.05   -1.90   28.90   -1.96   28.84   -4.56  -60.36
   2.285   -4.73  -62.06   -1.82   27.89   -1.84   27.61   -4.79  -60.99
   2.350   -4.90  -63.09   -1.74   26.86   -1.71   26.68   -5.04  -62.11
   2.415   -5.07  -64.04   -1.66   25.88   -1.63   25.96   -5.25  -63.68
   2.480   -5.25  -64.94   -1.59   24.94   -1.59   25.20   -5.35  -65.03
   2.545   -5.42  -65.79   -1.53   24.00   -1.57   24.17   -5.42  -65.75
   2.610   -5.57  -66.55   -1.46   23.18   -1.51   23.11   -5.57  -66.10
   2.675   -5.72  -67.42   -1.40   22.35   -1.42   22.08   -5.80  -66.48
   2.740   -5.88  -68.40   -1.34   21.46   -1.32   21.33   -6.08  -67.54
   2.805   -6.04  -69.23   -1.28   20.62   -1.26   20.70   -6.27  -69.13
   2.870   -6.20  -70.04   -1.24   19.78   -1.24   20.05   -6.34  -70.40
   2.935   -6.37  -70.88   -1.19   18.98   -1.22   19.13   -6.38  -70.95
   3.000   -6.48  -71.90   -1.13   18.32   -1.18   18.26   -6.49  -70.63
   3.065   -6.65  -72.66   -1.09   17.58   -1.10   17.32   -6.73  -70.90
   3.130   -6.80  -73.44   -1.05   16.81   -1.03   16.70   -7.00  -72.02
   3.195   -6.95  -74.16   -1.00   16.06   -0.98   16.17   -7.18  -73.72
   3.260   -7.10  -74.84   -0.98   15.36   -0.99   15.58   -7.22  -74.94
   3.325   -7.26  -75.60   -0.94   14.59   -0.97   14.74   -7.25  -75.18
   3.390   -7.40  -76.24   -0.90   13.95   -0.95   13.88   -7.38  -75.06
   3.455   -7.55  -76.92   -0.88   13.31   -0.89   13.08   -7.63  -75.10
   3.520   -7.69  -77.61   -0.85   12.64   -0.83   12.57   -7.91  -76.27
   3.585   -7.83  -78.24   -0.82   12.02   -0.80   12.14   -8.06  -78.03
   3.650   -7.98  -78.85   -0.80   11.40   -0.81   11.60   -8.07  -79.13
   3.715   -8.13  -79.49   -0.77   10.77   -0.80   10.87   -8.07  -79.27
   3.780   -8.26  -80.08   -0.74   10.17   -0.78   10.08   -8.20  -78.92
   3.845   -8.40  -80.64   -0.72    9.65   -0.73    9.46   -8.47  -79.04
   3.910   -8.54  -81.27   -0.70    9.06   -0.68    9.00   -8.78  -80.38
   3.975   -8.66  -81.81   -0.66    8.50   -0.65    8.64   -8.91  -82.26
   4.040   -8.81  -82.41   -0.65    7.92   -0.66    8.09   -8.89  -83.30
   4.105   -8.94  -82.97   -0.62    7.29   -0.65    7.42   -8.90  -83.11
   4.170   -9.07  -83.49   -0.60    6.77   -0.63    6.67   -9.05  -82.48
   4.235   -9.20  -84.04   -0.58    6.24   -0.59    6.08   -9.35  -82.47
   4.300   -9.33  -84.60   -0.57    5.67   -0.55    5.64   -9.64  -83.81
   4.365   -9.45  -85.10   -0.55    5.16   -0.54    5.31   -9.73  -85.69
   4.430   -9.59  -85.61   -0.54    4.63   -0.55    4.79   -9.66  -86.55
   4.495   -9.71  -86.15   -0.52    4.10   -0.55    4.19   -9.64  -86.21
   4.560   -9.83  -86.65   -0.50    3.62   -0.52    3.52   -9.81  -85.41
   4.625   -9.97  -87.18   -0.49    3.13   -0.49    3.00  -10.14  -85.45
   4.690  -10.09  -87.80   -0.47    2.60   -0.46    2.61  -10.43  -87.02
   4.755  -10.24  -88.17   -0.46    2.15   -0.45    2.30  -10.47  -88.80
   4.820  -10.37  -88.56   -0.45    1.66   -0.46    1.81  -10.36  -89.57
   4.885  -10.48  -89.01   -0.43    1.11   -0.46    1.18  -10.34  -88.97
   4.950  -10.60  -89.38   -0.41    0.67   -0.44    0.58  -10.53  -88.14
   5.015  -10.73  -89.88   -0.41    0.20   -0.41    0.09  -10.88  -88.30
   5.080  -10.85  -90.30   -0.40   -0.29   -0.38   -0.24  -11.16  -90.12
   5.145  -10.96  -90.71   -0.39   -0.71   -0.39   -0.59  -11.17  -92.04
   5.210  -11.09  -91.12   -0.39   -1.19   -0.40   -1.03  -11.04  -92.52
   5.275  -11.21  -91.53   -0.37   -1.65   -0.40   -1.62  -11.04  -91.60
   5.340  -11.33  -91.95   -0.36   -2.07   -0.38   -2.13  -11.25  -90.58
   5.405  -11.45  -92.33   -0.36   -2.47   -0.35   -2.60  -11.63  -90.88
   5.470  -11.57  -92.80   -0.35   -2.92   -0.33   -2.86  -11.89  -92.94
   5.535  -11.68  -93.13   -0.34   -3.33   -0.34   -3.20  -11.84  -94.84
   5.600  -11.81  -93.50   -0.34   -3.76   -0.35   -3.63  -11.69  -95.08
   5.665  -11.92  -93.92   -0.33   -4.22   -0.35   -4.17  -11.69  -93.96
   5.730  -12.04  -94.20   -0.31   -4.57   -0.33   -4.68  -11.94  -92.84
   5.795  -12.16  -94.59   -0.31   -4.97   -0.30   -5.05  -12.35  -93.32
   5.860  -12.27  -95.01   -0.30   -5.38   -0.29   -5.30  -12.57  -95.65
   5.925  -12.38  -95.35   -0.30   -5.75   -0.29   -5.62  -12.48  -97.48
   5.990  -12.50  -95.76   -0.29   -6.16   -0.30   -6.07  -12.31  -97.44
   6.055  -12.62  -96.15   -0.28   -6.59   -0.29   -6.58  -12.34  -96.02
   6.120  -12.74  -96.49   -0.26   -6.98   -0.28   -7.06  -12.64  -94.87
   6.185  -12.86  -96.81   -0.27   -7.34   -0.25   -7.38  -13.06  -95.70
   6.250  -12.98  -97.19   -0.26   -7.76   -0.24   -7.68  -13.25  -98.21
   6.315  -13.10  -97.50   -0.25   -8.11   -0.25   -8.00  -13.12  -99.98
   6.380  -13.21  -97.91   -0.25   -8.52   -0.26   -8.46  -12.94  -99.69
   6.445  -13.32  -98.32   -0.24   -8.93   -0.25   -8.91  -12.99  -98.04
   6.510  -13.45  -98.61   -0.23   -9.27   -0.23   -9.37  -13.35  -96.89
   6.575  -13.57  -99.03   -0.23   -9.63   -0.22   -9.64  -13.79  -97.97
   6.640  -13.70  -99.39   -0.22  -10.02   -0.21   -9.96  -13.94 -100.76
   6.705  -13.83  -99.71   -0.22  -10.37   -0.22  -10.27  -13.77 -102.38
   6.770  -13.95 -100.08   -0.22  -10.75   -0.22  -10.72  -13.57 -101.80
   6.835  -14.08 -100.44   -0.21  -11.18   -0.22  -11.15  -13.68  -99.87
   6.900  -14.21 -100.71   -0.20  -11.51   -0.19  -11.56  -14.11  -98.92
   6.965  -14.34 -101.05   -0.20  -11.87   -0.19  -11.86  -14.58 -100.39
   7.030  -14.47 -101.35   -0.19  -12.23   -0.18  -12.14  -14.71 -103.20
   7.095  -14.61 -101.58   -0.19  -12.53   -0.19  -12.48  -14.49 -104.57
   7.160  -14.73 -101.89   -0.19  -12.91   -0.19  -12.88  -14.30 -103.47
   7.225  -14.86 -102.21   -0.18  -13.31   -0.19  -13.31  -14.44 -101.27
   7.290  -14.99 -102.46   -0.17  -13.64   -0.17  -13.67  -14.90 -100.29
   7.355  -15.13 -102.81   -0.17  -13.99   -0.16  -14.00  -15.38 -102.25
   7.420  -15.27 -103.07   -0.17  -14.37   -0.15  -14.25  -15.44 -105.29
   7.485  -15.41 -103.28   -0.17  -14.66   -0.17  -14.62  -15.20 -106.37
   7.550  -15.53 -103.50   -0.17  -15.00   -0.17  -14.96  -15.02 -104.77
   7.615  -15.65 -103.81   -0.16  -15.40   -0.16  -15.41  -15.24 -102.22
   7.680  -15.80 -104.09   -0.15  -15.70   -0.14  -15.74  -15.78 -101.28
   7.745  -15.95 -104.49   -0.15  -16.07   -0.14  -16.06  -16.25 -103.45
   7.810  -16.09 -104.69   -0.15  -16.41   -0.13  -16.29  -16.25 -106.54
   7.875  -16.26 -104.82   -0.15  -16.69   -0.14  -16.64  -15.93 -107.33
   7.940  -16.39 -104.98   -0.14  -17.02   -0.14  -16.98  -15.75 -105.56
   8.005  -16.50 -104.99   -0.14  -17.39   -0.13  -17.43  -16.02 -102.86
   8.070  -16.60 -105.13   -0.13  -17.72   -0.12  -17.76  -16.62 -102.06
   8.135  -16.73 -105.71   -0.13  -18.10   -0.11  -18.06  -17.07 -104.93
   8.200  -16.86 -106.22   -0.13  -18.46   -0.11  -18.32  -16.98 -108.39
   8.265  -17.01 -106.68   -0.13  -18.72   -0.12  -18.67  -16.63 -109.11
   8.330  -17.10 -106.48   -0.14  -19.09   -0.13  -19.06  -16.49 -107.24
   8.395  -17.25 -106.84   -0.13  -19.40   -0.12  -19.43  -16.87 -104.65
   8.460  -17.42 -107.12   -0.12  -19.69   -0.11  -19.73  -17.61 -104.04
   8.525  -17.59 -107.45   -0.13  -20.04   -0.10  -20.00  -18.11 -106.91
   8.590  -17.72 -107.86   -0.12  -20.37   -0.11  -20.29  -17.95 -109.87
   8.655  -17.88 -108.12   -0.12  -20.64   -0.11  -20.58  -17.53 -109.48
   8.720  -18.04 -108.54   -0.12  -20.97   -0.11  -20.97  -17.35 -106.57
   8.785  -18.22 -108.88   -0.12  -21.27   -0.11  -21.26  -17.69 -104.08
   8.850  -18.43 -108.89   -0.11  -21.48   -0.09  -21.56  -18.41 -104.69
   8.915  -18.60 -109.04   -0.10  -21.80   -0.08  -21.75  -18.91 -108.55
   8.980  -18.71 -109.27   -0.08  -22.16   -0.07  -22.11  -18.73 -111.91
   9.045  -18.83 -109.68   -0.08  -22.50   -0.07  -22.45  -18.36 -111.21
   9.110  -19.02 -110.25   -0.09  -22.88   -0.07  -22.91  -18.36 -107.79
   9.175  -19.24 -110.58   -0.08  -23.21   -0.08  -23.20  -18.87 -104.86
   9.240  -19.43 -110.55   -0.09  -23.46   -0.06  -23.52  -19.68 -104.94
   9.305  -19.61 -110.70   -0.08  -23.78   -0.07  -23.73  -20.17 -109.26
   9.370  -19.74 -111.29   -0.07  -24.10   -0.06  -24.04  -19.82 -112.74
   9.435  -19.89 -111.47   -0.07  -24.33   -0.07  -24.31  -19.36 -111.36
   9.500  -20.11 -111.98   -0.07  -24.67   -0.06  -24.68  -19.42 -107.39
   9.565  -20.31 -112.54   -0.06  -24.99   -0.05  -25.00  -20.01 -104.15
   9.630  -20.54 -112.57   -0.05  -25.25   -0.03  -25.31  -20.93 -104.58
   9.695  -20.80 -112.80   -0.05  -25.61   -0.03  -25.60  -21.40 -109.81
   9.760  -21.00 -113.22   -0.04  -25.95   -0.02  -25.89  -21.02 -113.45
   9.825  -21.20 -112.88   -0.04  -26.23   -0.03  -26.25  -20.53 -111.22
   9.890  -21.38 -113.03   -0.04  -26.60   -0.02  -26.63  -20.62 -106.18
   9.955  -21.55 -112.89   -0.03  -26.92   -0.02  -26.99  -21.36 -102.00
  10.020  -21.70 -112.91   -0.03  -27.21   -0.01  -27.28  -22.37 -102.27
  10.085  -21.84 -113.81   -0.03  -27.61   -0.01  -27.62  -22.68 -108.29
  10.150  -22.03 -114.69   -0.02  -27.94   -0.01  -27.89  -22.03 -112.26
  10.215  -22.26 -115.52   -0.02  -28.23   -0.01  -28.31  -21.51 -110.60
  10.280  -22.54 -116.10   -0.02  -28.62   -0.01  -28.67  -21.67 -105.40
  10.345  -22.81 -116.27   -0.02  -28.94    0.00  -29.03  -22.60 -100.87
  10.410  -23.08 -116.84   -0.02  -29.23   -0.01  -29.31  -23.84 -102.74
  10.475  -23.39 -117.21   -0.03  -29.59    0.00  -29.61  -24.20 -110.01
  10.540  -23.67 -117.49   -0.02  -29.91   -0.03  -29.96  -23.54 -113.16
  10.605  -23.96 -118.40   -0.03  -30.17   -0.02  -30.33  -22.97 -109.70
  10.670  -24.22 -118.36   -0.03  -30.49   -0.03  -30.65  -23.14 -103.16
  10.735  -24.52 -118.68   -0.02  -30.81   -0.02  -30.95  -24.23  -98.23
  10.800  -24.84 -119.44   -0.03  -31.06   -0.03  -31.24  -25.76 -100.54
  10.865  -25.20 -119.65   -0.02  -31.44   -0.01  -31.49  -26.08 -109.66
  10.930  -25.65 -119.53   -0.02  -31.72   -0.03  -31.82  -25.16 -112.29
  10.995  -25.99 -120.29   -0.02  -31.95   -0.01  -32.09  -24.48 -107.59
  11.060  -26.33 -119.41   -0.01  -32.29   -0.02  -32.45  -24.67  -99.52
  11.125  -26.64 -118.79    0.00  -32.59   -0.01  -32.74  -25.89  -93.77
  11.190  -26.92 -119.53    0.00  -32.93    0.00  -33.13  -27.70  -97.88
  11.255  -27.29 -119.19   -0.01  -33.30   -0.01  -33.35  -28.01 -109.89
  11.320  -27.64 -119.32   -0.01  -33.60    0.00  -33.74  -26.89 -112.21
  11.385  -27.96 -120.91    0.00  -33.86   -0.01  -33.98  -26.13 -106.56
  11.450  -28.34 -120.30   -0.01  -34.20   -0.01  -34.42  -26.59  -97.24
  11.515  -28.71 -120.78   -0.01  -34.54   -0.01  -34.67  -28.21  -90.25
  11.580  -29.13 -121.93   -0.01  -34.86   -0.01  -35.08  -30.63  -95.28
  11.645  -29.70 -121.57   -0.01  -35.30   -0.01  -35.30  -30.73 -110.66
  11.710  -30.33 -122.95   -0.01  -35.56   -0.01  -35.74  -29.16 -113.59
  11.775  -30.84 -124.47   -0.01  -35.86   -0.01  -36.02  -28.37 -105.21
  11.840  -31.43 -124.32   -0.01  -36.25   -0.01  -36.45  -29.02  -92.94
  11.905  -32.19 -124.81   -0.01  -36.57   -0.01  -36.72  -31.49  -83.66
  11.970  -32.99 -125.12   -0.01  -36.92   -0.01  -37.09  -35.23  -90.91
  12.035  -33.97 -124.56   -0.01  -37.29   -0.01  -37.36  -35.42 -116.50
  12.100  -34.92 -125.13   -0.01  -37.61   -0.01  -37.75  -33.13 -117.31
  12.165  -36.13 -126.40   -0.01  -37.87   -0.01  -38.06  -32.16 -102.11
  12.230  -37.27 -126.34   -0.01  -38.24   -0.01  -38.40  -33.25  -79.79
  12.295  -38.34 -125.39   -0.01  -38.52   -0.01  -38.69  -36.25  -57.07
  12.360  -39.95 -125.66   -0.01  -38.83   -0.01  -39.00  -43.14  -42.36
  12.425  -42.24 -122.40   -0.01  -39.24   -0.01  -39.36  -48.51 -111.25
  12.490  -44.64 -125.65   -0.01  -39.54   -0.01  -39.70  -40.51 -113.29
  12.555  -48.95 -129.85    0.00  -39.86   -0.01  -40.08  -37.51  -80.96
  12.620  -55.66 -132.45   -0.01  -40.21   -0.01  -40.34  -36.92  -42.03
  12.685  -75.13  133.74   -0.01  -40.52   -0.01  -40.74  -37.11   -3.96
  12.750  -51.55   52.37    0.00  -40.85   -0.01  -41.03  -38.05   31.94
  12.815  -45.46   56.26    0.00  -41.24   -0.01  -41.44  -40.93   63.80
  12.880  -42.43   53.63    0.00  -41.55   -0.01  -41.73  -50.43   50.30
  12.945  -39.54   51.69   -0.01  -41.89   -0.01  -42.09  -40.76   -9.46
  13.010  -37.61   52.69   -0.01  -42.28    0.00  -42.41  -35.03   11.85
  13.075  -36.52   50.80   -0.01  -42.61   -0.01  -42.81  -32.62   30.78
  13.140  -34.91   47.22   -0.01  -42.95   -0.01  -43.17  -31.81   48.25
  13.205  -33.52   47.07   -0.01  -43.35   -0.01  -43.56  -32.76   60.68
  13.270  -32.61   45.19   -0.01  -43.70   -0.01  -43.88  -35.11   54.11
  13.335  -31.51   45.20   -0.03  -44.04    0.00  -44.22  -33.52   30.98
  13.400  -30.81   44.06   -0.02  -44.45   -0.03  -44.61  -30.10   31.60
  13.465  -30.13   42.08   -0.03  -44.78   -0.01  -44.96  -28.29   40.60
  13.530  -29.23   41.63   -0.03  -45.16   -0.03  -45.40  -27.70   50.88
  13.595  -28.70   41.04   -0.04  -45.54   -0.03  -45.68  -28.54   57.65
  13.660  -27.99   39.64   -0.04  -45.85   -0.05  -46.04  -29.67   50.58
  13.725  -27.42   40.09   -0.07  -46.14   -0.04  -46.30  -28.59   37.71
  13.790  -26.82   40.41   -0.07  -46.47   -0.06  -46.68  -26.64   36.60
  13.855  -26.19   38.89   -0.05  -46.74   -0.04  -46.92  -25.49   41.44
  13.920  -25.57   37.75   -0.04  -47.10   -0.03  -47.38  -25.24   49.35
  13.985  -24.88   36.17   -0.02  -47.63   -0.01  -47.76  -25.94   54.14
  14.050  -24.40   34.83   -0.02  -48.02   -0.01  -48.35  -26.44   48.97
  14.115  -24.01   33.97   -0.03  -48.56   -0.02  -48.72  -25.43   41.63
  14.180  -23.62   33.00   -0.05  -49.04   -0.04  -49.24  -23.89   40.89
  14.245  -23.28   31.90   -0.05  -49.49   -0.05  -49.64  -22.67   44.97
  14.310  -22.91   31.12   -0.08  -49.91   -0.06  -50.14  -22.34   50.26
  14.375  -22.54   30.40   -0.09  -50.37   -0.08  -50.52  -22.71   50.96
  14.440  -22.15   30.39   -0.09  -50.71   -0.07  -50.92  -22.72   45.84
  14.505  -21.78   30.39   -0.11  -51.08   -0.10  -51.31  -21.96   40.04
  14.570  -21.42   30.04   -0.12  -51.55   -0.09  -51.71  -20.93   37.86
  14.635  -21.01   29.96   -0.12  -51.95   -0.11  -52.21  -20.13   40.43
  14.700  -20.58   29.29   -0.13  -52.48   -0.11  -52.71  -20.03   44.41
  14.765  -20.11   28.62   -0.13  -53.01   -0.12  -53.25  -20.33   43.63
  14.830  -19.67   28.56   -0.14  -53.49   -0.12  -53.71  -20.18   39.76
  14.895  -19.28   28.17   -0.16  -53.98   -0.14  -54.26  -19.53   36.07
  14.960  -18.83   27.75   -0.17  -54.57   -0.15  -54.73  -18.58   35.18
  15.025  -18.49   27.29   -0.19  -55.10   -0.18  -55.43  -17.87   37.30
  15.090  -18.03   26.37   -0.21  -55.71   -0.19  -55.98  -17.75   39.29
  15.155  -17.53   25.70   -0.22  -56.35   -0.20  -56.69  -17.72   37.67
  15.220  -17.07   25.41   -0.24  -56.92   -0.21  -57.18  -17.45   34.61
  15.285  -16.60   24.45   -0.27  -57.61   -0.24  -57.93  -16.83   31.27
  15.350  -16.13   23.68   -0.29  -58.34   -0.28  -58.53  -15.94   30.28
  15.415  -15.69   22.91   -0.32  -59.10   -0.32  -59.47  -15.34   31.78
  15.480  -15.22   21.67   -0.37  -59.91   -0.36  -60.21  -15.10   32.20
  15.545  -14.67   20.67   -0.41  -60.77   -0.39  -61.16  -14.87   30.37
  15.610  -14.13   19.80   -0.46  -61.60   -0.44  -61.93  -14.44   27.25
  15.675  -13.57   18.44   -0.52  -62.59   -0.50  -62.89  -13.69   24.20
  15.740  -12.98   17.27   -0.59  -63.64   -0.59  -63.86  -12.84   22.99
  15.805  -12.40   15.58   -0.68  -64.79   -0.68  -65.12  -12.21   22.62
  15.870  -11.76   13.65   -0.79  -66.05   -0.79  -66.45  -11.73   21.06
  15.935  -11.08   11.51   -0.93  -67.49   -0.90  -67.91  -11.25   18.14
  16.000  -10.39    9.01   -1.10  -68.98   -1.07  -69.30  -10.60   14.23
  16.065   -9.63    6.09   -1.32  -70.67   -1.28  -70.86   -9.72   10.30
  16.130   -8.88    2.64   -1.61  -72.58   -1.60  -72.72   -8.86    7.01
  16.195   -8.09   -1.57   -2.00  -74.55   -2.00  -74.83   -8.08    3.03
  16.260   -7.28   -6.69   -2.53  -76.60   -2.53  -77.09   -7.32   -2.09
  16.325   -6.47  -12.93   -3.26  -78.50   -3.23  -79.00   -6.58   -8.92
  16.390   -5.70  -20.42   -4.30  -79.49   -4.25  -79.97   -5.80  -17.25
  16.455   -5.07  -29.28   -5.71  -78.12   -5.66  -78.36   -5.10  -26.38
  16.520   -4.63  -39.50   -7.35  -71.43   -7.33  -71.60   -4.67  -36.75
  16.585   -4.48  -50.69   -8.43  -56.77   -8.43  -56.90   -4.53  -48.24
  16.650   -4.67  -62.04   -7.84  -40.12   -7.86  -40.52   -4.72  -59.95
  16.715   -5.17  -72.79   -6.23  -30.71   -6.23  -31.31   -5.21  -71.18
  16.780   -5.93  -82.30   -4.67  -28.03   -4.64  -28.65   -5.93  -80.70
  16.845   -6.83  -90.47   -3.50  -28.64   -3.46  -29.09   -6.91  -88.78
  16.910   -7.81  -97.39   -2.67  -30.46   -2.63  -30.78   -7.96  -96.33
  16.975   -8.84 -103.04   -2.08  -32.65   -2.07  -32.94   -8.94 -102.63
  17.040   -9.87 -107.75   -1.66  -34.85   -1.65  -35.17   -9.88 -107.68
  17.105  -10.86 -111.58   -1.34  -36.87   -1.35  -37.33  -10.76 -111.20
  17.170  -11.88 -114.81   -1.11  -38.65   -1.09  -39.12  -11.78 -113.07
  17.235  -12.85 -117.78   -0.93  -40.33   -0.91  -40.77  -13.01 -115.81
  17.300  -13.74 -120.01   -0.79  -41.76   -0.76  -42.14  -14.03 -119.59
  17.365  -14.70 -122.02   -0.69  -43.07   -0.67  -43.49  -14.86 -122.70
