!  American Technical Ceramics  Date:   12/2/2005
!  One Norden Lane
!  Huntington Station,  NY.   11746-2102
!  Tel:  (631) 622-4700               Fax:  (631) 622-4748
!  Part Number  600S220         Mounting Orientation: Horizontal
!  Description: Ultra Low ESR Microwave capacitors
!  Application: Coupling, Bypass, Tuning, DC Block
!               Filters, Matching
# GHZ S DB R 50
! Freq   |S11|   S11 Ph  |S21|   S21 Ph  |S12|   S12 Ph  |S22|   S22 Ph
   0.000    0.00    0.00 -999.00   90.00 -999.00   90.00    0.00    0.00
   0.400  -15.09  -80.83   -0.16    8.74   -0.09    8.69  -14.99  -80.62
   0.411  -15.34  -81.14   -0.15    8.43   -0.08    8.38  -15.20  -81.34
   0.423  -15.58  -81.37   -0.14    8.13   -0.07    8.08  -15.46  -82.05
   0.434  -15.80  -81.60   -0.14    7.83   -0.07    7.79  -15.75  -82.45
   0.445  -16.03  -81.86   -0.13    7.55   -0.06    7.50  -16.03  -82.44
   0.456  -16.25  -82.13   -0.13    7.29   -0.05    7.22  -16.26  -82.22
   0.468  -16.47  -82.42   -0.12    7.03   -0.05    6.96  -16.42  -82.12
   0.479  -16.69  -82.66   -0.12    6.78   -0.05    6.71  -16.56  -82.40
   0.490  -16.90  -82.87   -0.11    6.55   -0.04    6.49  -16.73  -83.03
   0.501  -17.10  -83.09   -0.11    6.32   -0.04    6.26  -16.97  -83.69
   0.513  -17.29  -83.33   -0.10    6.09   -0.03    6.04  -17.24  -84.08
   0.524  -17.48  -83.62   -0.10    5.88   -0.03    5.82  -17.50  -84.03
   0.535  -17.67  -83.91   -0.10    5.67   -0.02    5.60  -17.70  -83.74
   0.546  -17.86  -84.17   -0.10    5.48   -0.02    5.40  -17.84  -83.61
   0.558  -18.06  -84.36   -0.09    5.29   -0.02    5.21  -17.94  -83.93
   0.569  -18.24  -84.48   -0.09    5.10   -0.02    5.02  -18.08  -84.65
   0.580  -18.41  -84.55   -0.09    4.92   -0.01    4.85  -18.29  -85.42
   0.591  -18.57  -84.67   -0.08    4.74   -0.01    4.67  -18.55  -85.81
   0.603  -18.73  -84.86   -0.08    4.57   -0.01    4.49  -18.80  -85.66
   0.614  -18.90  -85.07   -0.08    4.40   -0.01    4.31  -18.98  -85.21
   0.625  -19.08  -85.26   -0.08    4.24    0.00    4.15  -19.07  -84.91
   0.636  -19.26  -85.37   -0.07    4.08    0.00    3.99  -19.13  -85.14
   0.648  -19.43  -85.42   -0.07    3.93    0.00    3.84  -19.25  -85.81
   0.659  -19.59  -85.50   -0.07    3.78   -0.01    3.70  -19.44  -86.59
   0.670  -19.74  -85.67   -0.07    3.63   -0.01    3.55  -19.69  -86.95
   0.681  -19.89  -85.93   -0.07    3.48   -0.01    3.40  -19.94  -86.74
   0.693  -20.06  -86.21   -0.07    3.34   -0.01    3.25  -20.12  -86.14
   0.704  -20.23  -86.45   -0.06    3.21   -0.01    3.11  -20.20  -85.73
   0.715  -20.40  -86.57   -0.06    3.08   -0.01    2.97  -20.24  -85.96
   0.726  -20.55  -86.60   -0.06    2.94   -0.01    2.84  -20.33  -86.79
   0.738  -20.68  -86.65   -0.06    2.81   -0.01    2.72  -20.52  -87.75
   0.749  -20.79  -86.78   -0.06    2.68   -0.01    2.60  -20.79  -88.22
   0.760  -20.91  -86.99   -0.06    2.55   -0.01    2.46  -21.06  -87.92
   0.771  -21.06  -87.25   -0.05    2.42   -0.01    2.33  -21.22  -87.13
   0.783  -21.21  -87.44   -0.05    2.30   -0.01    2.21  -21.25  -86.58
   0.794  -21.38  -87.46   -0.05    2.18   -0.01    2.08  -21.25  -86.81
   0.805  -21.52  -87.39   -0.05    2.07   -0.01    1.97  -21.30  -87.72
   0.816  -21.65  -87.33   -0.05    1.95   -0.01    1.87  -21.47  -88.73
   0.828  -21.77  -87.41   -0.05    1.84   -0.01    1.75  -21.74  -89.23
   0.839  -21.89  -87.67   -0.05    1.74   -0.01    1.64  -22.01  -88.82
   0.850  -22.04  -87.98   -0.05    1.62   -0.01    1.52  -22.16  -87.86
   0.861  -22.21  -88.19   -0.05    1.52   -0.01    1.41  -22.19  -87.18
   0.873  -22.38  -88.25   -0.05    1.41   -0.01    1.30  -22.16  -87.36
   0.884  -22.52  -88.16   -0.05    1.31   -0.01    1.20  -22.21  -88.37
   0.895  -22.63  -88.12   -0.05    1.19   -0.01    1.11  -22.39  -89.52
   0.906  -22.72  -88.24   -0.05    1.10   -0.01    1.00  -22.69  -90.09
   0.918  -22.80  -88.57   -0.04    1.01   -0.01    0.90  -22.98  -89.64
   0.929  -22.92  -88.94   -0.04    0.90   -0.01    0.80  -23.15  -88.54
   0.940  -23.08  -89.23   -0.04    0.81   -0.01    0.70  -23.15  -87.75
   0.951  -23.24  -89.28   -0.04    0.71   -0.01    0.60  -23.08  -87.97
   0.963  -23.38  -89.05   -0.04    0.62   -0.01    0.50  -23.10  -89.09
   0.974  -23.48  -88.83   -0.04    0.52   -0.01    0.42  -23.27  -90.40
   0.985  -23.56  -88.78   -0.04    0.43   -0.01    0.33  -23.56  -91.00
   0.996  -23.65  -89.00   -0.04    0.35   -0.01    0.23  -23.85  -90.46
   1.008  -23.76  -89.42   -0.04    0.25   -0.01    0.14  -23.99  -89.20
   1.019  -23.93  -89.79   -0.04    0.16   -0.01    0.04  -23.95  -88.33
   1.030  -24.12  -89.95   -0.04    0.09   -0.01   -0.04  -23.87  -88.61
   1.041  -24.29  -89.83   -0.04   -0.01   -0.01   -0.13  -23.89  -89.84
   1.053  -24.43  -89.58   -0.04   -0.11   -0.01   -0.21  -24.09  -91.17
   1.064  -24.53  -89.39   -0.04   -0.19   -0.01   -0.29  -24.42  -91.70
   1.075  -24.60  -89.42   -0.04   -0.27   -0.01   -0.39  -24.75  -90.95
   1.086  -24.67  -89.71   -0.04   -0.35   -0.01   -0.48  -24.89  -89.37
   1.098  -24.77  -90.09   -0.04   -0.44   -0.01   -0.56  -24.83  -88.35
   1.109  -24.89  -90.37   -0.04   -0.52   -0.01   -0.65  -24.71  -88.71
   1.120  -25.02  -90.51   -0.04   -0.59   -0.01   -0.72  -24.70  -90.23
   1.131  -25.14  -90.52   -0.03   -0.68   -0.01   -0.80  -24.90  -91.85
   1.143  -25.24  -90.50   -0.03   -0.76   -0.01   -0.87  -25.25  -92.52
   1.154  -25.34  -90.57   -0.03   -0.84   -0.01   -0.96  -25.58  -91.67
   1.165  -25.45  -90.72   -0.03   -0.92   -0.01   -1.04  -25.70  -89.96
   1.176  -25.57  -90.86   -0.03   -0.99   -0.01   -1.12  -25.59  -88.88
   1.188  -25.71  -90.94   -0.03   -1.07   -0.01   -1.20  -25.44  -89.38
   1.199  -25.85  -90.98   -0.03   -1.14   -0.01   -1.27  -25.43  -91.03
   1.210  -25.98  -90.98   -0.03   -1.22   -0.01   -1.34  -25.64  -92.69
   1.221  -26.10  -90.99   -0.03   -1.31   -0.01   -1.42  -26.03  -93.22
   1.233  -26.23  -91.05   -0.03   -1.37   -0.01   -1.50  -26.39  -92.10
   1.244  -26.35  -91.12   -0.03   -1.45   -0.01   -1.58  -26.51  -90.03
   1.255  -26.47  -91.15   -0.03   -1.52   -0.01   -1.67  -26.39  -88.87
   1.266  -26.58  -91.14   -0.03   -1.59   -0.01   -1.74  -26.23  -89.48
   1.278  -26.66  -91.18   -0.03   -1.67   -0.01   -1.81  -26.24  -91.25
   1.289  -26.74  -91.27   -0.03   -1.74   -0.01   -1.87  -26.50  -92.98
   1.300  -26.82  -91.47   -0.03   -1.81   -0.01   -1.95  -26.91  -93.39
   1.311  -26.92  -91.73   -0.03   -1.88   -0.01   -2.02  -27.26  -92.03
   1.323  -27.03  -91.89   -0.03   -1.95   -0.01   -2.09  -27.32  -89.94
   1.334  -27.15  -92.00   -0.03   -2.01   -0.01   -2.17  -27.12  -88.97
   1.345  -27.26  -91.99   -0.03   -2.08   -0.01   -2.24  -26.91  -89.96
   1.356  -27.37  -91.98   -0.03   -2.16   -0.01   -2.30  -26.90  -92.25
   1.368  -27.47  -92.10   -0.03   -2.22   -0.01   -2.37  -27.18  -94.31
   1.379  -27.59  -92.35   -0.03   -2.29   -0.01   -2.44  -27.65  -94.79
   1.390  -27.74  -92.54   -0.03   -2.37   -0.01   -2.52  -28.05  -93.10
   1.401  -27.91  -92.51   -0.03   -2.44   -0.01   -2.60  -28.13  -90.41
   1.413  -28.06  -92.28   -0.03   -2.50   -0.01   -2.67  -27.89  -89.05
   1.424  -28.16  -91.96   -0.03   -2.57   -0.01   -2.74  -27.65  -89.92
   1.435  -28.22  -91.87   -0.03   -2.64   -0.01   -2.79  -27.64  -92.23
   1.446  -28.26  -92.11   -0.03   -2.71   -0.01   -2.86  -27.96  -94.45
   1.458  -28.34  -92.64   -0.03   -2.77   -0.01   -2.92  -28.50  -94.84
   1.469  -28.47  -93.22   -0.03   -2.84   -0.01   -3.00  -28.93  -92.72
   1.480  -28.65  -93.50   -0.03   -2.91   -0.01   -3.08  -28.97  -89.71
   1.491  -28.83  -93.23   -0.03   -2.96   -0.01   -3.15  -28.66  -88.25
   1.503  -28.94  -92.69   -0.03   -3.03   -0.01   -3.20  -28.35  -89.50
   1.514  -28.96  -92.28   -0.03   -3.10   -0.01   -3.27  -28.30  -92.37
   1.525  -28.96  -92.41   -0.03   -3.16   -0.01   -3.33  -28.59  -95.18
   1.536  -29.00  -93.10   -0.03   -3.21   -0.01   -3.39  -29.16  -96.31
   1.548  -29.14  -94.08   -0.03   -3.29   -0.01   -3.46  -29.66  -94.20
   1.559  -29.39  -94.65   -0.03   -3.35   -0.01   -3.53  -29.69  -90.86
   1.570  -29.66  -94.44   -0.03   -3.40   -0.01   -3.60  -29.34  -89.36
   1.581  -29.88  -93.48   -0.03   -3.46   -0.01   -3.66  -29.02  -90.78
   1.593  -29.95  -92.35   -0.03   -3.54   -0.01   -3.71  -29.04  -93.64
   1.604  -29.93  -91.73   -0.03   -3.61   -0.01   -3.78  -29.42  -96.14
   1.615  -29.86  -91.86   -0.03   -3.65   -0.01   -3.84  -30.05  -96.27
   1.626  -29.87  -92.70   -0.03   -3.72   -0.01   -3.91  -30.49  -93.35
   1.638  -29.97  -93.73   -0.03   -3.79   -0.01   -3.98  -30.46  -89.84
   1.649  -30.16  -94.42   -0.03   -3.83   -0.01   -4.04  -30.06  -88.66
   1.660  -30.37  -94.48   -0.03   -3.89   -0.01   -4.10  -29.74  -90.66
   1.671  -30.53  -94.14   -0.03   -3.96   -0.01   -4.15  -29.80  -94.18
   1.683  -30.62  -93.81   -0.03   -4.03   -0.01   -4.21  -30.27  -97.01
   1.694  -30.66  -93.71   -0.03   -4.08   -0.01   -4.28  -30.98  -97.27
   1.705  -30.72  -94.17   -0.03   -4.14   -0.01   -4.34  -31.50  -94.01
   1.716  -30.83  -94.74   -0.03   -4.21   -0.01   -4.40  -31.41  -89.93
   1.728  -31.00  -95.10   -0.03   -4.26   -0.01   -4.47  -30.91  -88.62
   1.739  -31.16  -95.12   -0.03   -4.32   -0.01   -4.52  -30.50  -90.82
   1.750  -31.29  -95.00   -0.03   -4.39   -0.01   -4.58  -30.51  -94.66
   1.761  -31.38  -94.94   -0.03   -4.46   -0.01   -4.64  -31.00  -97.77
   1.773  -31.45  -95.13   -0.03   -4.51   -0.01   -4.70  -31.74  -97.95
   1.784  -31.57  -95.64   -0.03   -4.56   -0.01   -4.76  -32.29  -94.41
   1.795  -31.73  -96.00   -0.03   -4.62   -0.01   -4.82  -32.20  -89.88
   1.806  -31.92  -96.09   -0.03   -4.68   -0.01   -4.88  -31.70  -88.46
   1.818  -32.09  -95.74   -0.03   -4.73   -0.01   -4.93  -31.30  -90.67
   1.829  -32.22  -95.25   -0.03   -4.80   -0.01   -4.99  -31.36  -94.64
   1.840  -32.27  -94.90   -0.03   -4.85   -0.01   -5.04  -31.91  -97.75
   1.851  -32.30  -95.00   -0.03   -4.91   -0.01   -5.10  -32.73  -97.43
   1.863  -32.38  -95.55   -0.03   -4.97   -0.01   -5.16  -33.27  -93.22
   1.874  -32.53  -96.13   -0.03   -5.02   -0.01   -5.22  -33.07  -88.59
   1.885  -32.73  -96.34   -0.03   -5.08   -0.01   -5.28  -32.46  -87.81
   1.896  -32.92  -96.43   -0.03   -5.14   -0.01   -5.33  -32.05  -91.01
   1.908  -33.08  -96.20   -0.03   -5.20   -0.01   -5.38  -32.16  -95.80
   1.919  -33.18  -96.02   -0.03   -5.26   -0.01   -5.44  -32.83  -99.25
   1.930  -33.26  -96.23   -0.03   -5.31   -0.01   -5.49  -33.76  -98.67
   1.941  -33.37  -96.66   -0.03   -5.37   -0.01   -5.55  -34.33  -93.42
   1.953  -33.50  -97.07   -0.03   -5.43   -0.01   -5.61  -33.99  -87.99
   1.964  -33.65  -97.29   -0.03   -5.48   -0.01   -5.67  -33.24  -87.34
   1.975  -33.77  -97.39   -0.03   -5.54   -0.01   -5.72  -32.79  -90.91
   1.986  -33.89  -97.45   -0.03   -5.61   -0.01   -5.77  -32.93  -96.13
   1.998  -34.03  -97.60   -0.03   -5.66   -0.01   -5.82  -33.71  -99.81
   2.009  -34.19  -97.65   -0.03   -5.71   -0.01   -5.88  -34.85  -98.88
   2.020  -34.38  -97.47   -0.03   -5.77   -0.01   -5.94  -35.52  -91.91
   2.031  -34.55  -96.89   -0.03   -5.82   -0.01   -6.00  -35.06  -85.16
   2.043  -34.65  -96.15   -0.03   -5.87   -0.01   -6.05  -34.09  -84.49
   2.054  -34.67  -95.86   -0.03   -5.93   -0.01   -6.10  -33.53  -89.10
   2.065  -34.72  -96.46   -0.03   -5.99   -0.01   -6.15  -33.67  -95.65
   2.076  -34.81  -97.54   -0.03   -6.04   -0.01   -6.20  -34.54 -100.64
   2.088  -35.05  -98.78   -0.03   -6.10   -0.01   -6.25  -35.86 -100.48
   2.099  -35.39  -99.61   -0.03   -6.15   -0.01   -6.31  -36.73  -93.54
   2.110  -35.76  -99.40   -0.04   -6.21   -0.01   -6.37  -36.35  -85.74
   2.121  -35.99  -98.24   -0.03   -6.26   -0.01   -6.43  -35.34  -84.37
   2.133  -36.01  -96.93   -0.03   -6.32   -0.01   -6.49  -34.72  -88.91
   2.144  -35.87  -96.71   -0.03   -6.39   -0.01   -6.53  -34.85  -94.97
   2.155  -35.74  -97.82   -0.04   -6.43   -0.01   -6.58  -35.71  -99.54
   2.166  -35.76  -99.81   -0.03   -6.48   -0.01   -6.64  -36.96  -98.44
   2.178  -35.99 -101.72   -0.03   -6.54   -0.01   -6.70  -37.69  -90.68
   2.189  -36.42 -102.52   -0.04   -6.59   -0.01   -6.75  -37.12  -83.26
   2.200  -36.86 -101.63   -0.03   -6.64   -0.01   -6.80  -36.09  -82.95
   2.211  -37.12  -99.46   -0.03   -6.70   -0.01   -6.85  -35.58  -88.29
   2.223  -37.18  -97.33   -0.04   -6.77   -0.01   -6.90  -35.90  -94.91
   2.234  -37.06  -96.57   -0.04   -6.82   -0.01   -6.96  -37.01  -98.89
   2.245  -37.01  -97.32   -0.04   -6.86   -0.01   -7.01  -38.50  -95.98
   2.256  -37.15  -98.96   -0.04   -6.92   -0.01   -7.07  -39.05  -85.62
   2.268  -37.48 -100.45   -0.04   -6.97   -0.01   -7.12  -38.07  -78.31
   2.279  -37.84 -101.11   -0.04   -7.02   -0.01   -7.18  -36.87  -80.02
   2.290  -38.20 -101.08   -0.04   -7.08   -0.01   -7.23  -36.39  -86.94
   2.301  -38.37 -100.97   -0.04   -7.14   -0.01   -7.28  -36.83  -94.98
   2.313  -38.48 -101.42   -0.04   -7.19   -0.01   -7.33  -38.18  -99.86
   2.324  -38.62 -102.63   -0.04   -7.23   -0.01   -7.38  -39.98  -96.27
   2.335  -38.80 -103.91   -0.04   -7.29   -0.01   -7.44  -40.54  -83.40
   2.346  -39.09 -104.54   -0.04   -7.34   -0.01   -7.49  -39.27  -75.29
   2.358  -39.36 -104.00   -0.04   -7.39   -0.01   -7.55  -37.89  -77.74
   2.369  -39.50 -103.13   -0.04   -7.44   -0.01   -7.60  -37.37  -85.61
   2.380  -39.52 -102.49   -0.04   -7.51   -0.01   -7.66  -37.88  -93.94
   2.391  -39.54 -102.49   -0.04   -7.55   -0.01   -7.71  -39.40  -98.81
   2.403  -39.68 -103.05   -0.04   -7.61   -0.01   -7.78  -41.28  -93.03
   2.414  -39.99 -104.06   -0.04   -7.67   -0.01   -7.83  -41.60  -78.10
   2.425  -40.42 -103.85   -0.04   -7.71   -0.01   -7.88  -39.95  -70.82
   2.436  -40.86 -102.89   -0.04   -7.77   -0.01   -7.94  -38.54  -75.04
   2.448  -41.15 -101.49   -0.04   -7.82   -0.01   -7.99  -38.22  -84.13
   2.459  -41.34 -101.07   -0.04   -7.88   -0.01   -8.03  -38.95  -93.45
   2.470  -41.47 -102.10   -0.04   -7.92   -0.01   -8.09  -40.88  -97.90
   2.481  -41.78 -104.07   -0.04   -7.97   -0.01   -8.14  -43.13  -89.45
   2.493  -42.28 -105.87   -0.04   -8.03   -0.01   -8.19  -43.01  -71.48
   2.504  -42.88 -106.30   -0.05   -8.08   -0.01   -8.25  -40.95  -65.73
   2.515  -43.29 -105.05   -0.05   -8.12   -0.01   -8.30  -39.42  -72.47
   2.526  -43.37 -103.18   -0.05   -8.18   -0.01   -8.35  -39.12  -83.67
   2.538  -43.16 -102.22   -0.05   -8.23   -0.01   -8.40  -39.99  -94.84
   2.549  -42.94 -103.19   -0.05   -8.26   -0.01   -8.44  -42.14 -100.98
   2.560  -42.92 -104.90   -0.05   -8.30   -0.01   -8.48  -44.81  -92.08
   2.571  -43.16 -105.95   -0.05   -8.36   -0.01   -8.53  -44.65  -70.92
   2.583  -43.57 -105.52   -0.05   -8.39   -0.01   -8.58  -42.26  -64.88
   2.594  -43.82 -103.07   -0.05   -8.43   -0.01   -8.63  -40.63  -73.30
   2.605  -43.86 -100.62   -0.04   -8.49   -0.01   -8.68  -40.30  -86.02
   2.616  -43.67  -99.96   -0.04   -8.54   -0.01   -8.72  -41.34  -99.04
   2.628  -43.55 -101.68   -0.04   -8.58   -0.01   -8.78  -44.04 -107.68
   2.639  -43.72 -105.47   -0.04   -8.63   -0.01   -8.83  -48.19  -98.57
   2.650  -44.28 -109.48   -0.04   -8.69   -0.01   -8.89  -48.52  -64.14
   2.661  -45.06 -112.27   -0.04   -8.74   -0.01   -8.95  -45.07  -55.46
   2.673  -45.71 -112.81   -0.04   -8.79   -0.01   -9.00  -43.20  -65.63
   2.684  -46.02 -113.54   -0.04   -8.85   -0.01   -9.05  -43.10  -80.52
   2.695  -45.98 -115.71   -0.04   -8.91   -0.01   -9.11  -44.78  -95.33
   2.706  -45.86 -119.53   -0.04   -8.96   -0.01   -9.16  -48.94 -104.48
   2.718  -45.90 -124.66   -0.04   -9.01   -0.01   -9.21  -55.55  -70.88
   2.729  -46.25 -129.43   -0.04   -9.07   -0.01   -9.27  -50.46  -27.41
   2.740  -46.77 -132.64   -0.04   -9.11   -0.01   -9.32  -46.09  -34.94
   2.751  -47.25 -133.56   -0.04   -9.17   -0.01   -9.38  -44.44  -52.45
   2.763  -47.55 -132.93   -0.04   -9.22   -0.01   -9.44  -44.76  -71.85
   2.774  -47.54 -132.09   -0.04   -9.28   -0.01   -9.49  -46.96  -90.58
   2.785  -47.46 -135.09   -0.04   -9.34   -0.01   -9.55  -52.76 -102.62
   2.796  -47.79 -140.38   -0.04   -9.39   -0.01   -9.60  -61.02  -22.05
   2.808  -48.50 -147.08   -0.04   -9.45   -0.01   -9.65  -50.19   -1.42
   2.819  -49.60 -153.38   -0.04   -9.48   -0.01   -9.71  -46.27  -18.46
   2.830  -51.16 -157.91   -0.04   -9.53   -0.01   -9.77  -45.27  -38.44
   2.841  -51.92 -158.19   -0.04   -9.60   -0.01   -9.82  -46.45  -58.04
   2.853  -52.19 -159.71   -0.04   -9.65   -0.01   -9.87  -50.53  -75.51
   2.864  -51.59 -164.10   -0.04   -9.70   -0.01   -9.92  -63.31  -46.88
   2.875  -50.68 -172.35   -0.04   -9.76   -0.01   -9.98  -52.41   35.00
   2.886  -50.13  177.33   -0.04   -9.82   -0.01  -10.04  -47.05   20.29
   2.898  -50.10  167.92   -0.04   -9.86   -0.01  -10.10  -45.21    0.70
   2.909  -50.49  160.82   -0.04   -9.91   -0.01  -10.16  -45.57  -18.27
   2.920  -51.16  160.66   -0.04   -9.98   -0.01  -10.21  -48.14  -35.26
   2.931  -51.50  164.99   -0.04  -10.03   -0.01  -10.27  -54.39  -35.24
   2.943  -50.70  166.89   -0.04  -10.08   -0.01  -10.33  -55.58   38.21
   2.954  -49.89  166.22   -0.04  -10.13   -0.01  -10.38  -48.48   41.65
   2.965  -49.01  160.14   -0.04  -10.19   -0.01  -10.44  -45.37   25.79
   2.976  -48.90  152.88   -0.04  -10.24   -0.01  -10.49  -44.49    7.20
   2.988  -48.87  145.84   -0.04  -10.29   -0.01  -10.54  -45.50  -11.54
   2.999  -49.25  140.02   -0.04  -10.35   -0.01  -10.60  -48.93  -23.36
   3.010  -49.29  136.08   -0.04  -10.41   -0.01  -10.65  -55.01    3.06
   3.021  -49.14  134.44   -0.04  -10.45   -0.01  -10.70  -50.15   51.82
   3.033  -48.80  132.79   -0.04  -10.51   -0.01  -10.76  -45.10   46.49
   3.044  -49.03   77.52   -0.04  -10.56   -0.01  -10.81  -43.12   48.51
   3.055  -48.52   75.52   -0.04  -10.61   -0.01  -10.87  -43.53   30.48
   3.066  -48.45   75.34   -0.04  -10.66   -0.01  -10.93  -46.06   17.38
   3.078  -48.59   79.27   -0.04  -10.72   -0.01  -10.99  -51.24   26.41
   3.089  -48.23   84.93   -0.04  -10.78   -0.01  -11.05  -50.23   81.25
   3.100  -47.41   90.04   -0.04  -10.83   -0.01  -11.10  -44.74   85.07
   3.111  -46.25   91.49   -0.04  -10.89   -0.01  -11.16  -41.89   72.91
   3.123  -45.32   88.17   -0.04  -10.95   -0.01  -11.21  -40.92   57.36
   3.134  -44.89   83.88   -0.04  -10.99   -0.01  -11.27  -41.81   42.98
   3.145  -44.93   79.30   -0.04  -11.05   -0.01  -11.32  -44.01   35.66
   3.156  -45.29   78.57   -0.04  -11.11   -0.01  -11.38  -47.20   46.12
   3.168  -45.46   81.69   -0.04  -11.16   -0.01  -11.44  -46.44   74.53
   3.179  -44.90   86.70   -0.04  -11.22   -0.01  -11.50  -43.11   79.62
   3.190  -43.74   89.25   -0.04  -11.29   -0.01  -11.57  -40.90   71.17
   3.201  -42.45   88.24   -0.04  -11.35   -0.01  -11.63  -40.13   59.57
   3.213  -41.49   84.06   -0.04  -11.40   -0.01  -11.69  -40.61   48.75
   3.224  -41.05   79.57   -0.04  -11.46   -0.01  -11.75  -42.02   45.78
   3.235  -40.94   76.56   -0.04  -11.53   -0.01  -11.81  -43.30   56.12
   3.246  -41.03   75.32   -0.04  -11.60   -0.01  -11.88  -42.15   70.38
   3.258  -41.06   77.03   -0.04  -11.65   -0.01  -11.94  -39.84   72.09
   3.269  -40.74   79.48   -0.04  -11.72   -0.01  -12.00  -38.26   65.60
   3.280  -40.21   80.40   -0.05  -11.79   -0.01  -12.06  -37.83   56.19
   3.291  -39.70   80.00   -0.05  -11.84   -0.01  -12.13  -38.43   48.37
   3.303  -39.34   78.20   -0.05  -11.89   -0.01  -12.19  -39.96   47.62
   3.314  -39.20   76.76   -0.05  -11.97   -0.01  -12.26  -41.07   58.02
   3.325  -39.09   76.36   -0.05  -12.03   -0.01  -12.32  -40.12   71.40
   3.336  -38.93   76.61   -0.05  -12.08   -0.01  -12.39  -38.15   73.35
