!  American Technical Ceramics  Date:   4/26/2005
!  One Norden Lane
!  Huntington Station,  NY.   11746-2102
!  Tel:  (631) 622-4700               Fax:  (631) 622-4748
!  Part Number  600S1R5         Mounting Orientation: Horizontal
!  Description: Ultra Low ESR Microwave capacitors
!  Application: Coupling, Bypass, Tuning, DC Block
!               Filters, Matching
# GHZ S DB R 50
! Freq   |S11|   S11 Ph  |S21|   S21 Ph  |S12|   S12 Ph  |S22|   S22 Ph
   0.000   0.00    0.00	  -999.00  90.00  -999.00  90.00    0.00    0.00
   0.400   -0.54  -21.30   -9.22   68.24   -9.19   68.09   -0.55  -21.59
   0.482   -0.76  -25.20   -7.84   63.70   -7.84   63.41   -0.90  -25.76
   0.563   -1.00  -28.54   -6.73   60.11   -6.76   59.54   -1.20  -30.05
   0.645   -1.31  -31.68   -5.83   56.84   -5.83   56.12   -1.39  -33.69
   0.726   -1.69  -35.19   -5.14   53.50   -5.10   52.79   -1.67  -36.83
   0.808   -1.91  -38.37   -4.47   50.24   -4.46   49.77   -1.98  -40.11
   0.889   -2.31  -41.34   -3.98   47.56   -3.92   46.94   -2.26  -42.80
   0.971   -2.53  -44.25   -3.51   44.56   -3.52   44.39   -2.70  -45.55
   1.052   -2.91  -46.66   -3.13   42.14   -3.13   41.64   -2.98  -48.33
   1.134   -3.24  -48.93   -2.80   39.95   -2.81   39.42   -3.31  -50.66
   1.215   -3.62  -51.79   -2.57   37.51   -2.56   36.97   -3.66  -52.72
   1.297   -3.89  -53.84   -2.27   35.29   -2.28   34.81   -3.99  -55.14
   1.378   -4.22  -55.87   -2.08   33.50   -2.07   33.10   -4.30  -56.71
   1.460   -4.54  -57.79   -1.89   31.44   -1.92   31.06   -4.69  -58.87
   1.541   -4.89  -59.61   -1.70   29.76   -1.71   29.17   -4.95  -60.67
   1.623   -5.21  -61.27   -1.56   28.27   -1.57   27.75   -5.25  -62.03
   1.704   -5.55  -62.76   -1.46   26.62   -1.45   25.98   -5.55  -62.90
   1.786   -5.81  -64.91   -1.31   25.01   -1.32   24.57   -5.90  -65.06
   1.867   -6.15  -66.38   -1.22   23.77   -1.23   23.26   -6.20  -66.16
   1.949   -6.47  -67.86   -1.12   22.26   -1.16   21.72   -6.51  -67.70
   2.030   -6.75  -69.46   -1.04   20.96   -1.04   20.45   -6.79  -68.70
   2.112   -7.06  -70.62   -0.96   19.76   -0.98   19.21   -7.07  -69.90
   2.193   -7.34  -72.13   -0.90   18.48   -0.91   18.01   -7.36  -70.93
   2.275   -7.62  -73.28   -0.82   17.35   -0.83   16.91   -7.64  -71.97
   2.356   -7.92  -74.42   -0.76   16.32   -0.79   15.90   -7.90  -72.96
   2.438   -8.22  -75.79   -0.73   15.28   -0.74   14.72   -8.19  -73.77
   2.519   -8.47  -77.02   -0.68   14.21   -0.69   13.72   -8.45  -74.81
   2.601   -8.73  -77.98   -0.64   13.11   -0.66   12.74   -8.72  -75.78
   2.682   -9.01  -79.17   -0.58   12.23   -0.61   11.71   -8.94  -76.43
   2.764   -9.27  -79.91   -0.55   11.28   -0.56   10.90   -9.21  -77.34
   2.845   -9.52  -80.88   -0.52   10.38   -0.54    9.93   -9.46  -78.15
   2.927   -9.79  -81.67   -0.50    9.43   -0.53    9.10   -9.70  -78.87
   3.008  -10.01  -82.70   -0.49    8.61   -0.50    8.14   -9.99  -79.63
   3.090  -10.21  -83.17   -0.46    7.85   -0.49    7.58  -10.19  -80.52
   3.171  -10.42  -84.15   -0.43    7.18   -0.46    6.77  -10.40  -80.87
   3.253  -10.64  -84.71   -0.42    6.45   -0.44    6.15  -10.65  -81.66
   3.334  -10.86  -85.49   -0.39    5.72   -0.43    5.47  -10.81  -82.24
   3.416  -11.06  -86.10   -0.37    5.09   -0.40    4.79  -11.01  -82.77
   3.497  -11.25  -86.82   -0.36    4.42   -0.37    4.11  -11.26  -83.54
   3.579  -11.51  -87.34   -0.33    3.62   -0.36    3.46  -11.43  -84.43
   3.660  -11.66  -88.08   -0.31    3.04   -0.33    2.76  -11.66  -84.79
   3.742  -11.89  -88.55   -0.32    2.39   -0.33    2.27  -11.86  -85.54
   3.823  -12.07  -89.35   -0.29    1.70   -0.32    1.56  -12.03  -86.15
   3.905  -12.23  -90.08   -0.28    1.14   -0.30    0.98  -12.22  -86.67
   3.986  -12.41  -90.58   -0.28    0.61   -0.29    0.45  -12.44  -87.36
   4.068  -12.63  -91.28   -0.27   -0.06   -0.28   -0.14  -12.61  -88.19
   4.149  -12.80  -91.98   -0.25   -0.46   -0.27   -0.62  -12.82  -88.49
   4.231  -13.04  -92.38   -0.25   -1.05   -0.27   -1.09  -13.06  -89.20
   4.312  -13.25  -93.18   -0.22   -1.68   -0.24   -1.76  -13.23  -89.50
   4.394  -13.42  -93.58   -0.20   -2.19   -0.22   -2.25  -13.40  -89.73
   4.475  -13.58  -93.93   -0.20   -2.66   -0.22   -2.74  -13.61  -90.03
   4.557  -13.80  -94.46   -0.19   -3.30   -0.20   -3.30  -13.73  -90.66
   4.638  -13.91  -95.21   -0.17   -3.75   -0.18   -3.80  -13.94  -90.87
   4.720  -14.14  -95.59   -0.19   -4.35   -0.19   -4.38  -14.14  -91.32
   4.801  -14.29  -96.38   -0.17   -4.91   -0.17   -4.94  -14.32  -91.80
   4.883  -14.51  -96.96   -0.16   -5.37   -0.16   -5.33  -14.46  -91.90
   4.964  -14.63  -97.59   -0.16   -5.80   -0.16   -5.87  -14.75  -92.21
   5.046  -14.89  -98.07   -0.15   -6.41   -0.15   -6.31  -14.84  -92.62
   5.127  -14.99  -98.90   -0.14   -6.78   -0.15   -6.79  -15.05  -92.65
   5.209  -15.22  -99.34   -0.15   -7.34   -0.15   -7.33  -15.26  -93.19
   5.290  -15.43  -99.86   -0.13   -7.86   -0.12   -7.81  -15.40  -93.56
   5.372  -15.59 -100.85   -0.12   -8.25   -0.14   -8.22  -15.61  -93.26
   5.453  -15.79 -100.88   -0.13   -8.69   -0.12   -8.75  -15.80  -94.20
   5.535  -16.04 -101.92   -0.12   -9.20   -0.11   -9.14  -15.93  -93.97
   5.616  -16.17 -102.69   -0.11   -9.64   -0.12   -9.62  -16.19  -94.07
   5.698  -16.42 -102.99   -0.11  -10.13   -0.11  -10.12  -16.35  -94.72
   5.779  -16.61 -104.01   -0.09  -10.60   -0.10  -10.51  -16.54  -94.48
   5.861  -16.84 -104.37   -0.10  -11.00   -0.09  -10.99  -16.76  -94.84
   5.942  -17.08 -104.79   -0.10  -11.44   -0.08  -11.46  -16.97  -95.07
   6.024  -17.37 -105.97   -0.10  -11.95   -0.10  -11.84  -17.13  -94.41
   6.105  -17.48 -106.00   -0.09  -12.35   -0.08  -12.42  -17.44  -95.00
   6.187  -17.81 -106.81   -0.08  -12.84   -0.08  -12.77  -17.58  -94.69
   6.268  -17.93 -106.79   -0.08  -13.17   -0.07  -13.25  -17.88  -94.71
   6.350  -18.22 -107.29   -0.08  -13.61   -0.07  -13.66  -18.03  -94.73
   6.431  -18.49 -108.11   -0.09  -14.03   -0.06  -14.05  -18.17  -94.51
   6.513  -18.67 -109.01   -0.08  -14.50   -0.07  -14.64  -18.44  -94.70
   6.594  -18.90 -109.40   -0.06  -14.88   -0.06  -15.07  -18.72  -94.69
   6.676  -19.18 -109.99   -0.07  -15.28   -0.07  -15.47  -18.96  -94.99
   6.757  -19.38 -110.27   -0.06  -15.64   -0.07  -15.90  -19.26  -95.03
   6.839  -19.77 -110.93   -0.06  -16.10   -0.06  -16.23  -19.38  -94.81
   6.920  -19.85 -111.87   -0.05  -16.54   -0.08  -16.70  -19.73  -94.56
   7.002  -20.07 -112.79   -0.05  -17.03   -0.07  -17.09  -20.01  -94.30
   7.083  -20.27 -113.13   -0.04  -17.40   -0.06  -17.50  -20.29  -94.86
   7.165  -20.61 -114.03   -0.04  -17.79   -0.06  -17.90  -20.56  -94.77
   7.246  -21.02 -114.63   -0.05  -18.19   -0.06  -18.27  -20.82  -95.13
   7.328  -21.32 -115.90   -0.05  -18.64   -0.06  -18.65  -21.18  -94.17
   7.409  -21.58 -117.22   -0.04  -19.09   -0.08  -19.11  -21.62  -93.81
   7.491  -21.91 -117.45   -0.03  -19.44   -0.05  -19.53  -21.94  -94.07
   7.572  -22.19 -118.18   -0.03  -19.84   -0.04  -19.95  -22.32  -93.33
   7.654  -22.71 -119.47   -0.04  -20.24   -0.05  -20.33  -22.50  -93.27
   7.735  -23.05 -120.53   -0.03  -20.63   -0.05  -20.70  -22.94  -92.39
   7.817  -23.53 -121.63   -0.03  -21.09   -0.04  -21.04  -23.30  -91.66
   7.898  -23.87 -121.76   -0.02  -21.51   -0.04  -21.57  -23.80  -91.89
   7.980  -24.41 -122.33   -0.02  -21.83   -0.04  -21.90  -24.14  -91.08
   8.061  -24.98 -122.86   -0.03  -22.20   -0.04  -22.28  -24.56  -91.10
   8.143  -25.39 -124.79   -0.02  -22.67   -0.03  -22.73  -24.95  -89.76
   8.224  -25.89 -125.76   -0.02  -23.03   -0.04  -23.08  -25.49  -88.96
   8.306  -26.47 -126.24   -0.02  -23.44   -0.04  -23.48  -25.93  -88.02
   8.387  -26.37 -124.34   -0.02  -23.88   -0.05  -23.93  -26.17  -91.95
   8.469  -27.03 -124.99   -0.02  -24.22   -0.04  -24.26  -26.61  -90.99
   8.550  -27.66 -126.25   -0.03  -24.64   -0.04  -24.72  -27.06  -89.67
   8.632  -28.37 -126.95   -0.03  -25.06   -0.04  -25.08  -27.58  -87.85
   8.713  -28.95 -126.45   -0.03  -25.43   -0.05  -25.49  -28.07  -86.36
   8.795  -29.52 -127.10   -0.04  -25.73   -0.06  -25.79  -28.32  -85.01
   8.876  -30.24 -127.50   -0.04  -26.04   -0.05  -26.13  -29.01  -84.91
   8.958  -30.82 -128.28   -0.03  -26.37   -0.05  -26.41  -29.85  -83.06
   9.039  -31.55 -130.14   -0.02  -26.74   -0.03  -26.77  -30.68  -79.30
   9.121  -32.47 -131.67   -0.02  -27.10   -0.03  -27.12  -31.27  -74.20
   9.202  -33.31 -132.50   -0.01  -27.47   -0.02  -27.56  -31.58  -68.50
   9.284  -34.10 -134.66   -0.01  -27.92   -0.01  -28.00  -31.71  -65.18
   9.365  -34.92 -141.23   -0.01  -28.35   -0.01  -28.34  -31.87  -62.67
   9.447  -36.70 -148.89    0.00  -28.75   -0.02  -28.78  -32.28  -61.68
   9.528  -39.06 -153.97   -0.01  -29.05   -0.01  -29.10  -32.90  -59.06
   9.610  -41.41 -154.05   -0.01  -29.39   -0.01  -29.38  -33.67  -54.55
   9.691  -43.56 -158.32   -0.01  -29.77   -0.01  -29.83  -34.40  -50.41
   9.773  -45.18 -167.78   -0.01  -30.19   -0.01  -30.21  -34.90  -43.16
   9.854  -47.16  164.93   -0.01  -30.60   -0.01  -30.63  -35.37  -35.60
   9.936  -47.72  131.30   -0.01  -31.01   -0.01  -31.01  -35.29  -26.44
  10.017  -46.01  105.28   -0.01  -31.45   -0.01  -31.41  -35.29  -18.99
  10.099  -43.68   90.80   -0.01  -31.83   -0.01  -31.89  -35.06  -12.41
  10.180  -41.63   79.67   -0.01  -32.23   -0.01  -32.26  -34.56   -7.30
  10.262  -40.31   74.67   -0.01  -32.68   -0.01  -32.66  -34.22   -1.75
  10.343  -38.67   67.61   -0.01  -33.07   -0.01  -33.08  -33.85    2.13
  10.425  -37.51   65.33   -0.01  -33.49   -0.01  -33.38  -33.43    6.23
  10.506  -36.28   63.05   -0.01  -33.85   -0.01  -33.86  -33.00   10.77
  10.588  -35.31   61.98   -0.01  -34.25   -0.01  -34.22  -32.64   14.11
  10.669  -34.32   61.29   -0.01  -34.57   -0.01  -34.54  -32.03   17.40
  10.751  -33.54   61.10   -0.01  -35.01   -0.01  -34.99  -31.41   20.34
  10.832  -32.48   59.77   -0.01  -35.36   -0.01  -35.37  -30.95   21.39
  10.914  -31.56   55.85   -0.01  -35.77    0.00  -35.74  -30.50   22.94
  10.995  -30.98   53.24   -0.01  -36.07    0.00  -36.16  -30.24   23.84
  11.077  -30.47   50.25   -0.01  -36.49   -0.01  -36.49  -29.92   25.28
  11.158  -30.31   49.68   -0.01  -36.90   -0.01  -36.91  -29.69   26.04
  11.240  -29.87   48.38   -0.01  -37.28   -0.01  -37.26  -29.30   28.50
  11.321  -29.52   48.01   -0.01  -37.67   -0.01  -37.65  -29.00   30.36
  11.403  -29.26   47.59   -0.01  -38.04   -0.01  -38.07  -28.67   30.82
  11.484  -28.83   47.61   -0.01  -38.47   -0.01  -38.50  -28.33   32.62
  11.566  -28.53   48.08   -0.01  -38.90   -0.01  -38.91  -27.98   33.16
  11.647  -28.03   47.98   -0.01  -39.34   -0.01  -39.29  -27.65   35.21
  11.729  -27.56   47.62   -0.01  -39.78   -0.01  -39.72  -27.26   36.84
  11.810  -27.01   47.92   -0.01  -40.17   -0.01  -40.12  -26.91   37.49
  11.892  -26.64   46.68   -0.01  -40.70   -0.01  -40.66  -26.37   38.57
  11.973  -26.13   46.13   -0.01  -41.14   -0.01  -41.18  -26.00   38.69
  12.055  -25.81   45.39   -0.01  -41.58   -0.01  -41.58  -25.52   39.30
  12.136  -25.45   44.55   -0.01  -42.07   -0.01  -42.05  -25.14   39.44
  12.218  -24.95   44.16   -0.01  -42.48   -0.01  -42.58  -24.83   39.15
  12.299  -24.69   43.56   -0.01  -42.95   -0.01  -42.99  -24.40   39.10
  12.381  -24.32   42.65   -0.01  -43.47   -0.01  -43.44  -24.01   39.57
  12.462  -23.79   42.30   -0.01  -43.94   -0.01  -43.94  -23.77   39.25
  12.544  -23.55   41.64    0.00  -44.35   -0.01  -44.39  -23.33   39.32
  12.625  -23.08   41.46   -0.01  -44.83   -0.02  -44.84  -23.05   39.39
  12.707  -22.69   41.17   -0.01  -45.40   -0.01  -45.46  -22.67   39.51
  12.788  -22.37   40.36   -0.03  -45.85   -0.03  -45.97  -22.14   39.78
  12.870  -21.77   39.02   -0.04  -46.48   -0.06  -46.47  -21.89   40.24
  12.951  -21.31   38.95   -0.02  -46.92   -0.03  -46.98  -21.29   39.51
  13.033  -20.84   38.17   -0.03  -47.50   -0.04  -47.51  -20.84   39.28
  13.114  -20.37   36.72   -0.06  -48.15   -0.07  -48.10  -20.34   39.08
  13.196  -19.97   36.80   -0.05  -48.66   -0.08  -48.70  -19.78   38.26
  13.277  -19.41   34.74   -0.07  -49.33   -0.07  -49.32  -19.26   38.05
  13.359  -18.83   34.05   -0.09  -50.14   -0.11  -50.17  -18.81   36.65
  13.440  -18.34   33.07   -0.10  -50.77   -0.12  -50.71  -18.25   35.58
  13.522  -17.72   31.59   -0.13  -51.51   -0.14  -51.54  -17.65   34.92
  13.603  -17.10   30.09   -0.14  -52.52   -0.18  -52.74  -17.05   33.51
  13.685  -16.41   28.13   -0.21  -53.33   -0.21  -53.30  -16.44   32.59
  13.766  -15.77   26.45   -0.26  -54.21   -0.28  -54.19  -15.77   31.15
  13.848  -14.96   24.41   -0.32  -55.53   -0.33  -55.50  -15.02   29.01
  13.929  -14.16   22.15   -0.40  -56.69   -0.42  -56.64  -14.13   27.12
  14.011  -13.24   19.32   -0.52  -58.04   -0.55  -58.06  -13.23   24.32
  14.092  -12.19   14.48   -0.72  -59.91   -0.69  -59.95  -12.23   21.31
  14.174  -11.05    9.91   -0.96  -61.92   -0.99  -61.80  -11.14   15.86
  14.255   -9.92    2.98   -1.41  -64.15   -1.43  -64.21   -9.93    9.59
  14.337   -8.63   -6.09   -2.12  -66.38   -2.11  -66.11   -8.70    0.86
  14.418   -7.48  -18.13   -3.28  -66.97   -3.28  -66.24   -7.53  -11.33
  14.500   -6.71  -34.72   -4.89  -61.05   -4.83  -60.69   -6.77  -27.31
  14.581   -6.67  -54.02   -5.46  -45.67   -5.31  -46.15   -6.84  -45.95
  14.663   -7.68  -72.14   -4.09  -34.84   -4.05  -35.22   -7.78  -64.30
  14.744   -9.30  -87.20   -2.62  -32.99   -2.65  -33.48   -9.36  -77.95
  14.826  -11.10  -97.55   -1.70  -34.70   -1.72  -35.19  -11.26  -88.23
  14.907  -12.99 -105.02   -1.16  -37.05   -1.18  -37.25  -13.12  -95.30
  14.989  -14.85 -110.96   -0.83  -39.23   -0.85  -39.26  -14.89  -99.91
  15.070  -16.54 -114.96   -0.62  -41.10   -0.63  -41.23  -16.68 -103.16
  15.152  -18.34 -118.68   -0.48  -42.76   -0.49  -42.78  -18.39 -105.03
  15.233  -20.08 -122.27   -0.39  -44.20   -0.40  -44.15  -19.97 -106.01
  15.315  -21.92 -123.61   -0.32  -45.37   -0.32  -45.53  -21.71 -106.27
  15.396  -23.95 -125.60   -0.27  -46.56   -0.27  -46.57  -23.33 -106.72
  15.478  -26.09 -127.62   -0.24  -47.58   -0.24  -47.57  -25.18 -105.81
  15.559  -28.50 -130.16   -0.22  -48.50   -0.21  -48.56  -27.28 -104.23
  15.641  -31.71 -132.91   -0.21  -49.33   -0.19  -49.29  -29.43  -99.54
  15.722  -36.12 -138.14   -0.20  -50.11   -0.20  -49.94  -32.42  -90.84
  15.804  -43.96 -151.36   -0.20  -50.78   -0.18  -50.72  -35.40  -76.71
  15.885  -47.91   80.92   -0.20  -51.46   -0.19  -51.45  -37.80  -44.03
  15.967  -38.45   57.46   -0.20  -52.08   -0.19  -52.04  -37.03   -8.13
  16.048  -33.82   51.38   -0.20  -52.66   -0.18  -52.62  -34.20   10.45
  16.130  -31.19   48.60   -0.19  -53.23   -0.18  -53.16  -31.67   21.08
  16.211  -29.09   46.85   -0.20  -53.68   -0.19  -53.64  -29.57   25.57
  16.293  -27.38   45.69   -0.20  -54.25   -0.20  -54.17  -27.92   28.31
  16.374  -26.10   43.67   -0.20  -54.71   -0.18  -54.65  -26.64   29.48
  16.456  -25.09   42.30   -0.20  -55.12   -0.18  -55.16  -25.50   30.62
  16.537  -24.22   41.04   -0.21  -55.69   -0.19  -55.61  -24.70   30.74
  16.619  -23.43   40.08   -0.21  -56.17   -0.18  -56.21  -23.76   31.70
  16.700  -22.72   39.24   -0.22  -56.60   -0.19  -56.71  -23.02   32.30
  16.782  -21.98   38.28   -0.24  -57.03   -0.21  -57.00  -22.30   32.75
  16.863  -21.47   37.67   -0.22  -57.47   -0.20  -57.50  -21.54   32.87
  16.945  -20.91   37.01   -0.23  -57.90   -0.22  -57.78  -20.88   32.46
  17.026  -20.43   36.04   -0.23  -58.09   -0.20  -58.28  -20.33   33.21
  17.108  -19.90   35.94   -0.23  -58.73   -0.17  -58.80  -19.87   31.24
  17.189  -19.41   35.25   -0.23  -59.11   -0.18  -59.13  -19.36   31.07
  17.271  -19.00   34.23   -0.22  -59.65   -0.19  -59.82  -18.91   30.67
  17.352  -18.55   33.80   -0.23  -60.10   -0.21  -60.21  -18.43   29.41
  17.434  -18.11   31.94   -0.22  -60.42   -0.22  -60.64  -18.03   29.95
  17.515  -17.67   30.62   -0.25  -60.99   -0.22  -61.19  -17.79   27.79
  17.597  -17.43   29.59   -0.25  -61.38   -0.21  -61.59  -17.50   27.04
  17.678  -17.35   28.38   -0.25  -61.79   -0.24  -61.93  -17.20   26.01
  17.760  -17.11   28.32   -0.25  -62.19   -0.21  -62.52  -16.97   25.62
  17.841  -16.89   27.98   -0.25  -62.54   -0.24  -62.88  -16.85   25.86
  17.923  -16.51   27.67   -0.26  -62.86   -0.24  -63.29  -16.74   25.73
  18.004  -16.24   27.39   -0.25  -63.40   -0.24  -63.72  -16.44   25.66
  18.086  -16.05   27.04   -0.25  -63.87   -0.26  -64.08  -16.09   25.07
  18.167  -15.72   25.83   -0.25  -64.21   -0.26  -64.60  -15.89   25.71
  18.249  -15.52   25.24   -0.26  -64.79   -0.26  -65.13  -15.61   24.68
  18.330  -15.25   24.41   -0.26  -65.22   -0.26  -65.61  -15.39   24.54
  18.412  -15.00   23.99   -0.28  -65.65   -0.26  -66.14  -15.26   23.93
  18.493  -14.88   23.55   -0.27  -66.14   -0.27  -66.46  -14.93   23.22
  18.575  -14.70   22.24   -0.27  -66.54   -0.30  -66.91  -14.79   23.35
  18.656  -14.49   21.64   -0.28  -66.99   -0.31  -67.41  -14.59   22.55
  18.738  -14.29   21.16   -0.29  -67.40   -0.30  -67.71  -14.43   22.39
  18.819  -14.13   20.23   -0.28  -67.91   -0.33  -68.30  -14.30   21.73
  18.901  -13.94   20.09   -0.28  -68.39   -0.30  -68.66  -14.09   21.34
  18.982  -13.83   19.09   -0.28  -68.86   -0.33  -69.11  -13.91   21.16
  19.064  -13.58   18.68   -0.29  -69.22   -0.34  -69.59  -13.79   20.82
  19.145  -13.46   18.33   -0.31  -69.74   -0.33  -70.09  -13.66   19.96
  19.227  -13.34   17.60   -0.30  -70.30   -0.34  -70.56  -13.40   19.43
  19.308  -13.17   16.66   -0.31  -70.82   -0.36  -71.12  -13.32   19.45
  19.390  -13.01   16.25   -0.32  -71.35   -0.36  -71.58  -13.13   18.47
  19.471  -12.79   14.97   -0.33  -71.83   -0.40  -72.08  -13.05   18.59
  19.553  -12.65   15.07   -0.37  -72.18   -0.40  -72.60  -12.93   16.93
  19.634  -12.53   14.06   -0.39  -72.72   -0.42  -73.00  -12.74   16.94
  19.716  -12.47   12.86   -0.40  -73.28   -0.42  -73.35  -12.56   16.51
  19.797  -12.24   12.16   -0.39  -73.66   -0.44  -73.94  -12.47   15.83
  19.879  -12.16   10.95   -0.39  -74.25   -0.46  -74.32  -12.33   15.47
  19.960  -11.96   10.49   -0.42  -74.58   -0.48  -74.88  -12.27   14.49
  20.042  -11.90    9.54   -0.42  -75.22   -0.46  -75.57  -12.09   13.74
  20.123  -11.88    8.43   -0.46  -75.87   -0.46  -75.89  -11.88   13.52
  20.205  -11.70    7.31   -0.44  -76.52   -0.47  -76.59  -11.82   13.18
  20.286  -11.61    6.63   -0.46  -77.07   -0.49  -77.19  -11.66   12.46
  20.368  -11.49    5.81   -0.45  -77.64   -0.51  -77.75  -11.57   11.89
  20.449  -11.41    5.38   -0.51  -78.26   -0.57  -78.59  -11.49   10.92
  20.531  -11.34    4.67   -0.53  -79.02   -0.51  -79.27  -11.19   10.09
  20.612  -11.18    2.97   -0.55  -79.82   -0.59  -79.77  -11.17   10.23
  20.694  -10.97    2.47   -0.56  -80.45   -0.60  -80.63  -11.04    9.05
  20.775  -10.86    1.28   -0.59  -81.18   -0.63  -81.20  -10.88    8.75
  20.857  -10.73    0.52   -0.66  -81.66   -0.70  -81.70  -10.81    8.16
  20.938  -10.60   -0.54   -0.72  -82.63   -0.74  -82.95  -10.60    6.91
  21.020  -10.49   -1.88   -0.76  -83.39   -0.73  -83.39  -10.33    6.87
  21.101  -10.20   -3.46   -0.78  -84.25   -0.83  -84.19  -10.32    6.29
  21.183  -10.12   -3.88   -0.85  -84.92   -0.85  -85.24  -10.07    4.85
  21.264   -9.92   -5.52   -0.88  -85.74   -0.91  -85.66   -9.92    5.05
  21.346   -9.73   -6.42   -1.00  -86.70   -1.04  -86.76   -9.76    4.13
  21.427   -9.51   -7.12   -1.06  -87.72   -1.08  -87.97   -9.38    2.60
  21.509   -9.20   -9.61   -1.17  -88.83   -1.17  -88.60   -9.17    2.97
  21.590   -8.89  -10.04   -1.24  -89.68   -1.29  -89.82   -8.86    0.62
  21.672   -8.59  -12.31   -1.36  -90.63   -1.36  -90.66   -8.51   -0.13
