    ! ASPAR, V1.3 12/19/03
! Network Analyzer Model: HP8753
! startf = 50.000 MHz, stopf = 10050.000 MHz, npoints = 801
! averaging off
! IFBW = 0.001 kHz
! Sweep Time = 2.704 seconds
! Bias1: V = 5.00 V, I = 86.949 mA
! Bias2: Not Used
! Operator: 
! Comments1: Deembedded to the lead  of the device
! Comments2: 
!              S11            S21              S12             S22

# MHZ  S  DB R  50 
50.000            -8.006   -28.755      27.458   164.678      -32.500   19.695      -18.830   -57.328
62.500            -8.591   -30.461      27.367   163.330      -31.210   19.639      -21.333   -57.760
75.000            -8.708   -29.987      27.234   161.611      -31.766   14.343      -22.936   -44.233
87.500            -9.012   -31.876      27.144   159.919      -31.812   16.361      -25.200   -40.305
100.000            -9.081   -33.412      27.017   158.215      -31.773   15.510      -25.542   -28.198
112.500            -9.267   -34.835      26.915   156.380      -31.403   18.328      -25.727   -19.355
125.000            -9.404   -36.736      26.826   154.543      -31.640   17.875      -26.080   -6.504
137.500            -9.490   -38.844      26.742   152.711      -31.129   18.581      -25.274   -1.037
150.000            -9.669   -41.091      26.610   150.778      -31.114   17.565      -25.043   4.820
162.500            -9.755   -42.820      26.493   148.963      -31.038   18.917      -24.358   9.101
175.000            -9.832   -44.707      26.367   147.097      -30.829   18.839      -23.913   12.592
187.500            -9.966   -47.040      26.239   145.391      -30.740   21.917      -23.312   12.914
200.000            -10.092   -49.092      26.116   143.583      -30.736   22.789      -22.868   15.363
212.500            -10.197   -51.323      25.980   141.887      -30.561   23.878      -22.300   16.698
225.000            -10.301   -53.293      25.847   140.162      -30.493   25.704      -21.953   17.249
237.500            -10.430   -55.280      25.709   138.480      -30.279   27.080      -21.381   17.385
250.000            -10.547   -57.462      25.568   136.909      -30.189   27.312      -21.149   17.559
262.500            -10.651   -59.345      25.432   135.285      -30.290   27.794      -20.811   17.040
275.000            -10.769   -61.434      25.294   133.701      -30.094   28.915      -20.452   16.453
287.500            -10.872   -63.390      25.138   132.148      -30.052   29.453      -20.212   16.591
300.000            -10.967   -65.362      24.995   130.762      -30.006   30.420      -19.885   15.568
312.500            -11.098   -67.112      24.845   129.242      -29.665   31.718      -19.747   15.092
325.000            -11.215   -68.960      24.698   127.839      -29.601   31.989      -19.459   14.110
337.500            -11.351   -70.837      24.552   126.407      -29.426   33.661      -19.222   13.857
350.000            -11.441   -72.576      24.408   125.073      -29.212   33.439      -19.117   12.629
362.500            -11.550   -74.301      24.260   123.768      -29.118   34.524      -18.876   11.725
375.000            -11.664   -76.116      24.106   122.481      -29.059   34.694      -18.721   10.984
387.500            -11.789   -77.871      23.963   121.264      -28.906   35.361      -18.541   10.432
400.000            -11.878   -79.491      23.816   119.999      -28.761   35.981      -18.412   9.521
412.500            -11.992   -81.416      23.662   118.851      -28.495   36.687      -18.358   8.576
425.000            -12.094   -82.851      23.529   117.649      -28.385   37.106      -18.211   7.921
437.500            -12.193   -84.492      23.376   116.526      -28.304   37.914      -18.076   6.988
450.000            -12.293   -86.210      23.239   115.405      -28.155   37.918      -17.997   6.145
462.500            -12.376   -87.622      23.090   114.341      -28.057   38.665      -17.853   5.183
475.000            -12.471   -89.195      22.952   113.215      -27.838   39.248      -17.778   4.469
487.500            -12.564   -90.871      22.815   112.173      -27.767   39.755      -17.702   3.498
500.000            -12.662   -92.164      22.679   111.145      -27.605   40.001      -17.632   2.783
512.500            -12.736   -93.652      22.532   110.174      -27.455   39.749      -17.549   1.978
525.000            -12.772   -94.749      22.390   109.178      -27.332   40.538      -17.483   1.263
537.500            -12.917   -96.583      22.254   108.230      -27.211   41.120      -17.446   0.433
550.000            -13.027   -98.059      22.114   107.252      -27.103   41.472      -17.345   -0.573
562.500            -13.111   -99.361      21.990   106.332      -26.893   41.413      -17.266   -1.436
575.000            -13.186   -100.639      21.859   105.468      -26.791   41.411      -17.228   -2.434
587.500            -13.247   -102.032      21.728   104.496      -26.724   42.115      -17.190   -3.013
600.000            -13.330   -103.450      21.599   103.591      -26.581   42.162      -17.148   -3.626
612.500            -13.404   -104.722      21.473   102.733      -26.470   42.346      -17.083   -4.416
625.000            -13.497   -105.987      21.338   101.902      -26.282   42.916      -17.036   -5.400
637.500            -13.566   -107.237      21.218   101.059      -26.166   43.032      -16.991   -6.260
650.000            -13.624   -108.528      21.096   100.174      -26.090   42.979      -16.964   -6.793
662.500            -13.707   -109.775      20.974   99.400      -25.933   43.014      -16.948   -7.488
675.000            -13.774   -111.014      20.841   98.587      -25.851   43.013      -16.887   -8.434
687.500            -13.850   -112.195      20.721   97.842      -25.713   43.362      -16.861   -9.049
700.000            -13.889   -113.389      20.614   97.077      -25.604   43.238      -16.835   -9.653
712.500            -13.969   -114.645      20.499   96.284      -25.504   43.418      -16.785   -10.443
725.000            -14.026   -115.725      20.376   95.560      -25.311   43.614      -16.798   -11.140
737.500            -14.068   -116.923      20.261   94.764      -25.171   43.799      -16.763   -11.764
750.000            -14.148   -118.150      20.159   93.994      -25.066   43.729      -16.714   -12.392
762.500            -14.189   -119.420      20.029   93.337      -25.008   44.041      -16.703   -13.250
775.000            -14.263   -120.405      19.918   92.594      -24.912   43.725      -16.662   -13.710
787.500            -14.333   -121.271      19.798   91.928      -24.725   43.851      -16.681   -14.303
800.000            -14.389   -122.528      19.690   91.110      -24.622   43.926      -16.681   -15.318
812.500            -14.445   -123.550      19.602   90.469      -24.549   43.734      -16.630   -15.885
825.000            -14.472   -124.649      19.490   89.834      -24.404   43.716      -16.600   -16.329
837.500            -14.533   -125.775      19.390   89.133      -24.284   43.556      -16.556   -17.114
850.000            -14.568   -126.797      19.273   88.485      -24.261   43.710      -16.546   -17.679
862.500            -14.613   -127.744      19.175   87.754      -24.081   43.864      -16.569   -18.327
875.000            -14.777   -129.205      19.079   87.115      -24.004   43.800      -16.571   -18.688
887.500            -14.719   -129.830      18.963   86.476      -23.910   43.920      -16.528   -19.387
900.000            -14.767   -130.991      18.862   85.774      -23.793   43.834      -16.515   -20.083
912.500            -14.822   -131.947      18.764   85.176      -23.728   43.840      -16.504   -20.699
925.000            -14.862   -132.940      18.665   84.606      -23.636   43.867      -16.509   -21.255
937.500            -14.899   -133.777      18.574   83.902      -23.513   43.523      -16.476   -21.846
950.000            -14.958   -134.806      18.480   83.377      -23.415   43.580      -16.475   -22.472
962.500            -14.990   -135.767      18.382   82.713      -23.325   43.444      -16.452   -22.999
975.000            -15.018   -136.758      18.282   82.119      -23.227   43.558      -16.459   -23.428
987.500            -15.067   -137.693      18.188   81.452      -23.113   43.274      -16.446   -24.213
1000.000            -15.102   -138.608      18.090   80.920      -23.043   43.215      -16.442   -24.888
1012.500            -15.143   -139.486      17.999   80.310      -22.945   42.927      -16.446   -25.320
1025.000            -15.178   -140.412      17.903   79.696      -22.866   43.051      -16.429   -25.883
1037.500            -15.197   -141.427      17.824   79.087      -22.759   42.748      -16.412   -26.372
1050.000            -15.240   -142.280      17.728   78.486      -22.653   42.792      -16.399   -26.756
1062.500            -15.285   -143.168      17.654   77.912      -22.577   42.545      -16.400   -27.551
1075.000            -15.307   -144.051      17.569   77.386      -22.479   42.513      -16.398   -28.080
1087.500            -15.351   -145.059      17.476   76.814      -22.397   42.480      -16.419   -28.594
1100.000            -15.375   -145.856      17.387   76.248      -22.342   42.149      -16.406   -29.089
1112.500            -15.401   -146.700      17.294   75.684      -22.220   41.993      -16.394   -29.655
1125.000            -15.429   -147.560      17.219   75.132      -22.150   41.886      -16.390   -30.181
1137.500            -15.478   -148.487      17.126   74.643      -22.060   41.957      -16.400   -30.687
1150.000            -15.503   -149.215      17.058   74.034      -21.978   41.748      -16.381   -31.300
1162.500            -15.526   -150.028      16.967   73.443      -21.879   41.384      -16.382   -31.862
1175.000            -15.563   -151.004      16.874   72.921      -21.833   41.453      -16.382   -32.264
1187.500            -15.570   -151.765      16.801   72.458      -21.721   41.289      -16.392   -32.640
1200.000            -15.607   -152.719      16.733   71.879      -21.661   41.097      -16.390   -33.210
1212.500            -15.644   -153.502      16.652   71.329      -21.574   40.916      -16.387   -33.640
1225.000            -15.669   -154.330      16.567   70.812      -21.471   40.817      -16.406   -34.176
1237.500            -15.678   -155.167      16.487   70.284      -21.408   40.654      -16.412   -34.838
1250.000            -15.717   -155.925      16.411   69.764      -21.345   40.521      -16.404   -35.316
1262.500            -15.709   -156.759      16.330   69.210      -21.234   40.322      -16.400   -35.743
1275.000            -15.744   -157.554      16.258   68.686      -21.177   40.193      -16.394   -36.148
1287.500            -15.794   -158.338      16.184   68.197      -21.084   39.949      -16.409   -36.705
1300.000            -15.791   -159.059      16.110   67.647      -21.026   39.787      -16.378   -37.181
1312.500            -15.810   -159.856      16.035   67.135      -20.967   39.465      -16.416   -37.694
1325.000            -15.828   -160.697      15.965   66.629      -20.895   39.358      -16.414   -37.937
1337.500            -15.859   -161.432      15.892   66.120      -20.842   39.288      -16.432   -38.444
1350.000            -15.873   -162.312      15.826   65.710      -20.749   38.910      -16.420   -39.093
1362.500            -15.889   -163.005      15.751   65.122      -20.681   38.702      -16.443   -39.626
1375.000            -15.902   -163.734      15.679   64.628      -20.578   38.666      -16.434   -40.012
1387.500            -15.919   -164.581      15.601   64.117      -20.548   38.549      -16.438   -40.649
1400.000            -15.972   -165.210      15.533   63.618      -20.442   38.267      -16.477   -41.090
1412.500            -15.790   -166.096      15.467   63.175      -20.401   38.124      -16.435   -41.259
1425.000            -15.942   -166.895      15.398   62.615      -20.336   37.861      -16.425   -41.664
1437.500            -16.032   -167.369      15.329   62.223      -20.241   37.610      -16.501   -42.532
1450.000            -15.995   -168.266      15.259   61.622      -20.193   37.600      -16.479   -42.734
1462.500            -15.987   -168.974      15.201   61.127      -20.122   37.260      -16.501   -43.201
1475.000            -16.021   -169.673      15.128   60.718      -20.048   37.127      -16.506   -43.640
1487.500            -16.030   -170.530      15.058   60.232      -19.990   37.090      -16.507   -43.999
1500.000            -16.060   -171.156      14.998   59.749      -19.937   36.656      -16.514   -44.630
1512.500            -16.056   -171.937      14.933   59.154      -19.849   36.452      -16.508   -45.173
1525.000            -16.059   -172.557      14.876   58.740      -19.802   36.280      -16.509   -45.622
1537.500            -16.068   -173.341      14.798   58.295      -19.710   36.060      -16.534   -45.979
1550.000            -16.087   -174.151      14.742   57.805      -19.655   35.839      -16.566   -46.072
1562.500            -16.128   -174.806      14.674   57.286      -19.613   35.451      -16.568   -46.599
1575.000            -16.129   -175.573      14.616   56.837      -19.532   35.446      -16.566   -47.002
1587.500            -16.120   -176.133      14.564   56.377      -19.458   35.045      -16.593   -47.555
1600.000            -16.116   -176.792      14.486   55.995      -19.405   34.926      -16.616   -48.079
1612.500            -16.116   -177.643      14.438   55.497      -19.310   34.677      -16.629   -48.523
1625.000            -16.105   -178.504      14.379   54.969      -19.277   34.515      -16.627   -48.678
1637.500            -16.147   -179.052      14.317   54.497      -19.225   34.361      -16.629   -49.051
1650.000            -16.156   -179.669      14.251   54.028      -19.172   34.002      -16.627   -49.682
1662.500            -16.159   179.736      14.187   53.544      -19.094   33.823      -16.660   -50.314
1675.000            -16.147   178.962      14.142   53.064      -19.023   33.484      -16.666   -50.646
1687.500            -16.148   178.221      14.088   52.707      -18.978   33.287      -16.705   -50.944
1700.000            -16.168   177.618      14.023   52.199      -18.919   33.098      -16.715   -51.323
1712.500            -16.176   177.018      13.966   51.741      -18.864   32.748      -16.726   -51.742
1725.000            -16.177   176.259      13.909   51.306      -18.790   32.543      -16.720   -52.238
1737.500            -16.173   175.674      13.841   50.774      -18.732   32.377      -16.749   -52.811
1750.000            -16.165   174.945      13.785   50.403      -18.697   32.273      -16.785   -53.119
1762.500            -16.159   174.280      13.736   49.907      -18.632   31.877      -16.815   -53.315
1775.000            -16.146   173.583      13.685   49.472      -18.574   31.685      -16.815   -53.707
1787.500            -16.145   172.996      13.627   48.964      -18.547   31.450      -16.808   -54.367
1800.000            -16.147   172.353      13.581   48.523      -18.475   31.253      -16.847   -54.678
1812.500            -16.176   171.753      13.520   48.127      -18.409   31.017      -16.877   -55.310
1825.000            -16.153   171.074      13.455   47.634      -18.369   30.811      -16.910   -55.485
1837.500            -16.147   170.389      13.399   47.212      -18.303   30.611      -16.931   -55.841
1850.000            -16.148   169.671      13.345   46.809      -18.257   30.319      -16.932   -56.321
1862.500            -16.173   168.902      13.300   46.349      -18.195   29.907      -16.933   -56.796
1875.000            -16.157   168.272      13.247   45.860      -18.148   29.638      -16.974   -57.084
1887.500            -16.140   167.793      13.194   45.398      -18.120   29.467      -16.998   -57.603
1900.000            -16.137   167.106      13.138   44.974      -18.032   29.168      -17.035   -57.925
1912.500            -16.156   166.466      13.093   44.481      -17.989   28.993      -17.067   -58.502
1925.000            -16.128   165.718      13.043   44.063      -17.925   28.911      -17.057   -58.895
1937.500            -16.091   165.232      12.992   43.612      -17.886   28.568      -17.081   -59.156
1950.000            -16.111   164.680      12.931   43.236      -17.822   28.392      -17.125   -59.588
1962.500            -16.105   163.981      12.881   42.857      -17.779   27.977      -17.144   -60.044
1975.000            -16.080   163.518      12.844   42.379      -17.743   27.713      -17.180   -60.411
1987.500            -16.077   162.957      12.784   41.926      -17.700   27.425      -17.232   -60.741
2000.000            -16.068   162.050      12.740   41.493      -17.627   27.354      -17.229   -61.043
2012.500            -16.048   161.524      12.697   41.069      -17.588   27.160      -17.234   -61.502
2025.000            -16.031   160.783      12.641   40.602      -17.550   26.717      -17.281   -61.954
2037.500            -16.045   160.339      12.597   40.143      -17.480   26.456      -17.321   -62.325
2050.000            -16.014   159.919      12.546   39.720      -17.423   26.128      -17.361   -62.592
2062.500            -15.967   158.944      12.508   39.293      -17.375   25.962      -17.367   -62.863
2075.000            -15.972   158.432      12.454   38.851      -17.340   25.725      -17.388   -63.469
2087.500            -15.989   157.835      12.409   38.447      -17.274   25.539      -17.429   -64.209
2100.000            -15.975   157.434      12.352   38.012      -17.231   25.156      -17.456   -64.490
2112.500            -16.119   157.475      12.312   37.526      -17.188   24.873      -17.485   -65.372
2125.000            -15.872   155.751      12.280   37.167      -17.142   24.598      -17.504   -65.292
2137.500            -15.928   155.290      12.219   36.739      -17.109   24.441      -17.562   -65.607
2150.000            -15.905   154.817      12.188   36.290      -17.044   24.049      -17.587   -66.278
2162.500            -15.859   154.259      12.119   35.802      -16.992   23.903      -17.664   -66.720
2175.000            -15.879   153.672      12.081   35.482      -16.951   23.579      -17.672   -67.085
2187.500            -15.833   153.056      12.042   34.968      -16.888   23.298      -17.721   -67.391
2200.000            -15.803   152.611      11.994   34.658      -16.831   23.027      -17.746   -67.689
2212.500            -15.780   152.059      11.946   34.166      -16.808   22.731      -17.770   -68.184
2225.000            -15.764   151.439      11.911   33.732      -16.755   22.595      -17.807   -68.500
2237.500            -15.769   150.803      11.847   33.356      -16.723   22.076      -17.881   -69.047
2250.000            -15.750   150.283      11.802   32.848      -16.677   21.892      -17.931   -69.676
2262.500            -15.711   149.703      11.767   32.459      -16.644   21.676      -17.958   -70.109
2275.000            -15.698   149.060      11.721   32.024      -16.577   21.512      -17.988   -70.390
2287.500            -15.662   148.590      11.673   31.640      -16.531   21.206      -18.033   -71.032
2300.000            -15.654   147.952      11.632   31.245      -16.493   20.842      -18.094   -71.223
2312.500            -15.616   147.315      11.584   30.733      -16.456   20.527      -18.116   -71.662
2325.000            -15.613   146.805      11.570   30.368      -16.415   20.350      -18.144   -72.172
2337.500            -15.595   146.404      11.523   29.998      -16.357   20.090      -18.192   -72.503
2350.000            -15.548   145.794      11.473   29.549      -16.316   19.787      -18.248   -72.969
2362.500            -15.533   145.167      11.437   29.053      -16.280   19.533      -18.340   -73.397
