# MHz S MA R 50

1 7.936e-3 39.892 0.994 -0.293 0.994 -0.293 7.936e-3 39.892 
1.047 8.12e-3 41.022 0.994 -0.307 0.994 -0.307 8.12e-3 41.022 
1.097 8.315e-3 42.154 0.994 -0.322 0.994 -0.322 8.315e-3 42.154 
1.148 8.522e-3 43.286 0.994 -0.337 0.994 -0.337 8.522e-3 43.286 
1.202 8.742e-3 44.418 0.994 -0.353 0.994 -0.353 8.742e-3 44.418 
1.259 8.975e-3 45.546 0.994 -0.369 0.994 -0.369 8.975e-3 45.546 
1.318 9.221e-3 46.668 0.994 -0.387 0.994 -0.387 9.221e-3 46.668 
1.381 9.483e-3 47.784 0.994 -0.405 0.994 -0.405 9.483e-3 47.784 
1.446 9.76e-3 48.891 0.994 -0.424 0.994 -0.424 9.76e-3 48.891 
1.514 0.01 49.987 0.994 -0.444 0.994 -0.444 0.01 49.987 
1.585 0.01 51.071 0.994 -0.465 0.994 -0.465 0.01 51.071 
1.66 0.011 52.141 0.993 -0.487 0.993 -0.487 0.011 52.141 
1.738 0.011 53.196 0.993 -0.51 0.993 -0.51 0.011 53.196 
1.82 0.011 54.234 0.993 -0.534 0.993 -0.534 0.011 54.234 
1.906 0.012 55.254 0.993 -0.559 0.993 -0.559 0.012 55.254 
1.996 0.012 56.256 0.993 -0.585 0.993 -0.585 0.012 56.256 
2.09 0.013 57.237 0.993 -0.613 0.993 -0.613 0.013 57.237 
2.189 0.013 58.197 0.993 -0.642 0.993 -0.642 0.013 58.197 
2.292 0.014 59.135 0.993 -0.672 0.993 -0.672 0.014 59.135 
2.4 0.014 60.051 0.993 -0.704 0.993 -0.704 0.014 60.051 
2.513 0.015 60.943 0.993 -0.737 0.993 -0.737 0.015 60.943 
2.632 0.015 61.812 0.993 -0.771 0.993 -0.771 0.015 61.812 
2.756 0.016 62.657 0.993 -0.808 0.993 -0.808 0.016 62.657 
2.886 0.016 63.477 0.993 -0.846 0.993 -0.846 0.016 63.477 
3.022 0.017 64.273 0.993 -0.886 0.993 -0.886 0.017 64.273 
3.164 0.018 65.045 0.993 -0.927 0.993 -0.927 0.018 65.045 
3.314 0.018 65.791 0.993 -0.971 0.993 -0.971 0.018 65.791 
3.47 0.019 66.513 0.993 -1.017 0.993 -1.017 0.019 66.513 
3.633 0.02 67.21 0.992 -1.065 0.992 -1.065 0.02 67.21 
3.805 0.021 67.883 0.992 -1.115 0.992 -1.115 0.021 67.883 
3.984 0.022 68.531 0.992 -1.167 0.992 -1.167 0.022 68.531 
4.172 0.023 69.155 0.992 -1.222 0.992 -1.222 0.023 69.155 
4.369 0.024 69.755 0.992 -1.28 0.992 -1.28 0.024 69.755 
4.575 0.025 70.332 0.992 -1.34 0.992 -1.34 0.025 70.332 
4.791 0.026 70.884 0.992 -1.403 0.992 -1.403 0.026 70.884 
5.016 0.027 71.414 0.992 -1.469 0.992 -1.469 0.027 71.414 
5.253 0.028 71.921 0.992 -1.538 0.992 -1.538 0.028 71.921 
5.501 0.029 72.406 0.992 -1.61 0.992 -1.61 0.029 72.406 
5.76 0.031 72.868 0.991 -1.686 0.991 -1.686 0.031 72.868 
6.032 0.032 73.309 0.991 -1.765 0.991 -1.765 0.032 73.309 
6.316 0.033 73.728 0.991 -1.848 0.991 -1.848 0.033 73.728 
6.614 0.035 74.126 0.991 -1.935 0.991 -1.935 0.035 74.126 
6.926 0.036 74.503 0.991 -2.026 0.991 -2.026 0.036 74.503 
7.253 0.038 74.86 0.991 -2.122 0.991 -2.122 0.038 74.86 
7.595 0.04 75.196 0.991 -2.221 0.991 -2.221 0.04 75.196 
7.953 0.042 75.513 0.99 -2.326 0.99 -2.326 0.042 75.513 
8.328 0.043 75.81 0.99 -2.435 0.99 -2.435 0.043 75.81 
8.72 0.045 76.087 0.99 -2.55 0.99 -2.55 0.045 76.087 
9.132 0.047 76.345 0.99 -2.669 0.99 -2.669 0.047 76.345 
9.562 0.05 76.585 0.99 -2.795 0.99 -2.795 0.05 76.585 
10.013 0.052 76.805 0.989 -2.926 0.989 -2.926 0.052 76.805 
10.485 0.054 77.007 0.989 -3.063 0.989 -3.063 0.054 77.007 
10.98 0.057 77.191 0.989 -3.207 0.989 -3.207 0.057 77.191 
11.498 0.059 77.356 0.989 -3.358 0.989 -3.358 0.059 77.356 
12.04 0.062 77.503 0.988 -3.515 0.988 -3.515 0.062 77.503 
12.608 0.065 77.632 0.988 -3.68 0.988 -3.68 0.065 77.632 
13.202 0.068 77.742 0.988 -3.853 0.988 -3.853 0.068 77.742 
13.825 0.071 77.835 0.987 -4.033 0.987 -4.033 0.071 77.835 
14.477 0.074 77.91 0.987 -4.222 0.987 -4.222 0.074 77.91 
15.159 0.078 77.966 0.987 -4.42 0.987 -4.42 0.078 77.966 
15.874 0.081 78.004 0.986 -4.627 0.986 -4.627 0.081 78.004 
16.623 0.085 78.025 0.986 -4.844 0.986 -4.844 0.085 78.025 
17.406 0.089 78.026 0.985 -5.07 0.985 -5.07 0.089 78.026 
18.227 0.093 78.01 0.985 -5.307 0.985 -5.307 0.093 78.01 
19.087 0.097 77.974 0.984 -5.555 0.984 -5.555 0.097 77.974 
19.987 0.102 77.92 0.984 -5.815 0.984 -5.815 0.102 77.92 
20.929 0.107 77.846 0.983 -6.086 0.983 -6.086 0.107 77.846 
21.916 0.112 77.754 0.982 -6.37 0.982 -6.37 0.112 77.754 
22.95 0.117 77.641 0.982 -6.666 0.982 -6.666 0.117 77.641 
24.032 0.122 77.509 0.981 -6.976 0.981 -6.976 0.122 77.509 
25.165 0.128 77.357 0.98 -7.301 0.98 -7.301 0.128 77.357 
26.352 0.133 77.183 0.979 -7.64 0.979 -7.64 0.133 77.183 
27.595 0.14 76.989 0.978 -7.994 0.978 -7.994 0.14 76.989 
28.896 0.146 76.773 0.977 -8.365 0.977 -8.365 0.146 76.773 
30.258 0.153 76.536 0.976 -8.752 0.976 -8.752 0.153 76.536 
31.685 0.16 76.276 0.975 -9.156 0.975 -9.156 0.16 76.276 
33.179 0.167 75.993 0.973 -9.578 0.973 -9.578 0.167 75.993 
34.744 0.174 75.686 0.972 -10.019 0.972 -10.019 0.174 75.686 
36.383 0.182 75.356 0.97 -10.48 0.97 -10.48 0.182 75.356 
38.098 0.191 75.001 0.968 -10.96 0.968 -10.96 0.191 75.001 
39.895 0.199 74.621 0.966 -11.461 0.966 -11.461 0.199 74.621 
41.776 0.208 74.215 0.964 -11.984 0.964 -11.984 0.208 74.215 
43.746 0.217 73.784 0.962 -12.53 0.962 -12.53 0.217 73.784 
45.809 0.227 73.325 0.96 -13.098 0.96 -13.098 0.227 73.325 
47.969 0.237 72.838 0.957 -13.69 0.957 -13.69 0.237 72.838 
50.231 0.248 72.324 0.954 -14.307 0.954 -14.307 0.248 72.324 
52.6 0.258 71.781 0.951 -14.95 0.951 -14.95 0.258 71.781 
55.08 0.27 71.208 0.948 -15.618 0.948 -15.618 0.27 71.208 
57.678 0.281 70.606 0.945 -16.313 0.945 -16.313 0.281 70.606 
60.397 0.293 69.973 0.941 -17.035 0.941 -17.035 0.293 69.973 
63.246 0.306 69.31 0.937 -17.785 0.937 -17.785 0.306 69.31 
66.228 0.319 68.615 0.932 -18.564 0.932 -18.564 0.319 68.615 
69.351 0.332 67.888 0.928 -19.372 0.928 -19.372 0.332 67.888 
72.621 0.346 67.13 0.922 -20.209 0.922 -20.209 0.346 67.13 
76.046 0.36 66.339 0.917 -21.076 0.917 -21.076 0.36 66.339 
79.632 0.375 65.515 0.911 -21.973 0.911 -21.973 0.375 65.515 
83.387 0.389 64.659 0.905 -22.9 0.905 -22.9 0.389 64.659 
87.319 0.405 63.771 0.898 -23.858 0.898 -23.858 0.405 63.771 
91.437 0.421 62.85 0.891 -24.845 0.891 -24.845 0.421 62.85 
95.749 0.437 61.897 0.883 -25.863 0.883 -25.863 0.437 61.897 
100.264 0.453 60.913 0.875 -26.909 0.875 -26.909 0.453 60.913 
104.992 0.47 59.898 0.866 -27.985 0.866 -27.985 0.47 59.898 
109.943 0.486 58.853 0.856 -29.089 0.856 -29.089 0.486 58.853 
115.127 0.504 57.779 0.847 -30.22 0.847 -30.22 0.504 57.779 
120.556 0.521 56.676 0.836 -31.378 0.836 -31.378 0.521 56.676 
126.241 0.538 55.547 0.825 -32.56 0.825 -32.56 0.538 55.547 
132.194 0.556 54.393 0.813 -33.766 0.813 -33.766 0.556 54.393 
138.428 0.574 53.216 0.801 -34.993 0.801 -34.993 0.574 53.216 
144.956 0.591 52.017 0.789 -36.241 0.789 -36.241 0.591 52.017 
151.791 0.609 50.798 0.775 -37.506 0.775 -37.506 0.609 50.798 
158.949 0.627 49.563 0.761 -38.788 0.761 -38.788 0.627 49.563 
166.445 0.644 48.312 0.747 -40.082 0.747 -40.082 0.644 48.312 
174.294 0.661 47.049 0.732 -41.388 0.732 -41.388 0.661 47.049 
182.513 0.678 45.776 0.717 -42.703 0.717 -42.703 0.678 45.776 
191.119 0.695 44.495 0.701 -44.023 0.701 -44.023 0.695 44.495 
200.132 0.712 43.211 0.685 -45.347 0.685 -45.347 0.712 43.211 
209.569 0.728 41.924 0.668 -46.671 0.668 -46.671 0.728 41.924 
219.452 0.743 40.638 0.651 -47.994 0.651 -47.994 0.743 40.638 
229.8 0.758 39.356 0.634 -49.311 0.634 -49.311 0.758 39.356 
240.637 0.773 38.08 0.617 -50.621 0.617 -50.621 0.773 38.08 
251.984 0.787 36.812 0.599 -51.922 0.599 -51.922 0.787 36.812 
263.867 0.801 35.556 0.582 -53.21 0.582 -53.21 0.801 35.556 
276.31 0.814 34.313 0.564 -54.484 0.564 -54.484 0.814 34.313 
289.339 0.827 33.086 0.546 -55.741 0.546 -55.741 0.827 33.086 
302.984 0.839 31.876 0.528 -56.979 0.528 -56.979 0.839 31.876 
317.271 0.85 30.686 0.51 -58.197 0.51 -58.197 0.85 30.686 
332.232 0.861 29.516 0.493 -59.394 0.493 -59.394 0.861 29.516 
347.899 0.871 28.369 0.475 -60.567 0.475 -60.567 0.871 28.369 
364.305 0.881 27.245 0.458 -61.715 0.458 -61.715 0.881 27.245 
381.484 0.89 26.146 0.441 -62.838 0.441 -62.838 0.89 26.146 
399.473 0.898 25.073 0.424 -63.934 0.424 -63.934 0.898 25.073 
418.311 0.906 24.025 0.407 -65.003 0.407 -65.003 0.906 24.025 
438.037 0.914 23.004 0.391 -66.045 0.391 -66.045 0.914 23.004 
458.693 0.921 22.01 0.375 -67.059 0.375 -67.059 0.921 22.01 
480.323 0.928 21.043 0.359 -68.044 0.359 -68.044 0.928 21.043 
502.973 0.934 20.103 0.344 -69.001 0.344 -69.001 0.934 20.103 
526.692 0.939 19.19 0.329 -69.93 0.329 -69.93 0.939 19.19 
551.528 0.945 18.303 0.314 -70.831 0.314 -70.831 0.945 18.303 
577.536 0.95 17.443 0.3 -71.705 0.3 -71.705 0.95 17.443 
604.771 0.954 16.609 0.286 -72.551 0.286 -72.551 0.954 16.609 
633.289 0.958 15.801 0.272 -73.37 0.272 -73.37 0.958 15.801 
663.153 0.962 15.017 0.259 -74.162 0.259 -74.162 0.962 15.017 
694.425 0.966 14.257 0.246 -74.928 0.246 -74.928 0.966 14.257 
727.171 0.969 13.521 0.234 -75.669 0.234 -75.669 0.969 13.521 
761.462 0.972 12.808 0.222 -76.384 0.222 -76.384 0.972 12.808 
797.369 0.975 12.116 0.21 -77.076 0.21 -77.076 0.975 12.116 
834.97 0.977 11.446 0.198 -77.743 0.198 -77.743 0.977 11.446 
874.344 0.98 10.795 0.187 -78.386 0.187 -78.386 0.98 10.795 
915.575 0.982 10.164 0.176 -79.006 0.176 -79.006 0.982 10.164 
958.75 0.984 9.552 0.166 -79.603 0.166 -79.603 0.984 9.552 
1003.961 0.985 8.957 0.156 -80.177 0.156 -80.177 0.985 8.957 
1051.303 0.987 8.378 0.146 -80.727 0.146 -80.727 0.987 8.378 
1100.879 0.989 7.815 0.136 -81.254 0.136 -81.254 0.989 7.815 
1152.792 0.99 7.267 0.127 -81.757 0.127 -81.757 0.99 7.267 
1207.153 0.991 6.733 0.117 -82.234 0.117 -82.234 0.991 6.733 
1264.078 0.992 6.212 0.108 -82.684 0.108 -82.684 0.992 6.212 
1323.687 0.993 5.702 0.099 -83.103 0.099 -83.103 0.993 5.702 
1386.107 0.994 5.204 0.091 -83.488 0.091 -83.488 0.994 5.204 
1451.471 0.995 4.716 0.082 -83.832 0.082 -83.832 0.995 4.716 
1519.916 0.995 4.237 0.074 -84.126 0.074 -84.126 0.995 4.237 
1591.59 0.996 3.766 0.066 -84.355 0.066 -84.355 0.996 3.766 
1666.643 0.996 3.303 0.058 -84.498 0.058 -84.498 0.996 3.303 
1745.235 0.996 2.846 0.05 -84.518 0.05 -84.518 0.996 2.846 
1827.534 0.997 2.396 0.042 -84.35 0.042 -84.35 0.997 2.396 
1913.713 0.997 1.95 0.034 -83.873 0.034 -83.873 0.997 1.95 
2003.957 0.997 1.508 0.026 -82.823 0.026 -82.823 0.997 1.508 
2098.456 0.997 1.069 0.019 -80.518 0.019 -80.518 0.997 1.069 
2197.411 0.997 0.633 0.011 -74.516 0.011 -74.516 0.997 0.633 
2301.032 0.997 0.198 4.658e-3 -47.72 4.658e-3 -47.72 0.997 0.198 
2409.54 0.997 -0.236 5.304e-3 50.759 5.304e-3 50.759 0.997 -0.236 
2523.164 0.996 -0.671 0.012 72.312 0.012 72.312 0.996 -0.671 
2642.147 0.996 -1.106 0.02 77.601 0.02 77.601 0.996 -1.106 
2766.741 0.995 -1.543 0.027 79.68 0.027 79.68 0.995 -1.543 
2897.209 0.995 -1.983 0.035 80.616 0.035 80.616 0.995 -1.983 
3033.831 0.994 -2.426 0.043 81.014 0.043 81.014 0.994 -2.426 
3176.894 0.993 -2.874 0.05 81.114 0.05 81.114 0.993 -2.874 
3326.704 0.993 -3.326 0.058 81.028 0.058 81.028 0.993 -3.326 
3483.579 0.992 -3.784 0.066 80.817 0.066 80.817 0.992 -3.784 
3647.851 0.99 -4.249 0.074 80.516 0.074 80.516 0.99 -4.249 
3819.87 0.989 -4.721 0.083 80.145 0.083 80.145 0.989 -4.721 
4000 0.988 -5.201 0.091 79.717 0.091 79.717 0.988 -5.201 
