# MHz S MA R 50

1 1.915e-3 4.123 0.998 -7.905e-3 0.998 -7.905e-3 1.915e-3 4.123 
1.047 1.918e-3 4.311 0.998 -8.279e-3 0.998 -8.279e-3 1.918e-3 4.311 
1.097 1.922e-3 4.508 0.998 -8.671e-3 0.998 -8.671e-3 1.922e-3 4.508 
1.149 1.925e-3 4.714 0.998 -9.081e-3 0.998 -9.081e-3 1.925e-3 4.714 
1.203 1.929e-3 4.928 0.998 -9.511e-3 0.998 -9.511e-3 1.929e-3 4.928 
1.26 1.932e-3 5.153 0.998 -9.961e-3 0.998 -9.961e-3 1.932e-3 5.153 
1.32 1.936e-3 5.387 0.998 -0.01 0.998 -0.01 1.936e-3 5.387 
1.382 1.94e-3 5.631 0.998 -0.011 0.998 -0.011 1.94e-3 5.631 
1.448 1.944e-3 5.886 0.998 -0.011 0.998 -0.011 1.944e-3 5.886 
1.516 1.948e-3 6.153 0.998 -0.012 0.998 -0.012 1.948e-3 6.153 
1.588 1.952e-3 6.43 0.998 -0.013 0.998 -0.013 1.952e-3 6.43 
1.663 1.957e-3 6.721 0.998 -0.013 0.998 -0.013 1.957e-3 6.721 
1.742 1.961e-3 7.023 0.998 -0.014 0.998 -0.014 1.961e-3 7.023 
1.824 1.966e-3 7.339 0.998 -0.014 0.998 -0.014 1.966e-3 7.339 
1.91 1.971e-3 7.668 0.998 -0.015 0.998 -0.015 1.971e-3 7.668 
2.001 1.977e-3 8.011 0.998 -0.016 0.998 -0.016 1.977e-3 8.011 
2.096 1.982e-3 8.369 0.998 -0.017 0.998 -0.017 1.982e-3 8.369 
2.195 1.988e-3 8.742 0.998 -0.017 0.998 -0.017 1.988e-3 8.742 
2.299 1.994e-3 9.131 0.998 -0.018 0.998 -0.018 1.994e-3 9.131 
2.407 2.001e-3 9.536 0.998 -0.019 0.998 -0.019 2.001e-3 9.536 
2.521 2.007e-3 9.958 0.998 -0.02 0.998 -0.02 2.007e-3 9.958 
2.641 2.015e-3 10.398 0.998 -0.021 0.998 -0.021 2.015e-3 10.398 
2.766 2.022e-3 10.855 0.998 -0.022 0.998 -0.022 2.022e-3 10.855 
2.897 2.03e-3 11.331 0.998 -0.023 0.998 -0.023 2.03e-3 11.331 
3.034 2.038e-3 11.826 0.998 -0.024 0.998 -0.024 2.038e-3 11.826 
3.177 2.047e-3 12.341 0.998 -0.025 0.998 -0.025 2.047e-3 12.341 
3.328 2.056e-3 12.876 0.998 -0.026 0.998 -0.026 2.056e-3 12.876 
3.485 2.066e-3 13.432 0.998 -0.028 0.998 -0.028 2.066e-3 13.432 
3.65 2.076e-3 14.01 0.998 -0.029 0.998 -0.029 2.076e-3 14.01 
3.823 2.087e-3 14.609 0.998 -0.03 0.998 -0.03 2.087e-3 14.609 
4.004 2.098e-3 15.232 0.998 -0.032 0.998 -0.032 2.098e-3 15.232 
4.193 2.11e-3 15.877 0.998 -0.033 0.998 -0.033 2.11e-3 15.877 
4.392 2.123e-3 16.545 0.998 -0.035 0.998 -0.035 2.123e-3 16.545 
4.599 2.137e-3 17.238 0.998 -0.036 0.998 -0.036 2.137e-3 17.238 
4.817 2.151e-3 17.955 0.998 -0.038 0.998 -0.038 2.151e-3 17.955 
5.045 2.167e-3 18.696 0.998 -0.04 0.998 -0.04 2.167e-3 18.696 
5.284 2.183e-3 19.463 0.998 -0.042 0.998 -0.042 2.183e-3 19.463 
5.534 2.201e-3 20.254 0.998 -0.044 0.998 -0.044 2.201e-3 20.254 
5.796 2.219e-3 21.071 0.998 -0.046 0.998 -0.046 2.219e-3 21.071 
6.07 2.239e-3 21.913 0.998 -0.048 0.998 -0.048 2.239e-3 21.913 
6.357 2.26e-3 22.78 0.998 -0.05 0.998 -0.05 2.26e-3 22.78 
6.658 2.283e-3 23.672 0.998 -0.053 0.998 -0.053 2.283e-3 23.672 
6.973 2.307e-3 24.59 0.998 -0.055 0.998 -0.055 2.307e-3 24.59 
7.303 2.332e-3 25.532 0.998 -0.058 0.998 -0.058 2.332e-3 25.532 
7.649 2.36e-3 26.498 0.998 -0.06 0.998 -0.06 2.36e-3 26.498 
8.011 2.389e-3 27.487 0.998 -0.063 0.998 -0.063 2.389e-3 27.487 
8.39 2.42e-3 28.499 0.998 -0.066 0.998 -0.066 2.42e-3 28.499 
8.787 2.454e-3 29.533 0.998 -0.069 0.998 -0.069 2.454e-3 29.533 
9.203 2.489e-3 30.588 0.998 -0.073 0.998 -0.073 2.489e-3 30.588 
9.639 2.527e-3 31.663 0.998 -0.076 0.998 -0.076 2.527e-3 31.663 
10.095 2.568e-3 32.757 0.998 -0.08 0.998 -0.08 2.568e-3 32.757 
10.573 2.611e-3 33.867 0.998 -0.084 0.998 -0.084 2.611e-3 33.867 
11.073 2.657e-3 34.994 0.998 -0.088 0.998 -0.088 2.657e-3 34.994 
11.597 2.707e-3 36.134 0.998 -0.092 0.998 -0.092 2.707e-3 36.134 
12.146 2.759e-3 37.287 0.998 -0.096 0.998 -0.096 2.759e-3 37.287 
12.721 2.815e-3 38.45 0.998 -0.101 0.998 -0.101 2.815e-3 38.45 
13.323 2.875e-3 39.621 0.998 -0.105 0.998 -0.105 2.875e-3 39.621 
13.953 2.939e-3 40.799 0.998 -0.11 0.998 -0.11 2.939e-3 40.799 
14.613 3.006e-3 41.982 0.998 -0.115 0.998 -0.115 3.006e-3 41.982 
15.305 3.079e-3 43.167 0.998 -0.121 0.998 -0.121 3.079e-3 43.167 
16.029 3.155e-3 44.352 0.998 -0.127 0.998 -0.127 3.155e-3 44.352 
16.788 3.237e-3 45.536 0.998 -0.133 0.998 -0.133 3.237e-3 45.536 
17.582 3.324e-3 46.715 0.998 -0.139 0.998 -0.139 3.324e-3 46.715 
18.415 3.416e-3 47.888 0.998 -0.146 0.998 -0.146 3.416e-3 47.888 
19.286 3.513e-3 49.054 0.998 -0.152 0.998 -0.152 3.513e-3 49.054 
20.199 3.617e-3 50.209 0.998 -0.16 0.998 -0.16 3.617e-3 50.209 
21.155 3.727e-3 51.353 0.998 -0.167 0.998 -0.167 3.727e-3 51.353 
22.156 3.843e-3 52.483 0.998 -0.175 0.998 -0.175 3.843e-3 52.483 
23.204 3.966e-3 53.598 0.998 -0.183 0.998 -0.183 3.966e-3 53.598 
24.303 4.097e-3 54.697 0.998 -0.192 0.998 -0.192 4.097e-3 54.697 
25.453 4.235e-3 55.777 0.998 -0.201 0.998 -0.201 4.235e-3 55.777 
26.657 4.381e-3 56.837 0.998 -0.211 0.998 -0.211 4.381e-3 56.837 
27.919 4.535e-3 57.877 0.998 -0.221 0.998 -0.221 4.535e-3 57.877 
29.24 4.698e-3 58.896 0.998 -0.231 0.998 -0.231 4.698e-3 58.896 
30.624 4.87e-3 59.892 0.998 -0.242 0.998 -0.242 4.87e-3 59.892 
32.073 5.051e-3 60.864 0.998 -0.253 0.998 -0.253 5.051e-3 60.864 
33.591 5.242e-3 61.813 0.998 -0.265 0.998 -0.265 5.242e-3 61.813 
35.181 5.444e-3 62.738 0.998 -0.278 0.998 -0.278 5.444e-3 62.738 
36.846 5.656e-3 63.638 0.998 -0.291 0.998 -0.291 5.656e-3 63.638 
38.59 5.88e-3 64.512 0.997 -0.305 0.997 -0.305 5.88e-3 64.512 
40.416 6.115e-3 65.362 0.997 -0.319 0.997 -0.319 6.115e-3 65.362 
42.329 6.363e-3 66.186 0.997 -0.334 0.997 -0.334 6.363e-3 66.186 
44.332 6.624e-3 66.985 0.997 -0.35 0.997 -0.35 6.624e-3 66.985 
46.43 6.898e-3 67.758 0.997 -0.367 0.997 -0.367 6.898e-3 67.758 
48.627 7.186e-3 68.507 0.997 -0.384 0.997 -0.384 7.186e-3 68.507 
50.929 7.49e-3 69.23 0.997 -0.402 0.997 -0.402 7.49e-3 69.23 
53.339 7.808e-3 69.929 0.997 -0.421 0.997 -0.421 7.808e-3 69.929 
55.863 8.143e-3 70.604 0.997 -0.441 0.997 -0.441 8.143e-3 70.604 
58.507 8.494e-3 71.255 0.997 -0.462 0.997 -0.462 8.494e-3 71.255 
61.276 8.864e-3 71.882 0.997 -0.484 0.997 -0.484 8.864e-3 71.882 
64.176 9.251e-3 72.487 0.997 -0.507 0.997 -0.507 9.251e-3 72.487 
67.213 9.658e-3 73.068 0.997 -0.531 0.997 -0.531 9.658e-3 73.068 
70.394 0.01 73.628 0.997 -0.556 0.997 -0.556 0.01 73.628 
73.726 0.011 74.165 0.997 -0.582 0.997 -0.582 0.011 74.165 
77.215 0.011 74.682 0.997 -0.61 0.997 -0.61 0.011 74.682 
80.869 0.011 75.178 0.997 -0.639 0.997 -0.639 0.011 75.178 
84.696 0.012 75.654 0.997 -0.669 0.997 -0.669 0.012 75.654 
88.705 0.013 76.11 0.997 -0.7 0.997 -0.7 0.013 76.11 
92.903 0.013 76.546 0.997 -0.734 0.997 -0.734 0.013 76.546 
97.299 0.014 76.964 0.997 -0.768 0.997 -0.768 0.014 76.964 
101.904 0.014 77.364 0.997 -0.805 0.997 -0.805 0.014 77.364 
106.727 0.015 77.746 0.997 -0.843 0.997 -0.843 0.015 77.746 
111.778 0.016 78.111 0.997 -0.883 0.997 -0.883 0.016 78.111 
117.068 0.016 78.459 0.997 -0.924 0.997 -0.924 0.016 78.459 
122.608 0.017 78.79 0.997 -0.968 0.997 -0.968 0.017 78.79 
128.411 0.018 79.105 0.997 -1.014 0.997 -1.014 0.018 79.105 
134.488 0.019 79.405 0.997 -1.062 0.997 -1.062 0.019 79.405 
140.853 0.02 79.69 0.997 -1.112 0.997 -1.112 0.02 79.69 
147.519 0.021 79.959 0.997 -1.165 0.997 -1.165 0.021 79.959 
154.5 0.022 80.214 0.997 -1.22 0.997 -1.22 0.022 80.214 
161.812 0.023 80.455 0.997 -1.277 0.997 -1.277 0.023 80.455 
169.47 0.024 80.682 0.996 -1.338 0.996 -1.338 0.024 80.682 
177.49 0.025 80.896 0.996 -1.401 0.996 -1.401 0.025 80.896 
185.89 0.026 81.096 0.996 -1.467 0.996 -1.467 0.026 81.096 
194.688 0.027 81.283 0.996 -1.536 0.996 -1.536 0.027 81.283 
203.902 0.028 81.457 0.996 -1.609 0.996 -1.609 0.028 81.457 
213.551 0.03 81.618 0.996 -1.685 0.996 -1.685 0.03 81.618 
223.658 0.031 81.767 0.996 -1.765 0.996 -1.765 0.031 81.767 
234.243 0.032 81.904 0.996 -1.848 0.996 -1.848 0.032 81.904 
245.329 0.034 82.029 0.996 -1.935 0.996 -1.935 0.034 82.029 
256.939 0.036 82.142 0.996 -2.027 0.996 -2.027 0.036 82.142 
269.099 0.037 82.242 0.996 -2.123 0.996 -2.123 0.037 82.242 
281.834 0.039 82.332 0.996 -2.223 0.996 -2.223 0.039 82.332 
295.173 0.041 82.409 0.995 -2.328 0.995 -2.328 0.041 82.409 
309.142 0.043 82.475 0.995 -2.438 0.995 -2.438 0.043 82.475 
323.772 0.045 82.529 0.995 -2.553 0.995 -2.553 0.045 82.529 
339.095 0.047 82.571 0.995 -2.674 0.995 -2.674 0.047 82.571 
355.143 0.049 82.602 0.995 -2.8 0.995 -2.8 0.049 82.602 
371.951 0.051 82.621 0.995 -2.932 0.995 -2.932 0.051 82.621 
389.554 0.054 82.628 0.995 -3.07 0.995 -3.07 0.054 82.628 
407.99 0.056 82.624 0.994 -3.215 0.994 -3.215 0.056 82.624 
427.298 0.059 82.607 0.994 -3.367 0.994 -3.367 0.059 82.607 
447.521 0.062 82.579 0.994 -3.526 0.994 -3.526 0.062 82.579 
468.7 0.065 82.539 0.994 -3.692 0.994 -3.692 0.065 82.539 
490.882 0.068 82.486 0.993 -3.866 0.993 -3.866 0.068 82.486 
514.113 0.071 82.42 0.993 -4.049 0.993 -4.049 0.071 82.42 
538.444 0.074 82.342 0.993 -4.239 0.993 -4.239 0.074 82.342 
563.927 0.078 82.251 0.993 -4.439 0.993 -4.439 0.078 82.251 
590.615 0.081 82.147 0.992 -4.648 0.992 -4.648 0.081 82.147 
618.567 0.085 82.03 0.992 -4.867 0.992 -4.867 0.085 82.03 
647.841 0.089 81.898 0.991 -5.096 0.991 -5.096 0.089 81.898 
678.501 0.093 81.753 0.991 -5.336 0.991 -5.336 0.093 81.753 
710.612 0.097 81.593 0.99 -5.587 0.99 -5.587 0.097 81.593 
744.242 0.102 81.418 0.99 -5.849 0.99 -5.849 0.102 81.418 
779.464 0.107 81.228 0.989 -6.124 0.989 -6.124 0.107 81.228 
816.353 0.112 81.022 0.989 -6.411 0.989 -6.411 0.112 81.022 
854.988 0.117 80.8 0.988 -6.712 0.988 -6.712 0.117 80.8 
895.451 0.122 80.562 0.987 -7.027 0.987 -7.027 0.122 80.562 
937.829 0.128 80.306 0.987 -7.356 0.987 -7.356 0.128 80.306 
982.213 0.134 80.033 0.986 -7.7 0.986 -7.7 0.134 80.033 
1028.697 0.14 79.741 0.985 -8.06 0.985 -8.06 0.14 79.741 
1077.382 0.147 79.431 0.984 -8.436 0.984 -8.436 0.147 79.431 
1128.37 0.154 79.102 0.983 -8.83 0.983 -8.83 0.154 79.102 
1181.771 0.161 78.752 0.981 -9.241 0.981 -9.241 0.161 78.752 
1237.7 0.168 78.382 0.98 -9.671 0.98 -9.671 0.168 78.382 
1296.275 0.176 77.99 0.979 -10.121 0.979 -10.121 0.176 77.99 
1357.623 0.184 77.576 0.977 -10.59 0.977 -10.59 0.184 77.576 
1421.874 0.192 77.14 0.975 -11.08 0.975 -11.08 0.192 77.14 
1489.166 0.201 76.68 0.974 -11.593 0.974 -11.593 0.201 76.68 
1559.642 0.21 76.196 0.972 -12.127 0.972 -12.127 0.21 76.196 
1633.454 0.22 75.686 0.969 -12.685 0.969 -12.685 0.22 75.686 
1710.759 0.23 75.151 0.967 -13.267 0.967 -13.267 0.23 75.151 
1791.722 0.24 74.589 0.964 -13.875 0.964 -13.875 0.24 74.589 
1876.517 0.251 74 0.962 -14.508 0.962 -14.508 0.251 74 
1965.326 0.262 73.382 0.959 -15.168 0.959 -15.168 0.262 73.382 
2058.337 0.273 72.736 0.955 -15.856 0.955 -15.856 0.273 72.736 
2155.75 0.285 72.059 0.952 -16.572 0.952 -16.572 0.285 72.059 
2257.773 0.298 71.352 0.948 -17.317 0.948 -17.317 0.298 71.352 
2364.625 0.311 70.614 0.944 -18.092 0.944 -18.092 0.311 70.614 
2476.533 0.324 69.843 0.939 -18.899 0.939 -18.899 0.324 69.843 
2593.738 0.338 69.04 0.934 -19.736 0.934 -19.736 0.338 69.04 
2716.489 0.352 68.204 0.929 -20.606 0.929 -20.606 0.352 68.204 
2845.05 0.367 67.334 0.923 -21.508 0.923 -21.508 0.367 67.334 
2979.695 0.382 66.429 0.917 -22.444 0.917 -22.444 0.382 66.429 
3120.712 0.397 65.49 0.91 -23.413 0.91 -23.413 0.397 65.49 
3268.403 0.413 64.516 0.903 -24.416 0.903 -24.416 0.413 64.516 
3423.084 0.43 63.507 0.895 -25.453 0.895 -25.453 0.43 63.507 
3585.085 0.447 62.462 0.887 -26.524 0.887 -26.524 0.447 62.462 
3754.753 0.464 61.382 0.878 -27.629 0.878 -27.629 0.464 61.382 
3932.451 0.481 60.268 0.868 -28.768 0.868 -28.768 0.481 60.268 
4118.558 0.499 59.118 0.858 -29.941 0.858 -29.941 0.499 59.118 
4313.473 0.517 57.935 0.848 -31.147 0.848 -31.147 0.517 57.935 
4517.613 0.536 56.718 0.836 -32.384 0.836 -32.384 0.536 56.718 
4731.414 0.554 55.469 0.824 -33.654 0.824 -33.654 0.554 55.469 
4955.333 0.573 54.189 0.811 -34.953 0.811 -34.953 0.573 54.189 
5189.85 0.592 52.879 0.797 -36.281 0.797 -36.281 0.592 52.879 
5435.465 0.611 51.54 0.783 -37.637 0.783 -37.637 0.611 51.54 
5692.704 0.63 50.174 0.768 -39.018 0.768 -39.018 0.63 50.174 
5962.118 0.648 48.782 0.752 -40.423 0.752 -40.423 0.648 48.782 
6244.281 0.667 47.368 0.736 -41.85 0.736 -41.85 0.667 47.368 
6539.799 0.686 45.932 0.719 -43.297 0.719 -43.297 0.686 45.932 
6849.302 0.704 44.477 0.701 -44.761 0.701 -44.761 0.704 44.477 
7173.452 0.722 43.005 0.682 -46.239 0.682 -46.239 0.722 43.005 
7512.944 0.74 41.519 0.663 -47.73 0.663 -47.73 0.74 41.519 
7868.502 0.757 40.021 0.643 -49.231 0.643 -49.231 0.757 40.021 
8240.887 0.774 38.514 0.623 -50.739 0.623 -50.739 0.774 38.514 
8630.896 0.791 36.999 0.602 -52.25 0.602 -52.25 0.791 36.999 
9039.363 0.807 35.48 0.58 -53.764 0.58 -53.764 0.807 35.48 
9467.16 0.822 33.958 0.559 -55.276 0.559 -55.276 0.822 33.958 
9915.204 0.837 32.435 0.536 -56.783 0.536 -56.783 0.837 32.435 
10384.452 0.851 30.915 0.514 -58.284 0.514 -58.284 0.851 30.915 
10875.907 0.864 29.398 0.491 -59.775 0.491 -59.775 0.864 29.398 
11390.621 0.877 27.886 0.468 -61.254 0.468 -61.254 0.877 27.886 
11929.695 0.889 26.381 0.444 -62.717 0.444 -62.717 0.889 26.381 
12494.28 0.9 24.885 0.421 -64.162 0.421 -64.162 0.9 24.885 
13085.585 0.911 23.398 0.397 -65.585 0.397 -65.585 0.911 23.398 
13704.875 0.921 21.921 0.373 -66.983 0.373 -66.983 0.921 21.921 
14353.473 0.93 20.456 0.35 -68.352 0.35 -68.352 0.93 20.456 
15032.767 0.938 19.002 0.326 -69.685 0.326 -69.685 0.938 19.002 
15744.208 0.946 17.56 0.302 -70.978 0.302 -70.978 0.946 17.56 
16489.32 0.953 16.131 0.278 -72.223 0.278 -72.223 0.953 16.131 
17269.695 0.959 14.713 0.254 -73.407 0.254 -73.407 0.959 14.713 
18087.002 0.964 13.308 0.23 -74.516 0.23 -74.516 0.964 13.308 
18942.989 0.969 11.915 0.207 -75.529 0.207 -75.529 0.969 11.915 
19839.486 0.973 10.532 0.183 -76.41 0.183 -76.41 0.973 10.532 
20778.411 0.977 9.161 0.16 -77.107 0.16 -77.107 0.977 9.161 
21761.772 0.98 7.8 0.136 -77.531 0.136 -77.531 0.98 7.8 
22791.671 0.982 6.448 0.113 -77.519 0.113 -77.519 0.982 6.448 
23870.312 0.983 5.104 0.09 -76.744 0.09 -76.744 0.983 5.104 
25000 0.984 3.769 0.067 -74.441 0.067 -74.441 0.984 3.769 
