# MHz S MA R 50

1 0.044 25.855 0.961 -1.141 0.961 -1.141 0.044 25.855 
1.047 0.044 26.819 0.961 -1.195 0.961 -1.195 0.044 26.819 
1.097 0.045 27.805 0.96 -1.251 0.96 -1.251 0.045 27.805 
1.148 0.046 28.81 0.96 -1.31 0.96 -1.31 0.046 28.81 
1.202 0.046 29.835 0.96 -1.372 0.96 -1.372 0.046 29.835 
1.259 0.047 30.877 0.96 -1.436 0.96 -1.436 0.047 30.877 
1.318 0.048 31.935 0.96 -1.504 0.96 -1.504 0.048 31.935 
1.381 0.048 33.007 0.96 -1.574 0.96 -1.574 0.048 33.007 
1.446 0.049 34.092 0.96 -1.648 0.96 -1.648 0.049 34.092 
1.514 0.05 35.188 0.959 -1.726 0.959 -1.726 0.05 35.188 
1.585 0.051 36.293 0.959 -1.807 0.959 -1.807 0.051 36.293 
1.66 0.052 37.404 0.959 -1.892 0.959 -1.892 0.052 37.404 
1.738 0.053 38.519 0.959 -1.98 0.959 -1.98 0.053 38.519 
1.82 0.054 39.637 0.959 -2.073 0.959 -2.073 0.054 39.637 
1.906 0.056 40.754 0.959 -2.171 0.959 -2.171 0.056 40.754 
1.996 0.057 41.868 0.958 -2.273 0.958 -2.273 0.057 41.868 
2.09 0.058 42.977 0.958 -2.379 0.958 -2.379 0.058 42.977 
2.188 0.06 44.079 0.958 -2.491 0.958 -2.491 0.06 44.079 
2.291 0.061 45.17 0.958 -2.608 0.958 -2.608 0.061 45.17 
2.399 0.063 46.249 0.957 -2.73 0.957 -2.73 0.063 46.249 
2.513 0.065 47.313 0.957 -2.858 0.957 -2.858 0.065 47.313 
2.631 0.067 48.36 0.957 -2.992 0.957 -2.992 0.067 48.36 
2.755 0.069 49.388 0.957 -3.133 0.957 -3.133 0.069 49.388 
2.885 0.071 50.395 0.956 -3.279 0.956 -3.279 0.071 50.395 
3.021 0.073 51.378 0.956 -3.433 0.956 -3.433 0.073 51.378 
3.163 0.076 52.336 0.956 -3.594 0.956 -3.594 0.076 52.336 
3.313 0.078 53.267 0.955 -3.762 0.955 -3.762 0.078 53.267 
3.469 0.081 54.17 0.955 -3.938 0.955 -3.938 0.081 54.17 
3.632 0.084 55.043 0.955 -4.122 0.955 -4.122 0.084 55.043 
3.803 0.087 55.885 0.954 -4.315 0.954 -4.315 0.087 55.885 
3.983 0.09 56.694 0.954 -4.517 0.954 -4.517 0.09 56.694 
4.171 0.093 57.469 0.953 -4.728 0.953 -4.728 0.093 57.469 
4.367 0.097 58.211 0.953 -4.949 0.953 -4.949 0.097 58.211 
4.573 0.1 58.916 0.952 -5.18 0.952 -5.18 0.1 58.916 
4.789 0.104 59.586 0.951 -5.421 0.951 -5.421 0.104 59.586 
5.014 0.108 60.219 0.951 -5.674 0.951 -5.674 0.108 60.219 
5.251 0.113 60.815 0.95 -5.938 0.95 -5.938 0.113 60.815 
5.498 0.117 61.372 0.949 -6.214 0.949 -6.214 0.117 61.372 
5.758 0.122 61.892 0.949 -6.503 0.949 -6.503 0.122 61.892 
6.029 0.127 62.373 0.948 -6.805 0.948 -6.805 0.127 62.373 
6.313 0.132 62.815 0.947 -7.121 0.947 -7.121 0.132 62.815 
6.611 0.137 63.218 0.946 -7.451 0.946 -7.451 0.137 63.218 
6.922 0.143 63.582 0.945 -7.796 0.945 -7.796 0.143 63.582 
7.249 0.149 63.906 0.944 -8.157 0.944 -8.157 0.149 63.906 
7.591 0.155 64.191 0.943 -8.533 0.943 -8.533 0.155 64.191 
7.948 0.162 64.435 0.942 -8.927 0.942 -8.927 0.162 64.435 
8.323 0.169 64.64 0.94 -9.338 0.94 -9.338 0.169 64.64 
8.716 0.176 64.804 0.939 -9.767 0.939 -9.767 0.176 64.804 
9.126 0.183 64.929 0.937 -10.215 0.937 -10.215 0.183 64.929 
9.557 0.191 65.012 0.935 -10.682 0.935 -10.682 0.191 65.012 
10.007 0.199 65.056 0.934 -11.17 0.934 -11.17 0.199 65.056 
10.479 0.208 65.058 0.932 -11.679 0.932 -11.679 0.208 65.058 
10.973 0.217 65.02 0.929 -12.209 0.929 -12.209 0.217 65.02 
11.49 0.226 64.942 0.927 -12.762 0.927 -12.762 0.226 64.942 
12.032 0.236 64.822 0.925 -13.338 0.925 -13.338 0.236 64.822 
12.599 0.246 64.66 0.922 -13.938 0.922 -13.938 0.246 64.66 
13.193 0.256 64.458 0.919 -14.563 0.919 -14.563 0.256 64.458 
13.815 0.267 64.214 0.916 -15.213 0.916 -15.213 0.267 64.214 
14.466 0.278 63.929 0.913 -15.889 0.913 -15.889 0.278 63.929 
15.148 0.29 63.602 0.909 -16.592 0.909 -16.592 0.29 63.602 
15.863 0.302 63.233 0.905 -17.321 0.905 -17.321 0.302 63.233 
16.61 0.314 62.823 0.901 -18.079 0.901 -18.079 0.314 62.823 
17.394 0.327 62.371 0.896 -18.865 0.896 -18.865 0.327 62.371 
18.213 0.34 61.877 0.892 -19.68 0.892 -19.68 0.34 61.877 
19.072 0.354 61.342 0.886 -20.524 0.886 -20.524 0.354 61.342 
19.971 0.368 60.765 0.881 -21.397 0.881 -21.397 0.368 60.765 
20.913 0.383 60.148 0.875 -22.3 0.875 -22.3 0.383 60.148 
21.899 0.398 59.49 0.869 -23.232 0.869 -23.232 0.398 59.49 
22.931 0.413 58.791 0.862 -24.194 0.862 -24.194 0.413 58.791 
24.012 0.429 58.053 0.854 -25.185 0.854 -25.185 0.429 58.053 
25.144 0.444 57.277 0.847 -26.206 0.847 -26.206 0.444 57.277 
26.33 0.461 56.462 0.839 -27.254 0.839 -27.254 0.461 56.462 
27.571 0.477 55.61 0.83 -28.331 0.83 -28.331 0.477 55.61 
28.871 0.494 54.723 0.821 -29.435 0.821 -29.435 0.494 54.723 
30.232 0.511 53.801 0.811 -30.565 0.811 -30.565 0.511 53.801 
31.657 0.528 52.846 0.801 -31.72 0.801 -31.72 0.528 52.846 
33.149 0.545 51.86 0.79 -32.898 0.79 -32.898 0.545 51.86 
34.712 0.563 50.845 0.778 -34.098 0.778 -34.098 0.563 50.845 
36.349 0.58 49.803 0.767 -35.319 0.767 -35.319 0.58 49.803 
38.062 0.598 48.735 0.754 -36.557 0.754 -36.557 0.598 48.735 
39.857 0.615 47.644 0.741 -37.812 0.741 -37.812 0.615 47.644 
41.736 0.632 46.534 0.728 -39.081 0.728 -39.081 0.632 46.534 
43.703 0.649 45.405 0.714 -40.362 0.714 -40.362 0.649 45.405 
45.763 0.666 44.262 0.7 -41.652 0.7 -41.652 0.666 44.262 
47.921 0.683 43.106 0.685 -42.948 0.685 -42.948 0.683 43.106 
50.18 0.699 41.941 0.67 -44.249 0.67 -44.249 0.699 41.941 
52.546 0.715 40.77 0.654 -45.55 0.654 -45.55 0.715 40.77 
55.023 0.731 39.595 0.639 -46.851 0.639 -46.851 0.731 39.595 
57.617 0.746 38.419 0.623 -48.147 0.623 -48.147 0.746 38.419 
60.333 0.761 37.245 0.606 -49.437 0.606 -49.437 0.761 37.245 
63.177 0.775 36.076 0.59 -50.718 0.59 -50.718 0.775 36.076 
66.156 0.789 34.915 0.573 -51.987 0.573 -51.987 0.789 34.915 
69.275 0.802 33.763 0.557 -53.242 0.557 -53.242 0.802 33.763 
72.54 0.815 32.624 0.54 -54.482 0.54 -54.482 0.815 32.624 
75.96 0.827 31.499 0.523 -55.703 0.523 -55.703 0.827 31.499 
79.541 0.839 30.39 0.506 -56.904 0.506 -56.904 0.839 30.39 
83.291 0.85 29.3 0.49 -58.083 0.49 -58.083 0.85 29.3 
87.218 0.86 28.23 0.473 -59.239 0.473 -59.239 0.86 28.23 
91.33 0.87 27.181 0.457 -60.37 0.457 -60.37 0.87 27.181 
95.635 0.879 26.155 0.441 -61.475 0.441 -61.475 0.879 26.155 
100.144 0.888 25.153 0.425 -62.554 0.425 -62.554 0.888 25.153 
104.865 0.896 24.176 0.41 -63.605 0.41 -63.605 0.896 24.176 
109.809 0.904 23.224 0.395 -64.628 0.395 -64.628 0.904 23.224 
114.985 0.911 22.298 0.38 -65.623 0.38 -65.623 0.911 22.298 
120.406 0.918 21.398 0.365 -66.588 0.365 -66.588 0.918 21.398 
126.083 0.925 20.526 0.351 -67.524 0.351 -67.524 0.925 20.526 
132.027 0.93 19.68 0.337 -68.431 0.337 -68.431 0.93 19.68 
138.251 0.936 18.86 0.323 -69.309 0.323 -69.309 0.936 18.86 
144.769 0.941 18.068 0.31 -70.159 0.31 -70.159 0.941 18.068 
151.593 0.946 17.302 0.298 -70.979 0.298 -70.979 0.946 17.302 
158.74 0.95 16.562 0.285 -71.771 0.285 -71.771 0.95 16.562 
166.224 0.954 15.847 0.273 -72.536 0.273 -72.536 0.954 15.847 
174.06 0.958 15.159 0.262 -73.273 0.262 -73.273 0.958 15.159 
182.266 0.962 14.495 0.25 -73.984 0.25 -73.984 0.962 14.495 
190.859 0.965 13.855 0.24 -74.668 0.24 -74.668 0.965 13.855 
199.856 0.968 13.239 0.229 -75.327 0.229 -75.327 0.968 13.239 
209.278 0.97 12.645 0.219 -75.961 0.219 -75.961 0.97 12.645 
219.144 0.973 12.075 0.209 -76.571 0.209 -76.571 0.973 12.075 
229.476 0.975 11.525 0.2 -77.158 0.2 -77.158 0.975 11.525 
240.294 0.977 10.997 0.191 -77.722 0.191 -77.722 0.977 10.997 
251.622 0.979 10.489 0.182 -78.263 0.182 -78.263 0.979 10.489 
263.485 0.981 10.001 0.174 -78.784 0.174 -78.784 0.981 10.001 
275.906 0.983 9.531 0.166 -79.284 0.166 -79.284 0.983 9.531 
288.913 0.984 9.08 0.158 -79.763 0.158 -79.763 0.984 9.08 
302.534 0.986 8.646 0.15 -80.224 0.15 -80.224 0.986 8.646 
316.796 0.987 8.229 0.143 -80.666 0.143 -80.666 0.987 8.229 
331.731 0.988 7.828 0.136 -81.089 0.136 -81.089 0.988 7.828 
347.37 0.989 7.442 0.13 -81.495 0.13 -81.495 0.989 7.442 
363.747 0.99 7.071 0.123 -81.884 0.123 -81.884 0.99 7.071 
380.895 0.991 6.714 0.117 -82.256 0.117 -82.256 0.991 6.714 
398.852 0.992 6.371 0.111 -82.613 0.111 -82.613 0.992 6.371 
417.655 0.993 6.04 0.105 -82.953 0.105 -82.953 0.993 6.04 
437.345 0.993 5.721 0.1 -83.278 0.1 -83.278 0.993 5.721 
457.963 0.994 5.414 0.094 -83.587 0.094 -83.587 0.994 5.414 
479.553 0.994 5.118 0.089 -83.882 0.089 -83.882 0.994 5.118 
502.161 0.995 4.833 0.084 -84.161 0.084 -84.161 0.995 4.833 
525.834 0.995 4.557 0.079 -84.425 0.079 -84.425 0.995 4.557 
550.624 0.996 4.291 0.075 -84.673 0.075 -84.673 0.996 4.291 
576.582 0.996 4.033 0.07 -84.905 0.07 -84.905 0.996 4.033 
603.765 0.997 3.784 0.066 -85.12 0.066 -85.12 0.997 3.784 
632.228 0.997 3.542 0.062 -85.316 0.062 -85.316 0.997 3.542 
662.034 0.997 3.308 0.058 -85.494 0.058 -85.494 0.997 3.308 
693.244 0.997 3.081 0.054 -85.649 0.054 -85.649 0.997 3.081 
725.927 0.998 2.861 0.05 -85.78 0.05 -85.78 0.998 2.861 
760.149 0.998 2.646 0.046 -85.882 0.046 -85.882 0.998 2.646 
795.985 0.998 2.436 0.043 -85.951 0.043 -85.951 0.998 2.436 
833.511 0.998 2.232 0.039 -85.979 0.039 -85.979 0.998 2.232 
872.806 0.998 2.033 0.035 -85.956 0.035 -85.956 0.998 2.033 
913.953 0.998 1.838 0.032 -85.87 0.032 -85.87 0.998 1.838 
957.04 0.998 1.646 0.029 -85.699 0.029 -85.699 0.998 1.646 
1002.158 0.998 1.459 0.025 -85.413 0.025 -85.413 0.998 1.459 
1049.404 0.998 1.274 0.022 -84.966 0.022 -84.966 0.998 1.274 
1098.876 0.998 1.092 0.019 -84.279 0.019 -84.279 0.998 1.092 
1150.681 0.998 0.912 0.016 -83.216 0.016 -83.216 0.998 0.912 
1204.929 0.998 0.735 0.013 -81.516 0.013 -81.516 0.998 0.735 
1261.733 0.998 0.559 9.933e-3 -78.605 9.933e-3 -78.605 0.998 0.559 
1321.216 0.998 0.384 7.002e-3 -72.976 7.002e-3 -72.976 0.998 0.384 
1383.503 0.998 0.211 4.265e-3 -59.376 4.265e-3 -59.376 0.998 0.211 
1448.726 0.998 0.038 2.422e-3 -15.734 2.422e-3 -15.734 0.998 0.038 
1517.024 0.997 -0.135 3.452e-3 42.915 3.452e-3 42.915 0.997 -0.135 
1588.542 0.997 -0.308 6.028e-3 62.712 6.028e-3 62.712 0.997 -0.308 
1663.432 0.997 -0.481 8.904e-3 70.035 8.904e-3 70.035 0.997 -0.481 
1741.852 0.997 -0.655 0.012 73.566 0.012 73.566 0.997 -0.655 
1823.969 0.996 -0.83 0.015 75.523 0.015 75.523 0.996 -0.83 
1909.958 0.996 -1.006 0.018 76.683 0.018 76.683 0.996 -1.006 
2000 0.996 -1.184 0.021 77.382 0.021 77.382 0.996 -1.184 
