# MHz S MA R 50

1 1.925e-3 51.402 0.999 -0.086 0.999 -0.086 1.925e-3 51.402 
1.047 1.987e-3 52.431 0.999 -0.09 0.999 -0.09 1.987e-3 52.431 
1.097 2.053e-3 53.448 0.999 -0.095 0.999 -0.095 2.053e-3 53.448 
1.148 2.123e-3 54.449 0.999 -0.099 0.999 -0.099 2.123e-3 54.449 
1.202 2.196e-3 55.435 0.999 -0.104 0.999 -0.104 2.196e-3 55.435 
1.259 2.274e-3 56.404 0.999 -0.109 0.999 -0.109 2.274e-3 56.404 
1.319 2.355e-3 57.355 0.999 -0.114 0.999 -0.114 2.355e-3 57.355 
1.381 2.441e-3 58.289 0.999 -0.119 0.999 -0.119 2.441e-3 58.289 
1.446 2.532e-3 59.203 0.999 -0.125 0.999 -0.125 2.532e-3 59.203 
1.514 2.627e-3 60.099 0.999 -0.131 0.999 -0.131 2.627e-3 60.099 
1.585 2.727e-3 60.974 0.999 -0.137 0.999 -0.137 2.727e-3 60.974 
1.66 2.832e-3 61.83 0.999 -0.143 0.999 -0.143 2.832e-3 61.83 
1.739 2.943e-3 62.664 0.999 -0.15 0.999 -0.15 2.943e-3 62.664 
1.821 3.06e-3 63.479 0.999 -0.157 0.999 -0.157 3.06e-3 63.479 
1.906 3.182e-3 64.272 0.999 -0.164 0.999 -0.164 3.182e-3 64.272 
1.996 3.311e-3 65.045 0.999 -0.172 0.999 -0.172 3.311e-3 65.045 
2.091 3.447e-3 65.796 0.999 -0.18 0.999 -0.18 3.447e-3 65.796 
2.189 3.589e-3 66.527 0.999 -0.189 0.999 -0.189 3.589e-3 66.527 
2.292 3.738e-3 67.237 0.999 -0.198 0.999 -0.198 3.738e-3 67.237 
2.4 3.895e-3 67.927 0.999 -0.207 0.999 -0.207 3.895e-3 67.927 
2.514 4.059e-3 68.596 0.999 -0.217 0.999 -0.217 4.059e-3 68.596 
2.632 4.232e-3 69.245 0.999 -0.227 0.999 -0.227 4.232e-3 69.245 
2.756 4.414e-3 69.874 0.998 -0.238 0.998 -0.238 4.414e-3 69.874 
2.886 4.604e-3 70.483 0.998 -0.249 0.998 -0.249 4.604e-3 70.483 
3.023 4.804e-3 71.074 0.998 -0.261 0.998 -0.261 4.804e-3 71.074 
3.165 5.013e-3 71.645 0.998 -0.273 0.998 -0.273 5.013e-3 71.645 
3.314 5.233e-3 72.198 0.998 -0.286 0.998 -0.286 5.233e-3 72.198 
3.471 5.463e-3 72.732 0.998 -0.299 0.998 -0.299 5.463e-3 72.732 
3.634 5.705e-3 73.249 0.998 -0.314 0.998 -0.314 5.705e-3 73.249 
3.806 5.958e-3 73.748 0.998 -0.328 0.998 -0.328 5.958e-3 73.748 
3.985 6.224e-3 74.23 0.998 -0.344 0.998 -0.344 6.224e-3 74.23 
4.173 6.503e-3 74.696 0.998 -0.36 0.998 -0.36 6.503e-3 74.696 
4.37 6.795e-3 75.145 0.998 -0.377 0.998 -0.377 6.795e-3 75.145 
4.576 7.101e-3 75.578 0.998 -0.395 0.998 -0.395 7.101e-3 75.578 
4.792 7.422e-3 75.996 0.998 -0.413 0.998 -0.413 7.422e-3 75.996 
5.018 7.758e-3 76.399 0.998 -0.433 0.998 -0.433 7.758e-3 76.399 
5.255 8.11e-3 76.787 0.998 -0.453 0.998 -0.453 8.11e-3 76.787 
5.503 8.479e-3 77.161 0.998 -0.475 0.998 -0.475 8.479e-3 77.161 
5.762 8.866e-3 77.521 0.998 -0.497 0.998 -0.497 8.866e-3 77.521 
6.034 9.272e-3 77.867 0.998 -0.52 0.998 -0.52 9.272e-3 77.867 
6.319 9.697e-3 78.199 0.998 -0.545 0.998 -0.545 9.697e-3 78.199 
6.617 0.01 78.519 0.998 -0.571 0.998 -0.571 0.01 78.519 
6.929 0.011 78.827 0.998 -0.597 0.998 -0.597 0.011 78.827 
7.256 0.011 79.122 0.998 -0.626 0.998 -0.626 0.011 79.122 
7.598 0.012 79.405 0.998 -0.655 0.998 -0.655 0.012 79.405 
7.956 0.012 79.676 0.998 -0.686 0.998 -0.686 0.012 79.676 
8.332 0.013 79.936 0.998 -0.718 0.998 -0.718 0.013 79.936 
8.725 0.013 80.184 0.998 -0.752 0.998 -0.752 0.013 80.184 
9.136 0.014 80.422 0.998 -0.788 0.998 -0.788 0.014 80.422 
9.567 0.015 80.649 0.998 -0.825 0.998 -0.825 0.015 80.649 
10.018 0.015 80.866 0.998 -0.864 0.998 -0.864 0.015 80.866 
10.491 0.016 81.072 0.998 -0.904 0.998 -0.904 0.016 81.072 
10.986 0.017 81.269 0.998 -0.947 0.998 -0.947 0.017 81.269 
11.504 0.017 81.455 0.998 -0.992 0.998 -0.992 0.017 81.455 
12.046 0.018 81.632 0.998 -1.038 0.998 -1.038 0.018 81.632 
12.615 0.019 81.8 0.997 -1.087 0.997 -1.087 0.019 81.8 
13.21 0.02 81.958 0.997 -1.138 0.997 -1.138 0.02 81.958 
13.833 0.021 82.107 0.997 -1.192 0.997 -1.192 0.021 82.107 
14.485 0.022 82.246 0.997 -1.248 0.997 -1.248 0.022 82.246 
15.168 0.023 82.377 0.997 -1.307 0.997 -1.307 0.023 82.377 
15.884 0.024 82.499 0.997 -1.369 0.997 -1.369 0.024 82.499 
16.633 0.025 82.612 0.997 -1.433 0.997 -1.433 0.025 82.612 
17.417 0.026 82.717 0.997 -1.501 0.997 -1.501 0.026 82.717 
18.239 0.028 82.813 0.997 -1.571 0.997 -1.571 0.028 82.813 
19.099 0.029 82.9 0.997 -1.645 0.997 -1.645 0.029 82.9 
20 0.03 82.978 0.997 -1.723 0.997 -1.723 0.03 82.978 
20.943 0.032 83.048 0.997 -1.804 0.997 -1.804 0.032 83.048 
21.931 0.033 83.11 0.997 -1.889 0.997 -1.889 0.033 83.11 
22.966 0.035 83.163 0.996 -1.978 0.996 -1.978 0.035 83.163 
24.049 0.036 83.207 0.996 -2.071 0.996 -2.071 0.036 83.207 
25.183 0.038 83.242 0.996 -2.168 0.996 -2.168 0.038 83.242 
26.371 0.04 83.269 0.996 -2.27 0.996 -2.27 0.04 83.269 
27.615 0.042 83.287 0.996 -2.377 0.996 -2.377 0.042 83.287 
28.917 0.044 83.296 0.996 -2.489 0.996 -2.489 0.044 83.296 
30.281 0.046 83.296 0.996 -2.606 0.996 -2.606 0.046 83.296 
31.709 0.048 83.287 0.996 -2.729 0.996 -2.729 0.048 83.287 
33.205 0.05 83.269 0.995 -2.857 0.995 -2.857 0.05 83.269 
34.771 0.052 83.241 0.995 -2.991 0.995 -2.991 0.052 83.241 
36.411 0.055 83.204 0.995 -3.132 0.995 -3.132 0.055 83.204 
38.129 0.057 83.157 0.995 -3.279 0.995 -3.279 0.057 83.157 
39.927 0.06 83.1 0.995 -3.433 0.995 -3.433 0.06 83.1 
41.81 0.063 83.034 0.994 -3.595 0.994 -3.595 0.063 83.034 
43.782 0.066 82.956 0.994 -3.764 0.994 -3.764 0.066 82.956 
45.847 0.069 82.868 0.994 -3.94 0.994 -3.94 0.069 82.868 
48.01 0.072 82.769 0.994 -4.125 0.994 -4.125 0.072 82.769 
50.274 0.075 82.659 0.993 -4.319 0.993 -4.319 0.075 82.659 
52.646 0.079 82.538 0.993 -4.521 0.993 -4.521 0.079 82.538 
55.129 0.083 82.405 0.992 -4.733 0.992 -4.733 0.083 82.405 
57.729 0.086 82.259 0.992 -4.955 0.992 -4.955 0.086 82.259 
60.452 0.091 82.101 0.992 -5.187 0.992 -5.187 0.091 82.101 
63.303 0.095 81.93 0.991 -5.43 0.991 -5.43 0.095 81.93 
66.289 0.099 81.746 0.991 -5.685 0.991 -5.685 0.099 81.746 
69.416 0.104 81.548 0.99 -5.95 0.99 -5.95 0.104 81.548 
72.69 0.109 81.336 0.989 -6.228 0.989 -6.228 0.109 81.336 
76.118 0.114 81.109 0.989 -6.519 0.989 -6.519 0.114 81.109 
79.709 0.119 80.867 0.988 -6.824 0.988 -6.824 0.119 80.867 
83.468 0.124 80.609 0.987 -7.142 0.987 -7.142 0.124 80.609 
87.405 0.13 80.335 0.987 -7.475 0.987 -7.475 0.13 80.335 
91.528 0.136 80.044 0.986 -7.822 0.986 -7.822 0.136 80.044 
95.845 0.142 79.735 0.985 -8.186 0.985 -8.186 0.142 79.735 
100.366 0.149 79.409 0.984 -8.566 0.984 -8.566 0.149 79.409 
105.099 0.156 79.064 0.982 -8.963 0.982 -8.963 0.156 79.064 
110.057 0.163 78.7 0.981 -9.378 0.981 -9.378 0.163 78.7 
115.248 0.171 78.316 0.98 -9.812 0.98 -9.812 0.171 78.316 
120.684 0.178 77.911 0.978 -10.264 0.978 -10.264 0.178 77.911 
126.376 0.186 77.485 0.977 -10.737 0.977 -10.737 0.186 77.485 
132.337 0.195 77.037 0.975 -11.231 0.975 -11.231 0.195 77.037 
138.578 0.204 76.566 0.973 -11.746 0.973 -11.746 0.204 76.566 
145.115 0.213 76.071 0.971 -12.283 0.971 -12.283 0.213 76.071 
151.959 0.222 75.552 0.969 -12.843 0.969 -12.843 0.222 75.552 
159.127 0.232 75.009 0.966 -13.428 0.966 -13.428 0.232 75.009 
166.632 0.243 74.439 0.964 -14.036 0.964 -14.036 0.243 74.439 
174.492 0.253 73.843 0.961 -14.671 0.961 -14.671 0.253 73.843 
182.722 0.264 73.22 0.958 -15.331 0.958 -15.331 0.264 73.22 
191.34 0.276 72.569 0.954 -16.019 0.954 -16.019 0.276 72.569 
200.365 0.288 71.889 0.951 -16.734 0.951 -16.734 0.288 71.889 
209.816 0.3 71.18 0.947 -17.477 0.947 -17.477 0.3 71.18 
219.712 0.313 70.44 0.943 -18.249 0.943 -18.249 0.313 70.44 
230.075 0.326 69.671 0.938 -19.051 0.938 -19.051 0.326 69.671 
240.927 0.34 68.87 0.933 -19.883 0.933 -19.883 0.34 68.87 
252.291 0.354 68.039 0.928 -20.746 0.928 -20.746 0.354 68.039 
264.191 0.369 67.175 0.922 -21.639 0.922 -21.639 0.369 67.175 
276.652 0.384 66.279 0.916 -22.564 0.916 -22.564 0.384 66.279 
289.7 0.399 65.351 0.909 -23.52 0.909 -23.52 0.399 65.351 
303.365 0.415 64.391 0.902 -24.507 0.902 -24.507 0.415 64.391 
317.673 0.431 63.399 0.894 -25.526 0.894 -25.526 0.431 63.399 
332.657 0.447 62.375 0.886 -26.576 0.886 -26.576 0.447 62.375 
348.347 0.464 61.319 0.877 -27.657 0.877 -27.657 0.464 61.319 
364.778 0.481 60.232 0.868 -28.768 0.868 -28.768 0.481 60.232 
381.983 0.499 59.115 0.858 -29.908 0.858 -29.908 0.499 59.115 
400 0.516 57.969 0.848 -31.078 0.848 -31.078 0.516 57.969 
418.867 0.534 56.794 0.837 -32.275 0.837 -32.275 0.534 56.794 
438.623 0.552 55.592 0.825 -33.498 0.825 -33.498 0.552 55.592 
459.312 0.57 54.365 0.813 -34.746 0.813 -34.746 0.57 54.365 
480.976 0.588 53.114 0.8 -36.018 0.8 -36.018 0.588 53.114 
503.662 0.606 51.84 0.786 -37.311 0.786 -37.311 0.606 51.84 
527.418 0.624 50.547 0.772 -38.624 0.772 -38.624 0.624 50.547 
552.295 0.642 49.235 0.757 -39.954 0.757 -39.954 0.642 49.235 
578.345 0.66 47.907 0.742 -41.299 0.742 -41.299 0.66 47.907 
605.623 0.678 46.566 0.726 -42.657 0.726 -42.657 0.678 46.566 
634.189 0.695 45.215 0.71 -44.025 0.71 -44.025 0.695 45.215 
664.101 0.712 43.854 0.693 -45.4 0.693 -45.4 0.712 43.854 
695.425 0.729 42.489 0.675 -46.781 0.675 -46.781 0.729 42.489 
728.226 0.745 41.12 0.658 -48.164 0.658 -48.164 0.745 41.12 
762.574 0.761 39.75 0.639 -49.547 0.639 -49.547 0.761 39.75 
798.542 0.776 38.383 0.621 -50.927 0.621 -50.927 0.776 38.383 
836.206 0.791 37.02 0.602 -52.302 0.602 -52.302 0.791 37.02 
875.648 0.806 35.664 0.583 -53.669 0.583 -53.669 0.806 35.664 
916.949 0.819 34.317 0.564 -55.025 0.564 -55.025 0.819 34.317 
960.199 0.833 32.982 0.544 -56.37 0.544 -56.37 0.833 32.982 
1005.488 0.845 31.66 0.525 -57.7 0.525 -57.7 0.845 31.66 
1052.914 0.857 30.353 0.505 -59.014 0.505 -59.014 0.857 30.353 
1102.576 0.869 29.062 0.486 -60.309 0.486 -60.309 0.869 29.062 
1154.581 0.88 27.79 0.466 -61.586 0.466 -61.586 0.88 27.79 
1209.039 0.89 26.537 0.447 -62.841 0.447 -62.841 0.89 26.537 
1266.065 0.899 25.304 0.427 -64.075 0.427 -64.075 0.899 25.304 
1325.782 0.908 24.092 0.408 -65.285 0.408 -65.285 0.908 24.092 
1388.314 0.917 22.902 0.389 -66.472 0.389 -66.472 0.917 22.902 
1453.797 0.925 21.734 0.37 -67.633 0.37 -67.633 0.925 21.734 
1522.368 0.932 20.588 0.352 -68.77 0.352 -68.77 0.932 20.588 
1594.173 0.939 19.465 0.333 -69.88 0.333 -69.88 0.939 19.465 
1669.365 0.945 18.364 0.315 -70.965 0.315 -70.965 0.945 18.364 
1748.103 0.951 17.284 0.297 -72.022 0.297 -72.022 0.951 17.284 
1830.556 0.957 16.227 0.279 -73.052 0.279 -73.052 0.957 16.227 
1916.897 0.962 15.19 0.262 -74.054 0.262 -74.054 0.962 15.19 
2007.311 0.966 14.173 0.245 -75.027 0.245 -75.027 0.966 14.173 
2101.989 0.97 13.176 0.228 -75.97 0.228 -75.97 0.97 13.176 
2201.133 0.974 12.198 0.211 -76.881 0.211 -76.881 0.974 12.198 
2304.953 0.977 11.237 0.195 -77.758 0.195 -77.758 0.977 11.237 
2413.671 0.98 10.294 0.179 -78.598 0.179 -78.598 0.98 10.294 
2527.516 0.983 9.366 0.163 -79.394 0.163 -79.394 0.983 9.366 
2646.73 0.986 8.452 0.147 -80.141 0.147 -80.141 0.986 8.452 
2771.568 0.988 7.552 0.131 -80.826 0.131 -80.826 0.988 7.552 
2902.294 0.989 6.665 0.116 -81.431 0.116 -81.431 0.989 6.665 
3039.186 0.991 5.788 0.101 -81.926 0.101 -81.926 0.991 5.788 
3182.534 0.992 4.921 0.086 -82.262 0.086 -82.262 0.992 4.921 
3332.644 0.993 4.062 0.071 -82.345 0.071 -82.345 0.993 4.062 
3489.834 0.994 3.211 0.056 -81.985 0.056 -81.985 0.994 3.211 
3654.438 0.994 2.365 0.042 -80.722 0.042 -80.722 0.994 2.365 
3826.806 0.994 1.524 0.027 -77.129 0.027 -77.129 0.994 1.524 
4007.304 0.994 0.686 0.013 -63.819 0.013 -63.819 0.994 0.686 
4196.316 0.994 -0.149 6.664e-3 22.888 6.664e-3 22.888 0.994 -0.149 
4394.242 0.993 -0.985 0.018 68.007 0.018 68.007 0.993 -0.985 
4601.504 0.992 -1.82 0.033 75.551 0.033 75.551 0.992 -1.82 
4818.542 0.991 -2.658 0.047 77.926 0.047 77.926 0.991 -2.658 
5045.817 0.99 -3.499 0.062 78.735 0.062 78.735 0.99 -3.499 
5283.812 0.988 -4.343 0.076 78.865 0.076 78.865 0.988 -4.343 
5533.032 0.986 -5.194 0.091 78.637 0.091 78.637 0.986 -5.194 
5794.008 0.984 -6.05 0.106 78.193 0.106 78.193 0.984 -6.05 
6067.292 0.981 -6.914 0.121 77.607 0.121 77.607 0.981 -6.914 
6353.467 0.978 -7.787 0.136 76.919 0.136 76.919 0.978 -7.787 
6653.139 0.975 -8.668 0.151 76.155 0.151 76.155 0.975 -8.668 
6966.946 0.971 -9.56 0.167 75.328 0.167 75.328 0.971 -9.56 
7295.554 0.967 -10.463 0.182 74.45 0.182 74.45 0.967 -10.463 
7639.662 0.963 -11.377 0.198 73.527 0.198 73.527 0.963 -11.377 
8000 0.958 -12.303 0.214 72.564 0.214 72.564 0.958 -12.303 
