# MHz S MA R 50

1 9.488e-3 40.753 0.993 -0.357 0.993 -0.357 9.488e-3 40.753 
1.047 9.714e-3 41.882 0.993 -0.374 0.993 -0.374 9.714e-3 41.882 
1.097 9.954e-3 43.011 0.993 -0.392 0.993 -0.392 9.954e-3 43.011 
1.148 0.01 44.14 0.993 -0.41 0.993 -0.41 0.01 44.14 
1.202 0.01 45.265 0.993 -0.43 0.993 -0.43 0.01 45.265 
1.259 0.011 46.386 0.993 -0.45 0.993 -0.45 0.011 46.386 
1.318 0.011 47.499 0.993 -0.471 0.993 -0.471 0.011 47.499 
1.381 0.011 48.604 0.993 -0.493 0.993 -0.493 0.011 48.604 
1.446 0.012 49.699 0.992 -0.517 0.992 -0.517 0.012 49.699 
1.514 0.012 50.781 0.992 -0.541 0.992 -0.541 0.012 50.781 
1.585 0.012 51.85 0.992 -0.566 0.992 -0.566 0.012 51.85 
1.66 0.013 52.903 0.992 -0.593 0.992 -0.593 0.013 52.903 
1.738 0.013 53.94 0.992 -0.621 0.992 -0.621 0.013 53.94 
1.82 0.014 54.959 0.992 -0.65 0.992 -0.65 0.014 54.959 
1.906 0.014 55.959 0.992 -0.681 0.992 -0.681 0.014 55.959 
1.996 0.015 56.939 0.992 -0.713 0.992 -0.713 0.015 56.939 
2.09 0.015 57.898 0.992 -0.746 0.992 -0.746 0.015 57.898 
2.189 0.016 58.835 0.992 -0.782 0.992 -0.782 0.016 58.835 
2.292 0.016 59.749 0.992 -0.818 0.992 -0.818 0.016 59.749 
2.4 0.017 60.641 0.992 -0.857 0.992 -0.857 0.017 60.641 
2.513 0.018 61.508 0.992 -0.897 0.992 -0.897 0.018 61.508 
2.632 0.018 62.351 0.992 -0.94 0.992 -0.94 0.018 62.351 
2.756 0.019 63.169 0.992 -0.984 0.992 -0.984 0.019 63.169 
2.886 0.02 63.963 0.991 -1.03 0.991 -1.03 0.02 63.963 
3.022 0.021 64.732 0.991 -1.079 0.991 -1.079 0.021 64.732 
3.164 0.021 65.475 0.991 -1.129 0.991 -1.129 0.021 65.475 
3.314 0.022 66.194 0.991 -1.182 0.991 -1.182 0.022 66.194 
3.47 0.023 66.887 0.991 -1.238 0.991 -1.238 0.023 66.887 
3.633 0.024 67.556 0.991 -1.296 0.991 -1.296 0.024 67.556 
3.805 0.025 68.2 0.991 -1.357 0.991 -1.357 0.025 68.2 
3.984 0.026 68.819 0.991 -1.421 0.991 -1.421 0.026 68.819 
4.172 0.027 69.413 0.991 -1.488 0.991 -1.488 0.027 69.413 
4.369 0.029 69.984 0.991 -1.558 0.991 -1.558 0.029 69.984 
4.575 0.03 70.53 0.99 -1.631 0.99 -1.631 0.03 70.53 
4.791 0.031 71.053 0.99 -1.708 0.99 -1.708 0.031 71.053 
5.016 0.033 71.553 0.99 -1.788 0.99 -1.788 0.033 71.553 
5.253 0.034 72.029 0.99 -1.873 0.99 -1.873 0.034 72.029 
5.501 0.036 72.483 0.99 -1.961 0.99 -1.961 0.036 72.483 
5.76 0.037 72.914 0.99 -2.053 0.99 -2.053 0.037 72.914 
6.032 0.039 73.323 0.99 -2.149 0.99 -2.149 0.039 73.323 
6.316 0.04 73.71 0.989 -2.25 0.989 -2.25 0.04 73.71 
6.614 0.042 74.076 0.989 -2.356 0.989 -2.356 0.042 74.076 
6.926 0.044 74.42 0.989 -2.467 0.989 -2.467 0.044 74.42 
7.253 0.046 74.744 0.989 -2.583 0.989 -2.583 0.046 74.744 
7.595 0.048 75.046 0.989 -2.704 0.989 -2.704 0.048 75.046 
7.953 0.05 75.328 0.988 -2.831 0.988 -2.831 0.05 75.328 
8.328 0.053 75.59 0.988 -2.964 0.988 -2.964 0.053 75.59 
8.72 0.055 75.831 0.988 -3.103 0.988 -3.103 0.055 75.831 
9.132 0.058 76.053 0.988 -3.249 0.988 -3.249 0.058 76.053 
9.562 0.06 76.255 0.987 -3.401 0.987 -3.401 0.06 76.255 
10.013 0.063 76.437 0.987 -3.561 0.987 -3.561 0.063 76.437 
10.485 0.066 76.6 0.987 -3.728 0.987 -3.728 0.066 76.6 
10.98 0.069 76.743 0.986 -3.902 0.986 -3.902 0.069 76.743 
11.498 0.072 76.867 0.986 -4.085 0.986 -4.085 0.072 76.867 
12.04 0.075 76.972 0.986 -4.277 0.986 -4.277 0.075 76.972 
12.608 0.079 77.057 0.985 -4.477 0.985 -4.477 0.079 77.057 
13.202 0.083 77.123 0.985 -4.686 0.985 -4.686 0.083 77.123 
13.825 0.086 77.169 0.984 -4.905 0.984 -4.905 0.086 77.169 
14.477 0.09 77.196 0.984 -5.135 0.984 -5.135 0.09 77.196 
15.159 0.094 77.203 0.983 -5.375 0.983 -5.375 0.094 77.203 
15.874 0.099 77.19 0.983 -5.626 0.983 -5.626 0.099 77.19 
16.623 0.103 77.158 0.982 -5.888 0.982 -5.888 0.103 77.158 
17.406 0.108 77.105 0.982 -6.163 0.982 -6.163 0.108 77.105 
18.227 0.113 77.032 0.981 -6.45 0.981 -6.45 0.113 77.032 
19.087 0.118 76.938 0.98 -6.75 0.98 -6.75 0.118 76.938 
19.987 0.124 76.824 0.979 -7.064 0.979 -7.064 0.124 76.824 
20.929 0.129 76.688 0.978 -7.392 0.978 -7.392 0.129 76.688 
21.916 0.135 76.531 0.977 -7.735 0.977 -7.735 0.135 76.531 
22.95 0.141 76.351 0.976 -8.094 0.976 -8.094 0.141 76.351 
24.032 0.148 76.15 0.975 -8.469 0.975 -8.469 0.148 76.15 
25.165 0.155 75.926 0.974 -8.86 0.974 -8.86 0.155 75.926 
26.352 0.162 75.678 0.973 -9.269 0.973 -9.269 0.162 75.678 
27.595 0.169 75.407 0.971 -9.696 0.971 -9.696 0.169 75.407 
28.896 0.177 75.111 0.97 -10.142 0.97 -10.142 0.177 75.111 
30.258 0.185 74.791 0.968 -10.607 0.968 -10.607 0.185 74.791 
31.685 0.193 74.446 0.966 -11.093 0.966 -11.093 0.193 74.446 
33.179 0.202 74.075 0.964 -11.6 0.964 -11.6 0.202 74.075 
34.744 0.211 73.677 0.962 -12.128 0.962 -12.128 0.211 73.677 
36.383 0.22 73.253 0.96 -12.679 0.96 -12.679 0.22 73.253 
38.098 0.23 72.801 0.958 -13.254 0.958 -13.254 0.23 72.801 
39.895 0.24 72.321 0.955 -13.852 0.955 -13.852 0.24 72.321 
41.776 0.25 71.812 0.952 -14.475 0.952 -14.475 0.25 71.812 
43.746 0.261 71.274 0.949 -15.123 0.949 -15.123 0.261 71.274 
45.809 0.273 70.706 0.946 -15.798 0.946 -15.798 0.273 70.706 
47.969 0.284 70.108 0.942 -16.499 0.942 -16.499 0.284 70.108 
50.231 0.297 69.479 0.938 -17.228 0.938 -17.228 0.297 69.479 
52.6 0.309 68.819 0.934 -17.985 0.934 -17.985 0.309 68.819 
55.08 0.322 68.127 0.929 -18.77 0.929 -18.77 0.322 68.127 
57.678 0.336 67.403 0.925 -19.584 0.925 -19.584 0.336 67.403 
60.397 0.349 66.647 0.919 -20.428 0.919 -20.428 0.349 66.647 
63.246 0.364 65.858 0.914 -21.301 0.914 -21.301 0.364 65.858 
66.228 0.378 65.037 0.908 -22.204 0.908 -22.204 0.378 65.037 
69.351 0.393 64.183 0.901 -23.137 0.901 -23.137 0.393 64.183 
72.621 0.409 63.296 0.894 -24.1 0.894 -24.1 0.409 63.296 
76.046 0.425 62.378 0.887 -25.093 0.887 -25.093 0.425 62.378 
79.632 0.441 61.427 0.879 -26.116 0.879 -26.116 0.441 61.427 
83.387 0.457 60.445 0.871 -27.167 0.871 -27.167 0.457 60.445 
87.319 0.474 59.433 0.862 -28.247 0.862 -28.247 0.474 59.433 
91.437 0.491 58.39 0.852 -29.354 0.852 -29.354 0.491 58.39 
95.749 0.508 57.319 0.842 -30.488 0.842 -30.488 0.508 57.319 
100.264 0.525 56.221 0.832 -31.648 0.832 -31.648 0.525 56.221 
104.992 0.543 55.096 0.821 -32.832 0.821 -32.832 0.543 55.096 
109.943 0.56 53.948 0.809 -34.038 0.809 -34.038 0.56 53.948 
115.127 0.578 52.776 0.797 -35.265 0.797 -35.265 0.578 52.776 
120.556 0.595 51.584 0.784 -36.511 0.784 -36.511 0.595 51.584 
126.241 0.613 50.373 0.771 -37.775 0.771 -37.775 0.613 50.373 
132.194 0.63 49.145 0.757 -39.052 0.757 -39.052 0.63 49.145 
138.428 0.648 47.904 0.742 -40.343 0.742 -40.343 0.648 47.904 
144.956 0.665 46.652 0.728 -41.643 0.728 -41.643 0.665 46.652 
151.791 0.682 45.39 0.712 -42.95 0.712 -42.95 0.682 45.39 
158.949 0.698 44.123 0.696 -44.262 0.696 -44.262 0.698 44.123 
166.445 0.714 42.852 0.68 -45.576 0.68 -45.576 0.714 42.852 
174.294 0.73 41.581 0.664 -46.889 0.664 -46.889 0.73 41.581 
182.513 0.746 40.311 0.647 -48.199 0.647 -48.199 0.746 40.311 
191.119 0.761 39.047 0.63 -49.503 0.63 -49.503 0.761 39.047 
200.132 0.775 37.79 0.613 -50.799 0.613 -50.799 0.775 37.79 
209.569 0.789 36.542 0.596 -52.083 0.596 -52.083 0.789 36.542 
219.452 0.803 35.308 0.578 -53.353 0.578 -53.353 0.803 35.308 
229.8 0.815 34.087 0.561 -54.608 0.561 -54.608 0.815 34.087 
240.637 0.828 32.884 0.543 -55.846 0.543 -55.846 0.828 32.884 
251.984 0.839 31.699 0.526 -57.063 0.526 -57.063 0.839 31.699 
263.867 0.851 30.534 0.508 -58.259 0.508 -58.259 0.851 30.534 
276.31 0.861 29.391 0.491 -59.433 0.491 -59.433 0.861 29.391 
289.339 0.871 28.272 0.474 -60.581 0.474 -60.581 0.871 28.272 
302.984 0.881 27.177 0.457 -61.705 0.457 -61.705 0.881 27.177 
317.271 0.89 26.108 0.44 -62.802 0.44 -62.802 0.89 26.108 
332.232 0.898 25.065 0.424 -63.871 0.424 -63.871 0.898 25.065 
347.899 0.906 24.049 0.408 -64.913 0.408 -64.913 0.906 24.049 
364.305 0.913 23.061 0.392 -65.926 0.392 -65.926 0.913 23.061 
381.484 0.92 22.1 0.376 -66.911 0.376 -66.911 0.92 22.1 
399.473 0.926 21.168 0.361 -67.866 0.361 -67.866 0.926 21.168 
418.311 0.932 20.263 0.346 -68.793 0.346 -68.793 0.932 20.263 
438.037 0.938 19.386 0.332 -69.691 0.332 -69.691 0.938 19.386 
458.693 0.943 18.537 0.318 -70.56 0.318 -70.56 0.943 18.537 
480.323 0.948 17.715 0.304 -71.401 0.304 -71.401 0.948 17.715 
502.973 0.952 16.92 0.291 -72.214 0.291 -72.214 0.952 16.92 
526.692 0.956 16.152 0.278 -73 0.278 -73 0.956 16.152 
551.528 0.96 15.41 0.266 -73.759 0.266 -73.759 0.96 15.41 
577.536 0.964 14.693 0.254 -74.491 0.254 -74.491 0.964 14.693 
604.771 0.967 14 0.242 -75.198 0.242 -75.198 0.967 14 
633.289 0.97 13.331 0.231 -75.879 0.231 -75.879 0.97 13.331 
663.153 0.973 12.686 0.22 -76.536 0.22 -76.536 0.973 12.686 
694.425 0.975 12.063 0.209 -77.169 0.209 -77.169 0.975 12.063 
727.171 0.977 11.462 0.199 -77.779 0.199 -77.779 0.977 11.462 
761.462 0.98 10.881 0.189 -78.367 0.189 -78.367 0.98 10.881 
797.369 0.981 10.321 0.179 -78.932 0.179 -78.932 0.981 10.321 
834.97 0.983 9.78 0.17 -79.477 0.17 -79.477 0.983 9.78 
874.344 0.985 9.257 0.161 -80 0.161 -80 0.985 9.257 
915.575 0.986 8.752 0.152 -80.504 0.152 -80.504 0.986 8.752 
958.75 0.988 8.263 0.144 -80.988 0.144 -80.988 0.988 8.263 
1003.961 0.989 7.791 0.136 -81.452 0.136 -81.452 0.989 7.791 
1051.303 0.99 7.333 0.128 -81.898 0.128 -81.898 0.99 7.333 
1100.879 0.991 6.89 0.12 -82.324 0.12 -82.324 0.991 6.89 
1152.792 0.992 6.461 0.113 -82.732 0.113 -82.732 0.992 6.461 
1207.153 0.993 6.044 0.105 -83.12 0.105 -83.12 0.993 6.044 
1264.078 0.994 5.64 0.098 -83.489 0.098 -83.489 0.994 5.64 
1323.687 0.994 5.246 0.091 -83.837 0.091 -83.837 0.994 5.246 
1386.107 0.995 4.863 0.085 -84.163 0.085 -84.163 0.995 4.863 
1451.471 0.996 4.49 0.078 -84.465 0.078 -84.465 0.996 4.49 
1519.916 0.996 4.126 0.072 -84.74 0.072 -84.74 0.996 4.126 
1591.59 0.996 3.771 0.066 -84.984 0.066 -84.984 0.996 3.771 
1666.643 0.997 3.423 0.06 -85.191 0.06 -85.191 0.997 3.423 
1745.235 0.997 3.082 0.054 -85.351 0.054 -85.351 0.997 3.082 
1827.534 0.997 2.748 0.048 -85.453 0.048 -85.453 0.997 2.748 
1913.713 0.998 2.419 0.042 -85.474 0.042 -85.474 0.998 2.419 
2003.957 0.998 2.095 0.037 -85.382 0.037 -85.382 0.998 2.095 
2098.456 0.998 1.775 0.031 -85.119 0.031 -85.119 0.998 1.775 
2197.411 0.998 1.459 0.026 -84.579 0.026 -84.579 0.998 1.459 
2301.032 0.998 1.146 0.02 -83.543 0.02 -83.543 0.998 1.146 
2409.54 0.998 0.836 0.015 -81.473 0.015 -81.473 0.998 0.836 
2523.164 0.998 0.528 9.446e-3 -76.645 9.446e-3 -76.645 0.998 0.528 
2642.147 0.998 0.22 4.452e-3 -59.57 4.452e-3 -59.57 0.998 0.22 
2766.741 0.998 -0.086 2.834e-3 31.993 2.834e-3 31.993 0.998 -0.086 
2897.209 0.997 -0.393 7.327e-3 68.98 7.327e-3 68.98 0.997 -0.393 
3033.831 0.997 -0.7 0.013 76.473 0.013 76.473 0.997 -0.7 
3176.894 0.997 -1.009 0.018 79.301 0.018 79.301 0.997 -1.009 
3326.704 0.996 -1.319 0.023 80.635 0.023 80.635 0.996 -1.319 
3483.579 0.996 -1.632 0.029 81.304 0.029 81.304 0.996 -1.632 
3647.851 0.996 -1.947 0.034 81.618 0.034 81.618 0.996 -1.947 
3819.87 0.995 -2.266 0.04 81.719 0.04 81.719 0.995 -2.266 
4000 0.994 -2.59 0.045 81.678 0.045 81.678 0.994 -2.59 
