# MHz S MA R 50

1 3.066e-3 33.404 0.997 -0.097 0.997 -0.097 3.066e-3 33.404 
1.047 3.121e-3 34.488 0.997 -0.102 0.997 -0.102 3.121e-3 34.488 
1.097 3.18e-3 35.586 0.997 -0.106 0.997 -0.106 3.18e-3 35.586 
1.148 3.243e-3 36.696 0.997 -0.111 0.997 -0.111 3.243e-3 36.696 
1.202 3.31e-3 37.815 0.997 -0.117 0.997 -0.117 3.31e-3 37.815 
1.259 3.381e-3 38.943 0.997 -0.122 0.997 -0.122 3.381e-3 38.943 
1.319 3.456e-3 40.077 0.997 -0.128 0.997 -0.128 3.456e-3 40.077 
1.381 3.536e-3 41.216 0.997 -0.134 0.997 -0.134 3.536e-3 41.216 
1.446 3.621e-3 42.358 0.997 -0.14 0.997 -0.14 3.621e-3 42.358 
1.514 3.711e-3 43.501 0.997 -0.147 0.997 -0.147 3.711e-3 43.501 
1.585 3.807e-3 44.642 0.997 -0.154 0.997 -0.154 3.807e-3 44.642 
1.66 3.909e-3 45.781 0.997 -0.161 0.997 -0.161 3.909e-3 45.781 
1.739 4.016e-3 46.915 0.997 -0.169 0.997 -0.169 4.016e-3 46.915 
1.821 4.13e-3 48.042 0.997 -0.176 0.997 -0.176 4.13e-3 48.042 
1.906 4.251e-3 49.161 0.997 -0.185 0.997 -0.185 4.251e-3 49.161 
1.996 4.379e-3 50.27 0.997 -0.194 0.997 -0.194 4.379e-3 50.27 
2.091 4.515e-3 51.366 0.997 -0.203 0.997 -0.203 4.515e-3 51.366 
2.189 4.658e-3 52.45 0.997 -0.212 0.997 -0.212 4.658e-3 52.45 
2.292 4.809e-3 53.519 0.997 -0.222 0.997 -0.222 4.809e-3 53.519 
2.4 4.969e-3 54.571 0.997 -0.233 0.997 -0.233 4.969e-3 54.571 
2.514 5.138e-3 55.607 0.997 -0.244 0.997 -0.244 5.138e-3 55.607 
2.632 5.316e-3 56.624 0.997 -0.255 0.997 -0.255 5.316e-3 56.624 
2.756 5.505e-3 57.621 0.997 -0.267 0.997 -0.267 5.505e-3 57.621 
2.886 5.703e-3 58.598 0.997 -0.28 0.997 -0.28 5.703e-3 58.598 
3.023 5.912e-3 59.554 0.997 -0.293 0.997 -0.293 5.912e-3 59.554 
3.165 6.133e-3 60.488 0.997 -0.307 0.997 -0.307 6.133e-3 60.488 
3.314 6.366e-3 61.399 0.997 -0.321 0.997 -0.321 6.366e-3 61.399 
3.471 6.61e-3 62.288 0.997 -0.336 0.997 -0.336 6.61e-3 62.288 
3.634 6.868e-3 63.154 0.997 -0.352 0.997 -0.352 6.868e-3 63.154 
3.806 7.139e-3 63.996 0.997 -0.369 0.997 -0.369 7.139e-3 63.996 
3.985 7.425e-3 64.815 0.997 -0.386 0.997 -0.386 7.425e-3 64.815 
4.173 7.725e-3 65.61 0.997 -0.404 0.997 -0.404 7.725e-3 65.61 
4.37 8.04e-3 66.381 0.997 -0.423 0.997 -0.423 8.04e-3 66.381 
4.576 8.372e-3 67.129 0.997 -0.443 0.997 -0.443 8.372e-3 67.129 
4.792 8.72e-3 67.853 0.997 -0.464 0.997 -0.464 8.72e-3 67.853 
5.018 9.087e-3 68.553 0.997 -0.486 0.997 -0.486 9.087e-3 68.553 
5.255 9.471e-3 69.231 0.997 -0.509 0.997 -0.509 9.471e-3 69.231 
5.503 9.875e-3 69.886 0.997 -0.533 0.997 -0.533 9.875e-3 69.886 
5.762 0.01 70.518 0.997 -0.558 0.997 -0.558 0.01 70.518 
6.034 0.011 71.128 0.997 -0.585 0.997 -0.585 0.011 71.128 
6.319 0.011 71.716 0.997 -0.612 0.997 -0.612 0.011 71.716 
6.617 0.012 72.283 0.997 -0.641 0.997 -0.641 0.012 72.283 
6.929 0.012 72.828 0.996 -0.671 0.996 -0.671 0.012 72.828 
7.256 0.013 73.353 0.996 -0.703 0.996 -0.703 0.013 73.353 
7.598 0.013 73.858 0.996 -0.736 0.996 -0.736 0.013 73.858 
7.956 0.014 74.343 0.996 -0.771 0.996 -0.771 0.014 74.343 
8.332 0.015 74.808 0.996 -0.807 0.996 -0.807 0.015 74.808 
8.725 0.015 75.255 0.996 -0.845 0.996 -0.845 0.015 75.255 
9.136 0.016 75.683 0.996 -0.885 0.996 -0.885 0.016 75.683 
9.567 0.017 76.092 0.996 -0.926 0.996 -0.926 0.017 76.092 
10.018 0.017 76.484 0.996 -0.97 0.996 -0.97 0.017 76.484 
10.491 0.018 76.859 0.996 -1.016 0.996 -1.016 0.018 76.859 
10.986 0.019 77.217 0.996 -1.064 0.996 -1.064 0.019 77.217 
11.504 0.02 77.558 0.996 -1.114 0.996 -1.114 0.02 77.558 
12.046 0.021 77.883 0.996 -1.166 0.996 -1.166 0.021 77.883 
12.615 0.022 78.193 0.996 -1.221 0.996 -1.221 0.022 78.193 
13.21 0.023 78.486 0.996 -1.279 0.996 -1.279 0.023 78.486 
13.833 0.024 78.765 0.996 -1.339 0.996 -1.339 0.024 78.765 
14.485 0.025 79.029 0.996 -1.402 0.996 -1.402 0.025 79.029 
15.168 0.026 79.278 0.995 -1.468 0.995 -1.468 0.026 79.278 
15.884 0.027 79.513 0.995 -1.537 0.995 -1.537 0.027 79.513 
16.633 0.028 79.734 0.995 -1.609 0.995 -1.609 0.028 79.734 
17.417 0.03 79.941 0.995 -1.685 0.995 -1.685 0.03 79.941 
18.239 0.031 80.134 0.995 -1.765 0.995 -1.765 0.031 80.134 
19.099 0.033 80.314 0.995 -1.848 0.995 -1.848 0.033 80.314 
20 0.034 80.481 0.995 -1.935 0.995 -1.935 0.034 80.481 
20.943 0.036 80.635 0.995 -2.026 0.995 -2.026 0.036 80.635 
21.931 0.037 80.775 0.995 -2.121 0.995 -2.121 0.037 80.775 
22.966 0.039 80.903 0.995 -2.221 0.995 -2.221 0.039 80.903 
24.049 0.041 81.019 0.994 -2.325 0.994 -2.325 0.041 81.019 
25.183 0.043 81.121 0.994 -2.435 0.994 -2.435 0.043 81.121 
26.371 0.045 81.211 0.994 -2.549 0.994 -2.549 0.045 81.211 
27.615 0.047 81.289 0.994 -2.669 0.994 -2.669 0.047 81.289 
28.917 0.049 81.354 0.994 -2.795 0.994 -2.795 0.049 81.354 
30.281 0.051 81.406 0.994 -2.926 0.994 -2.926 0.051 81.406 
31.709 0.054 81.446 0.993 -3.064 0.993 -3.064 0.054 81.446 
33.205 0.056 81.474 0.993 -3.208 0.993 -3.208 0.056 81.474 
34.771 0.059 81.488 0.993 -3.358 0.993 -3.358 0.059 81.488 
36.411 0.062 81.49 0.993 -3.516 0.993 -3.516 0.062 81.49 
38.129 0.064 81.479 0.993 -3.681 0.993 -3.681 0.064 81.479 
39.927 0.067 81.455 0.992 -3.854 0.992 -3.854 0.067 81.455 
41.81 0.071 81.418 0.992 -4.035 0.992 -4.035 0.071 81.418 
43.782 0.074 81.368 0.992 -4.224 0.992 -4.224 0.074 81.368 
45.847 0.077 81.304 0.991 -4.422 0.991 -4.422 0.077 81.304 
48.01 0.081 81.226 0.991 -4.63 0.991 -4.63 0.081 81.226 
50.274 0.085 81.134 0.99 -4.847 0.99 -4.847 0.085 81.134 
52.646 0.089 81.028 0.99 -5.074 0.99 -5.074 0.089 81.028 
55.129 0.093 80.908 0.99 -5.311 0.99 -5.311 0.093 80.908 
57.729 0.097 80.772 0.989 -5.56 0.989 -5.56 0.097 80.772 
60.452 0.102 80.621 0.989 -5.82 0.989 -5.82 0.102 80.621 
63.303 0.106 80.455 0.988 -6.092 0.988 -6.092 0.106 80.455 
66.289 0.111 80.272 0.987 -6.377 0.987 -6.377 0.111 80.272 
69.416 0.116 80.074 0.987 -6.674 0.987 -6.674 0.116 80.074 
72.69 0.122 79.858 0.986 -6.985 0.986 -6.985 0.122 79.858 
76.118 0.127 79.625 0.985 -7.311 0.985 -7.311 0.127 79.625 
79.709 0.133 79.374 0.984 -7.651 0.984 -7.651 0.133 79.374 
83.468 0.139 79.105 0.983 -8.007 0.983 -8.007 0.139 79.105 
87.405 0.146 78.816 0.982 -8.379 0.982 -8.379 0.146 78.816 
91.528 0.153 78.509 0.981 -8.767 0.981 -8.767 0.153 78.509 
95.845 0.16 78.181 0.98 -9.173 0.98 -9.173 0.16 78.181 
100.366 0.167 77.833 0.979 -9.597 0.979 -9.597 0.167 77.833 
105.099 0.175 77.463 0.977 -10.04 0.977 -10.04 0.175 77.463 
110.057 0.182 77.071 0.976 -10.503 0.976 -10.503 0.182 77.071 
115.248 0.191 76.657 0.974 -10.986 0.974 -10.986 0.191 76.657 
120.684 0.199 76.22 0.972 -11.49 0.972 -11.49 0.199 76.22 
126.376 0.208 75.758 0.97 -12.016 0.97 -12.016 0.208 75.758 
132.337 0.218 75.272 0.968 -12.564 0.968 -12.564 0.218 75.272 
138.578 0.227 74.76 0.965 -13.136 0.965 -13.136 0.227 74.76 
145.115 0.238 74.223 0.963 -13.733 0.963 -13.733 0.238 74.223 
151.959 0.248 73.658 0.96 -14.354 0.96 -14.354 0.248 73.658 
159.127 0.259 73.066 0.957 -15.001 0.957 -15.001 0.259 73.066 
166.632 0.27 72.446 0.954 -15.674 0.954 -15.674 0.27 72.446 
174.492 0.282 71.797 0.95 -16.375 0.95 -16.375 0.282 71.797 
182.722 0.294 71.118 0.947 -17.104 0.947 -17.104 0.294 71.118 
191.34 0.307 70.41 0.943 -17.861 0.943 -17.861 0.307 70.41 
200.365 0.32 69.67 0.938 -18.647 0.938 -18.647 0.32 69.67 
209.816 0.333 68.9 0.933 -19.463 0.933 -19.463 0.333 68.9 
219.712 0.347 68.098 0.928 -20.309 0.928 -20.309 0.347 68.098 
230.075 0.362 67.263 0.923 -21.186 0.923 -21.186 0.362 67.263 
240.927 0.376 66.397 0.917 -22.094 0.917 -22.094 0.376 66.397 
252.291 0.391 65.498 0.91 -23.033 0.91 -23.033 0.391 65.498 
264.191 0.407 64.567 0.903 -24.003 0.903 -24.003 0.407 64.567 
276.652 0.423 63.603 0.896 -25.005 0.896 -25.005 0.423 63.603 
289.7 0.439 62.607 0.888 -26.037 0.888 -26.037 0.439 62.607 
303.365 0.456 61.579 0.88 -27.101 0.88 -27.101 0.456 61.579 
317.673 0.473 60.52 0.871 -28.194 0.871 -28.194 0.473 60.52 
332.657 0.49 59.43 0.861 -29.318 0.861 -29.318 0.49 59.43 
348.347 0.507 58.31 0.851 -30.47 0.851 -30.47 0.507 58.31 
364.778 0.525 57.161 0.84 -31.651 0.84 -31.651 0.525 57.161 
381.983 0.543 55.984 0.829 -32.858 0.829 -32.858 0.543 55.984 
400 0.561 54.781 0.817 -34.09 0.817 -34.09 0.561 54.781 
418.867 0.579 53.553 0.805 -35.347 0.805 -35.347 0.579 53.553 
438.623 0.597 52.302 0.791 -36.625 0.791 -36.625 0.597 52.302 
459.312 0.615 51.03 0.778 -37.924 0.778 -37.924 0.615 51.03 
480.976 0.633 49.738 0.763 -39.241 0.763 -39.241 0.633 49.738 
503.662 0.651 48.43 0.748 -40.574 0.748 -40.574 0.651 48.43 
527.418 0.668 47.108 0.733 -41.92 0.733 -41.92 0.668 47.108 
552.295 0.686 45.774 0.717 -43.278 0.717 -43.278 0.686 45.774 
578.345 0.703 44.43 0.7 -44.644 0.7 -44.644 0.703 44.43 
605.623 0.72 43.079 0.683 -46.016 0.683 -46.016 0.72 43.079 
634.189 0.736 41.724 0.666 -47.392 0.666 -47.392 0.736 41.724 
664.101 0.752 40.368 0.648 -48.768 0.648 -48.768 0.752 40.368 
695.425 0.768 39.012 0.63 -50.143 0.63 -50.143 0.768 39.012 
728.226 0.783 37.66 0.611 -51.513 0.611 -51.513 0.783 37.66 
762.574 0.797 36.314 0.592 -52.876 0.592 -52.876 0.797 36.314 
798.542 0.811 34.977 0.573 -54.231 0.573 -54.231 0.811 34.977 
836.206 0.825 33.649 0.554 -55.573 0.554 -55.573 0.825 33.649 
875.648 0.838 32.335 0.535 -56.903 0.535 -56.903 0.838 32.335 
916.949 0.85 31.035 0.516 -58.216 0.516 -58.216 0.85 31.035 
960.199 0.862 29.751 0.496 -59.513 0.496 -59.513 0.862 29.751 
1005.488 0.873 28.485 0.477 -60.791 0.477 -60.791 0.873 28.485 
1052.914 0.883 27.238 0.458 -62.048 0.458 -62.048 0.883 27.238 
1102.576 0.893 26.011 0.439 -63.285 0.439 -63.285 0.893 26.011 
1154.581 0.903 24.805 0.42 -64.499 0.42 -64.499 0.903 24.805 
1209.039 0.911 23.621 0.401 -65.69 0.401 -65.69 0.911 23.621 
1266.065 0.92 22.459 0.382 -66.857 0.382 -66.857 0.92 22.459 
1325.782 0.927 21.319 0.364 -67.999 0.364 -67.999 0.927 21.319 
1388.314 0.934 20.203 0.345 -69.117 0.345 -69.117 0.934 20.203 
1453.797 0.941 19.109 0.327 -70.21 0.327 -70.21 0.941 19.109 
1522.368 0.947 18.037 0.31 -71.278 0.31 -71.278 0.947 18.037 
1594.173 0.953 16.988 0.292 -72.321 0.292 -72.321 0.953 16.988 
1669.365 0.958 15.96 0.275 -73.338 0.275 -73.338 0.958 15.96 
1748.103 0.963 14.954 0.258 -74.33 0.258 -74.33 0.963 14.954 
1830.556 0.967 13.968 0.241 -75.297 0.241 -75.297 0.967 13.968 
1916.897 0.971 13.002 0.225 -76.238 0.225 -76.238 0.971 13.002 
2007.311 0.975 12.055 0.209 -77.153 0.209 -77.153 0.975 12.055 
2101.989 0.978 11.125 0.193 -78.041 0.193 -78.041 0.978 11.125 
2201.133 0.981 10.213 0.177 -78.901 0.177 -78.901 0.981 10.213 
2304.953 0.984 9.316 0.162 -79.731 0.162 -79.731 0.984 9.316 
2413.671 0.987 8.434 0.147 -80.526 0.147 -80.526 0.987 8.434 
2527.516 0.989 7.565 0.132 -81.283 0.132 -81.283 0.989 7.565 
2646.73 0.991 6.709 0.117 -81.993 0.117 -81.993 0.991 6.709 
2771.568 0.992 5.864 0.102 -82.642 0.102 -82.642 0.992 5.864 
2902.294 0.993 5.028 0.088 -83.207 0.088 -83.207 0.993 5.028 
3039.186 0.995 4.201 0.073 -83.645 0.073 -83.645 0.995 4.201 
3182.534 0.995 3.382 0.059 -83.873 0.059 -83.873 0.995 3.382 
3332.644 0.996 2.568 0.045 -83.699 0.045 -83.699 0.996 2.568 
3489.834 0.996 1.758 0.031 -82.586 0.031 -82.586 0.996 1.758 
3654.438 0.997 0.952 0.017 -78.226 0.017 -78.226 0.997 0.952 
3826.806 0.997 0.148 4.221e-3 -37.587 4.221e-3 -37.587 0.997 0.148 
4007.304 0.996 -0.656 0.012 72.22 0.012 72.22 0.996 -0.656 
4196.316 0.996 -1.46 0.026 80.19 0.026 80.19 0.996 -1.46 
4394.242 0.995 -2.266 0.04 81.983 0.04 81.983 0.995 -2.266 
4601.504 0.994 -3.076 0.054 82.389 0.054 82.389 0.994 -3.076 
4818.542 0.993 -3.891 0.068 82.262 0.068 82.262 0.993 -3.891 
5045.817 0.992 -4.711 0.082 81.871 0.082 81.871 0.992 -4.711 
5283.812 0.99 -5.538 0.097 81.327 0.097 81.327 0.99 -5.538 
5533.032 0.988 -6.374 0.111 80.684 0.111 80.684 0.988 -6.374 
5794.008 0.986 -7.219 0.126 79.97 0.126 79.97 0.986 -7.219 
6067.292 0.983 -8.075 0.141 79.201 0.141 79.201 0.983 -8.075 
6353.467 0.981 -8.943 0.156 78.389 0.156 78.389 0.981 -8.943 
6653.139 0.977 -9.823 0.171 77.538 0.171 77.538 0.977 -9.823 
6966.946 0.974 -10.717 0.186 76.654 0.186 76.654 0.974 -10.717 
7295.554 0.97 -11.625 0.202 75.738 0.202 75.738 0.97 -11.625 
7639.662 0.966 -12.549 0.218 74.793 0.218 74.793 0.966 -12.549 
8000 0.961 -13.488 0.234 73.819 0.234 73.819 0.961 -13.488 
