# MHz S MA R 50

1 0.026 29.905 0.977 -0.774 0.977 -0.774 0.026 29.905 
1.047 0.027 30.955 0.977 -0.81 0.977 -0.81 0.027 30.955 
1.097 0.027 32.022 0.977 -0.848 0.977 -0.848 0.027 32.022 
1.148 0.028 33.105 0.977 -0.888 0.977 -0.888 0.028 33.105 
1.202 0.028 34.203 0.977 -0.93 0.977 -0.93 0.028 34.203 
1.259 0.029 35.313 0.977 -0.974 0.977 -0.974 0.029 35.313 
1.318 0.029 36.434 0.977 -1.02 0.977 -1.02 0.029 36.434 
1.381 0.03 37.564 0.977 -1.068 0.977 -1.068 0.03 37.564 
1.446 0.03 38.701 0.976 -1.118 0.976 -1.118 0.03 38.701 
1.514 0.031 39.842 0.976 -1.171 0.976 -1.171 0.031 39.842 
1.585 0.032 40.986 0.976 -1.226 0.976 -1.226 0.032 40.986 
1.66 0.033 42.13 0.976 -1.283 0.976 -1.283 0.033 42.13 
1.738 0.033 43.272 0.976 -1.344 0.976 -1.344 0.033 43.272 
1.82 0.034 44.409 0.976 -1.407 0.976 -1.407 0.034 44.409 
1.906 0.035 45.54 0.976 -1.473 0.976 -1.473 0.035 45.54 
1.996 0.036 46.662 0.976 -1.542 0.976 -1.542 0.036 46.662 
2.09 0.037 47.772 0.975 -1.615 0.975 -1.615 0.037 47.772 
2.188 0.038 48.87 0.975 -1.691 0.975 -1.691 0.038 48.87 
2.291 0.039 49.952 0.975 -1.77 0.975 -1.77 0.039 49.952 
2.399 0.041 51.017 0.975 -1.853 0.975 -1.853 0.041 51.017 
2.513 0.042 52.063 0.975 -1.94 0.975 -1.94 0.042 52.063 
2.631 0.043 53.088 0.975 -2.031 0.975 -2.031 0.043 53.088 
2.755 0.045 54.091 0.974 -2.127 0.974 -2.127 0.045 54.091 
2.885 0.046 55.07 0.974 -2.227 0.974 -2.227 0.046 55.07 
3.021 0.048 56.024 0.974 -2.331 0.974 -2.331 0.048 56.024 
3.163 0.049 56.951 0.974 -2.441 0.974 -2.441 0.049 56.951 
3.313 0.051 57.85 0.974 -2.555 0.974 -2.555 0.051 57.85 
3.469 0.053 58.721 0.973 -2.675 0.973 -2.675 0.053 58.721 
3.632 0.055 59.563 0.973 -2.801 0.973 -2.801 0.055 59.563 
3.803 0.057 60.374 0.973 -2.932 0.973 -2.932 0.057 60.374 
3.983 0.059 61.154 0.973 -3.07 0.973 -3.07 0.059 61.154 
4.171 0.062 61.903 0.972 -3.214 0.972 -3.214 0.062 61.903 
4.367 0.064 62.621 0.972 -3.364 0.972 -3.364 0.064 62.621 
4.573 0.067 63.306 0.972 -3.522 0.972 -3.522 0.067 63.306 
4.789 0.07 63.959 0.971 -3.687 0.971 -3.687 0.07 63.959 
5.014 0.072 64.579 0.971 -3.86 0.971 -3.86 0.072 64.579 
5.251 0.075 65.166 0.971 -4.04 0.971 -4.04 0.075 65.166 
5.498 0.079 65.721 0.97 -4.229 0.97 -4.229 0.079 65.721 
5.758 0.082 66.242 0.97 -4.427 0.97 -4.427 0.082 66.242 
6.029 0.085 66.731 0.969 -4.634 0.969 -4.634 0.085 66.731 
6.313 0.089 67.187 0.969 -4.851 0.969 -4.851 0.089 67.187 
6.611 0.093 67.61 0.968 -5.078 0.968 -5.078 0.093 67.61 
6.922 0.097 68 0.968 -5.315 0.968 -5.315 0.097 68 
7.249 0.101 68.357 0.967 -5.562 0.967 -5.562 0.101 68.357 
7.591 0.105 68.682 0.967 -5.822 0.967 -5.822 0.105 68.682 
7.948 0.11 68.973 0.966 -6.093 0.966 -6.093 0.11 68.973 
8.323 0.115 69.233 0.965 -6.377 0.965 -6.377 0.115 69.233 
8.716 0.12 69.459 0.965 -6.673 0.965 -6.673 0.12 69.459 
9.126 0.125 69.653 0.964 -6.983 0.964 -6.983 0.125 69.653 
9.557 0.13 69.815 0.963 -7.307 0.963 -7.307 0.13 69.815 
10.007 0.136 69.944 0.962 -7.646 0.962 -7.646 0.136 69.944 
10.479 0.142 70.04 0.961 -8 0.961 -8 0.142 70.04 
10.973 0.149 70.104 0.96 -8.37 0.96 -8.37 0.149 70.104 
11.49 0.155 70.135 0.958 -8.757 0.958 -8.757 0.155 70.135 
12.032 0.162 70.133 0.957 -9.16 0.957 -9.16 0.162 70.133 
12.599 0.169 70.098 0.956 -9.582 0.956 -9.582 0.169 70.098 
13.193 0.177 70.03 0.954 -10.022 0.954 -10.022 0.177 70.03 
13.815 0.185 69.928 0.953 -10.482 0.953 -10.482 0.185 69.928 
14.466 0.193 69.793 0.951 -10.961 0.951 -10.961 0.193 69.793 
15.148 0.201 69.624 0.949 -11.462 0.949 -11.462 0.201 69.624 
15.863 0.21 69.421 0.947 -11.983 0.947 -11.983 0.21 69.421 
16.61 0.219 69.184 0.945 -12.527 0.945 -12.527 0.219 69.184 
17.394 0.229 68.912 0.942 -13.094 0.942 -13.094 0.229 68.912 
18.213 0.239 68.606 0.94 -13.685 0.94 -13.685 0.239 68.606 
19.072 0.249 68.264 0.937 -14.3 0.937 -14.3 0.249 68.264 
19.971 0.26 67.886 0.934 -14.94 0.934 -14.94 0.26 67.886 
20.913 0.271 67.473 0.93 -15.606 0.93 -15.606 0.271 67.473 
21.899 0.283 67.024 0.927 -16.298 0.927 -16.298 0.283 67.024 
22.931 0.295 66.538 0.923 -17.018 0.923 -17.018 0.295 66.538 
24.012 0.307 66.016 0.919 -17.765 0.919 -17.765 0.307 66.016 
25.144 0.32 65.457 0.915 -18.54 0.915 -18.54 0.32 65.457 
26.33 0.333 64.861 0.91 -19.344 0.91 -19.344 0.333 64.861 
27.571 0.347 64.229 0.905 -20.178 0.905 -20.178 0.347 64.229 
28.871 0.361 63.559 0.899 -21.04 0.899 -21.04 0.361 63.559 
30.232 0.375 62.852 0.894 -21.932 0.894 -21.932 0.375 62.852 
31.657 0.39 62.109 0.887 -22.854 0.887 -22.854 0.39 62.109 
33.149 0.405 61.329 0.881 -23.806 0.881 -23.806 0.405 61.329 
34.712 0.421 60.514 0.873 -24.787 0.873 -24.787 0.421 60.514 
36.349 0.437 59.662 0.866 -25.798 0.866 -25.798 0.437 59.662 
38.062 0.453 58.776 0.858 -26.837 0.858 -26.837 0.453 58.776 
39.857 0.469 57.856 0.849 -27.905 0.849 -27.905 0.469 57.856 
41.736 0.486 56.903 0.84 -29 0.84 -29 0.486 56.903 
43.703 0.503 55.918 0.83 -30.122 0.83 -30.122 0.503 55.918 
45.763 0.52 54.902 0.82 -31.27 0.82 -31.27 0.52 54.902 
47.921 0.538 53.857 0.809 -32.442 0.809 -32.442 0.538 53.857 
50.18 0.555 52.785 0.798 -33.636 0.798 -33.636 0.555 52.785 
52.546 0.573 51.687 0.786 -34.852 0.786 -34.852 0.573 51.687 
55.023 0.59 50.566 0.774 -36.087 0.774 -36.087 0.59 50.566 
57.617 0.608 49.423 0.761 -37.339 0.761 -37.339 0.608 49.423 
60.333 0.625 48.261 0.747 -38.606 0.747 -38.606 0.625 48.261 
63.177 0.642 47.083 0.733 -39.886 0.733 -39.886 0.642 47.083 
66.156 0.659 45.89 0.719 -41.177 0.719 -41.177 0.659 45.89 
69.275 0.676 44.686 0.704 -42.475 0.704 -42.475 0.676 44.686 
72.54 0.693 43.474 0.689 -43.778 0.689 -43.778 0.693 43.474 
75.96 0.709 42.256 0.673 -45.084 0.673 -45.084 0.709 42.256 
79.541 0.725 41.035 0.657 -46.389 0.657 -46.389 0.725 41.035 
83.291 0.74 39.814 0.641 -47.692 0.641 -47.692 0.74 39.814 
87.218 0.755 38.595 0.624 -48.989 0.624 -48.989 0.755 38.595 
91.33 0.77 37.382 0.608 -50.279 0.608 -50.279 0.77 37.382 
95.635 0.784 36.176 0.591 -51.557 0.591 -51.557 0.784 36.176 
100.144 0.797 34.981 0.574 -52.823 0.574 -52.823 0.797 34.981 
104.865 0.81 33.799 0.557 -54.073 0.557 -54.073 0.81 33.799 
109.809 0.823 32.631 0.54 -55.306 0.54 -55.306 0.823 32.631 
114.985 0.835 31.481 0.523 -56.52 0.523 -56.52 0.835 31.481 
120.406 0.846 30.349 0.506 -57.713 0.506 -57.713 0.846 30.349 
126.083 0.857 29.238 0.489 -58.882 0.489 -58.882 0.857 29.238 
132.027 0.867 28.149 0.472 -60.028 0.472 -60.028 0.867 28.149 
138.251 0.876 27.084 0.456 -61.149 0.456 -61.149 0.876 27.084 
144.769 0.885 26.043 0.439 -62.243 0.439 -62.243 0.885 26.043 
151.593 0.894 25.027 0.423 -63.309 0.423 -63.309 0.894 25.027 
158.74 0.902 24.037 0.407 -64.348 0.407 -64.348 0.902 24.037 
166.224 0.909 23.074 0.392 -65.358 0.392 -65.358 0.909 23.074 
174.06 0.916 22.139 0.377 -66.34 0.377 -66.34 0.916 22.139 
182.266 0.923 21.23 0.362 -67.292 0.362 -67.292 0.923 21.23 
190.859 0.929 20.349 0.348 -68.215 0.348 -68.215 0.929 20.349 
199.856 0.935 19.496 0.334 -69.109 0.334 -69.109 0.935 19.496 
209.278 0.94 18.67 0.32 -69.974 0.32 -69.974 0.94 18.67 
219.144 0.945 17.872 0.307 -70.81 0.307 -70.81 0.945 17.872 
229.476 0.949 17.1 0.294 -71.618 0.294 -71.618 0.949 17.1 
240.294 0.953 16.354 0.282 -72.398 0.282 -72.398 0.953 16.354 
251.622 0.957 15.635 0.27 -73.151 0.27 -73.151 0.957 15.635 
263.485 0.961 14.941 0.258 -73.877 0.258 -73.877 0.961 14.941 
275.906 0.964 14.272 0.247 -74.576 0.247 -74.576 0.964 14.272 
288.913 0.967 13.628 0.236 -75.25 0.236 -75.25 0.967 13.628 
302.534 0.97 13.006 0.225 -75.898 0.225 -75.898 0.97 13.006 
316.796 0.973 12.408 0.215 -76.522 0.215 -76.522 0.973 12.408 
331.731 0.975 11.832 0.205 -77.122 0.205 -77.122 0.975 11.832 
347.37 0.977 11.278 0.196 -77.7 0.196 -77.7 0.977 11.278 
363.747 0.979 10.744 0.186 -78.255 0.186 -78.255 0.979 10.744 
380.895 0.981 10.23 0.178 -78.788 0.178 -78.788 0.981 10.23 
398.852 0.983 9.735 0.169 -79.3 0.169 -79.3 0.983 9.735 
417.655 0.984 9.259 0.161 -79.792 0.161 -79.792 0.984 9.259 
437.345 0.986 8.801 0.153 -80.263 0.153 -80.263 0.986 8.801 
457.963 0.987 8.359 0.145 -80.716 0.145 -80.716 0.987 8.359 
479.553 0.988 7.934 0.138 -81.15 0.138 -81.15 0.988 7.934 
502.161 0.989 7.525 0.131 -81.565 0.131 -81.565 0.989 7.525 
525.834 0.99 7.13 0.124 -81.963 0.124 -81.963 0.99 7.13 
550.624 0.991 6.749 0.118 -82.342 0.118 -82.342 0.991 6.749 
576.582 0.992 6.382 0.111 -82.705 0.111 -82.705 0.992 6.382 
603.765 0.993 6.028 0.105 -83.05 0.105 -83.05 0.993 6.028 
632.228 0.993 5.685 0.099 -83.378 0.099 -83.378 0.993 5.685 
662.034 0.994 5.355 0.093 -83.688 0.093 -83.688 0.994 5.355 
693.244 0.995 5.035 0.088 -83.98 0.088 -83.98 0.995 5.035 
725.927 0.995 4.725 0.082 -84.254 0.082 -84.254 0.995 4.725 
760.149 0.996 4.425 0.077 -84.508 0.077 -84.508 0.996 4.425 
795.985 0.996 4.134 0.072 -84.741 0.072 -84.741 0.996 4.134 
833.511 0.996 3.852 0.067 -84.951 0.067 -84.951 0.996 3.852 
872.806 0.997 3.577 0.062 -85.136 0.062 -85.136 0.997 3.577 
913.953 0.997 3.31 0.058 -85.292 0.058 -85.292 0.997 3.31 
957.04 0.997 3.05 0.053 -85.413 0.053 -85.413 0.997 3.05 
1002.158 0.997 2.796 0.049 -85.495 0.049 -85.495 0.997 2.796 
1049.404 0.998 2.548 0.044 -85.526 0.044 -85.526 0.998 2.548 
1098.876 0.998 2.306 0.04 -85.495 0.04 -85.495 0.998 2.306 
1150.681 0.998 2.068 0.036 -85.381 0.036 -85.381 0.998 2.068 
1204.929 0.998 1.834 0.032 -85.156 0.032 -85.156 0.998 1.834 
1261.733 0.998 1.605 0.028 -84.777 0.028 -84.777 0.998 1.605 
1321.216 0.998 1.379 0.024 -84.17 0.024 -84.17 0.998 1.379 
1383.503 0.998 1.155 0.02 -83.208 0.02 -83.208 0.998 1.155 
1448.726 0.998 0.935 0.016 -81.649 0.016 -81.649 0.998 0.935 
1517.024 0.998 0.716 0.013 -78.974 0.013 -78.974 0.998 0.716 
1588.542 0.998 0.499 9.051e-3 -73.843 9.051e-3 -73.843 0.998 0.499 
1663.432 0.997 0.284 5.607e-3 -61.727 5.607e-3 -61.727 0.997 0.284 
1741.852 0.997 0.069 3.086e-3 -22.865 3.086e-3 -22.865 0.997 0.069 
1823.969 0.997 -0.146 3.989e-3 39.399 3.989e-3 39.399 0.997 -0.146 
1909.958 0.997 -0.36 7.112e-3 61.676 7.112e-3 61.676 0.997 -0.36 
2000 0.996 -0.575 0.011 69.574 0.011 69.574 0.996 -0.575 
