# MHz S MA R 50

1 682.7e-6 38.691 0.999 -0.024 0.999 -0.024 682.7e-6 38.691 
1.047 697.5e-6 39.845 0.999 -0.026 0.999 -0.026 697.5e-6 39.845 
1.096 713.2e-6 41.005 0.999 -0.027 0.999 -0.027 713.2e-6 41.005 
1.148 730e-6 42.168 0.999 -0.028 0.999 -0.028 730e-6 42.168 
1.202 747.7e-6 43.333 0.999 -0.029 0.999 -0.029 747.7e-6 43.333 
1.259 766.6e-6 44.499 0.999 -0.031 0.999 -0.031 766.6e-6 44.499 
1.318 786.6e-6 45.662 0.999 -0.032 0.999 -0.032 786.6e-6 45.662 
1.38 807.9e-6 46.822 0.999 -0.034 0.999 -0.034 807.9e-6 46.822 
1.445 830.4e-6 47.975 0.999 -0.035 0.999 -0.035 830.4e-6 47.975 
1.514 854.3e-6 49.121 0.999 -0.037 0.999 -0.037 854.3e-6 49.121 
1.585 879.7e-6 50.258 0.999 -0.039 0.999 -0.039 879.7e-6 50.258 
1.66 906.5e-6 51.383 0.999 -0.041 0.999 -0.041 906.5e-6 51.383 
1.738 934.9e-6 52.495 0.999 -0.043 0.999 -0.043 934.9e-6 52.495 
1.82 964.9e-6 53.592 0.999 -0.045 0.999 -0.045 964.9e-6 53.592 
1.905 996.7e-6 54.674 0.999 -0.047 0.999 -0.047 996.7e-6 54.674 
1.995 1.03e-3 55.739 0.999 -0.049 0.999 -0.049 1.03e-3 55.739 
2.089 1.066e-3 56.785 0.999 -0.051 0.999 -0.051 1.066e-3 56.785 
2.188 1.103e-3 57.812 0.999 -0.054 0.999 -0.054 1.103e-3 57.812 
2.291 1.143e-3 58.819 0.999 -0.056 0.999 -0.056 1.143e-3 58.819 
2.399 1.184e-3 59.804 0.999 -0.059 0.999 -0.059 1.184e-3 59.804 
2.512 1.228e-3 60.767 0.999 -0.061 0.999 -0.061 1.228e-3 60.767 
2.63 1.275e-3 61.708 0.999 -0.064 0.999 -0.064 1.275e-3 61.708 
2.754 1.324e-3 62.626 0.999 -0.067 0.999 -0.067 1.324e-3 62.626 
2.884 1.375e-3 63.521 0.999 -0.071 0.999 -0.071 1.375e-3 63.521 
3.02 1.429e-3 64.392 0.999 -0.074 0.999 -0.074 1.429e-3 64.392 
3.162 1.486e-3 65.24 0.999 -0.077 0.999 -0.077 1.486e-3 65.24 
3.311 1.546e-3 66.064 0.999 -0.081 0.999 -0.081 1.546e-3 66.064 
3.467 1.609e-3 66.864 0.999 -0.085 0.999 -0.085 1.609e-3 66.864 
3.631 1.675e-3 67.64 0.999 -0.089 0.999 -0.089 1.675e-3 67.64 
3.802 1.745e-3 68.393 0.999 -0.093 0.999 -0.093 1.745e-3 68.393 
3.981 1.818e-3 69.122 0.999 -0.097 0.999 -0.097 1.818e-3 69.122 
4.169 1.895e-3 69.829 0.999 -0.102 0.999 -0.102 1.895e-3 69.829 
4.365 1.976e-3 70.512 0.999 -0.107 0.999 -0.107 1.976e-3 70.512 
4.571 2.061e-3 71.174 0.999 -0.112 0.999 -0.112 2.061e-3 71.174 
4.786 2.15e-3 71.813 0.999 -0.117 0.999 -0.117 2.15e-3 71.813 
5.012 2.243e-3 72.431 0.999 -0.123 0.999 -0.123 2.243e-3 72.431 
5.248 2.341e-3 73.027 0.999 -0.128 0.999 -0.128 2.341e-3 73.027 
5.495 2.444e-3 73.604 0.999 -0.134 0.999 -0.134 2.444e-3 73.604 
5.754 2.552e-3 74.16 0.999 -0.141 0.999 -0.141 2.552e-3 74.16 
6.026 2.665e-3 74.696 0.999 -0.147 0.999 -0.147 2.665e-3 74.696 
6.31 2.784e-3 75.213 0.999 -0.154 0.999 -0.154 2.784e-3 75.213 
6.607 2.909e-3 75.712 0.999 -0.162 0.999 -0.162 2.909e-3 75.712 
6.918 3.039e-3 76.192 0.999 -0.169 0.999 -0.169 3.039e-3 76.192 
7.244 3.176e-3 76.655 0.999 -0.177 0.999 -0.177 3.176e-3 76.655 
7.586 3.32e-3 77.101 0.999 -0.186 0.999 -0.186 3.32e-3 77.101 
7.943 3.471e-3 77.53 0.999 -0.194 0.999 -0.194 3.471e-3 77.53 
8.318 3.628e-3 77.943 0.999 -0.203 0.999 -0.203 3.628e-3 77.943 
8.71 3.794e-3 78.34 0.999 -0.213 0.999 -0.213 3.794e-3 78.34 
9.12 3.967e-3 78.723 0.999 -0.223 0.999 -0.223 3.967e-3 78.723 
9.55 4.149e-3 79.09 0.999 -0.234 0.999 -0.234 4.149e-3 79.09 
10 4.339e-3 79.444 0.999 -0.245 0.999 -0.245 4.339e-3 79.444 
10.471 4.539e-3 79.784 0.999 -0.256 0.999 -0.256 4.539e-3 79.784 
10.965 4.748e-3 80.11 0.999 -0.268 0.999 -0.268 4.748e-3 80.11 
11.482 4.967e-3 80.424 0.999 -0.281 0.999 -0.281 4.967e-3 80.424 
12.023 5.196e-3 80.725 0.999 -0.294 0.999 -0.294 5.196e-3 80.725 
12.589 5.437e-3 81.014 0.999 -0.308 0.999 -0.308 5.437e-3 81.014 
13.183 5.688e-3 81.292 0.999 -0.322 0.999 -0.322 5.688e-3 81.292 
13.804 5.952e-3 81.558 0.999 -0.338 0.999 -0.338 5.952e-3 81.558 
14.454 6.229e-3 81.813 0.999 -0.354 0.999 -0.354 6.229e-3 81.813 
15.136 6.518e-3 82.058 0.999 -0.37 0.999 -0.37 6.518e-3 82.058 
15.849 6.821e-3 82.292 0.999 -0.388 0.999 -0.388 6.821e-3 82.292 
16.596 7.139e-3 82.517 0.999 -0.406 0.999 -0.406 7.139e-3 82.517 
17.378 7.471e-3 82.732 0.999 -0.425 0.999 -0.425 7.471e-3 82.732 
18.197 7.82e-3 82.937 0.999 -0.445 0.999 -0.445 7.82e-3 82.937 
19.055 8.185e-3 83.133 0.999 -0.466 0.999 -0.466 8.185e-3 83.133 
19.953 8.567e-3 83.321 0.999 -0.488 0.999 -0.488 8.567e-3 83.321 
20.893 8.967e-3 83.5 0.999 -0.511 0.999 -0.511 8.967e-3 83.5 
21.878 9.386e-3 83.671 0.999 -0.535 0.999 -0.535 9.386e-3 83.671 
22.909 9.825e-3 83.833 0.999 -0.56 0.999 -0.56 9.825e-3 83.833 
23.988 0.01 83.988 0.999 -0.587 0.999 -0.587 0.01 83.988 
25.119 0.011 84.135 0.999 -0.614 0.999 -0.614 0.011 84.135 
26.303 0.011 84.274 0.999 -0.643 0.999 -0.643 0.011 84.274 
27.542 0.012 84.406 0.999 -0.674 0.999 -0.674 0.012 84.406 
28.84 0.012 84.531 0.999 -0.705 0.999 -0.705 0.012 84.531 
30.2 0.013 84.649 0.999 -0.738 0.999 -0.738 0.013 84.649 
31.623 0.014 84.76 0.999 -0.773 0.999 -0.773 0.014 84.76 
33.113 0.014 84.864 0.999 -0.81 0.999 -0.81 0.014 84.864 
34.674 0.015 84.962 0.999 -0.848 0.999 -0.848 0.015 84.962 
36.308 0.016 85.053 0.999 -0.888 0.999 -0.888 0.016 85.053 
38.019 0.016 85.138 0.999 -0.93 0.999 -0.93 0.016 85.138 
39.811 0.017 85.216 0.999 -0.973 0.999 -0.973 0.017 85.216 
41.687 0.018 85.288 0.999 -1.019 0.999 -1.019 0.018 85.288 
43.652 0.019 85.354 0.999 -1.067 0.999 -1.067 0.019 85.354 
45.709 0.02 85.413 0.999 -1.118 0.999 -1.118 0.02 85.413 
47.863 0.02 85.467 0.999 -1.17 0.999 -1.17 0.02 85.467 
50.119 0.021 85.514 0.999 -1.225 0.999 -1.225 0.021 85.514 
52.481 0.022 85.555 0.999 -1.283 0.999 -1.283 0.022 85.555 
54.954 0.023 85.59 0.998 -1.343 0.998 -1.343 0.023 85.59 
57.544 0.025 85.62 0.998 -1.407 0.998 -1.407 0.025 85.62 
60.256 0.026 85.643 0.998 -1.473 0.998 -1.473 0.026 85.643 
63.096 0.027 85.66 0.998 -1.542 0.998 -1.542 0.027 85.66 
66.069 0.028 85.67 0.998 -1.615 0.998 -1.615 0.028 85.67 
69.183 0.03 85.675 0.998 -1.691 0.998 -1.691 0.03 85.675 
72.444 0.031 85.673 0.998 -1.771 0.998 -1.771 0.031 85.673 
75.858 0.032 85.665 0.998 -1.854 0.998 -1.854 0.032 85.665 
79.433 0.034 85.651 0.998 -1.941 0.998 -1.941 0.034 85.651 
83.176 0.035 85.63 0.998 -2.033 0.998 -2.033 0.035 85.63 
87.096 0.037 85.602 0.998 -2.128 0.998 -2.128 0.037 85.602 
91.201 0.039 85.568 0.998 -2.228 0.998 -2.228 0.039 85.568 
95.499 0.041 85.527 0.998 -2.333 0.998 -2.333 0.041 85.527 
100 0.043 85.479 0.998 -2.443 0.998 -2.443 0.043 85.479 
104.713 0.045 85.424 0.997 -2.558 0.997 -2.558 0.045 85.424 
109.648 0.047 85.361 0.997 -2.678 0.997 -2.678 0.047 85.361 
114.815 0.049 85.291 0.997 -2.804 0.997 -2.804 0.049 85.291 
120.226 0.051 85.214 0.997 -2.936 0.997 -2.936 0.051 85.214 
125.893 0.054 85.128 0.997 -3.074 0.997 -3.074 0.054 85.128 
131.826 0.056 85.034 0.997 -3.219 0.997 -3.219 0.056 85.034 
138.038 0.059 84.932 0.997 -3.37 0.997 -3.37 0.059 84.932 
144.544 0.062 84.821 0.996 -3.529 0.996 -3.529 0.062 84.821 
151.356 0.064 84.701 0.996 -3.695 0.996 -3.695 0.064 84.701 
158.489 0.067 84.573 0.996 -3.868 0.996 -3.868 0.067 84.573 
165.959 0.071 84.434 0.996 -4.05 0.996 -4.05 0.071 84.434 
173.78 0.074 84.286 0.995 -4.24 0.995 -4.24 0.074 84.286 
181.97 0.077 84.127 0.995 -4.439 0.995 -4.439 0.077 84.127 
190.546 0.081 83.959 0.995 -4.648 0.995 -4.648 0.081 83.959 
199.526 0.085 83.779 0.994 -4.866 0.994 -4.866 0.085 83.779 
208.93 0.089 83.587 0.994 -5.094 0.994 -5.094 0.089 83.587 
218.776 0.093 83.384 0.994 -5.333 0.994 -5.333 0.093 83.384 
229.087 0.097 83.169 0.993 -5.583 0.993 -5.583 0.097 83.169 
239.883 0.102 82.941 0.993 -5.845 0.993 -5.845 0.102 82.941 
251.189 0.107 82.701 0.992 -6.118 0.992 -6.118 0.107 82.701 
263.027 0.112 82.446 0.992 -6.405 0.992 -6.405 0.112 82.446 
275.423 0.117 82.177 0.991 -6.704 0.991 -6.704 0.117 82.177 
288.403 0.122 81.894 0.99 -7.018 0.99 -7.018 0.122 81.894 
301.995 0.128 81.595 0.989 -7.346 0.989 -7.346 0.128 81.595 
316.228 0.134 81.28 0.989 -7.689 0.989 -7.689 0.134 81.28 
331.131 0.14 80.949 0.988 -8.047 0.988 -8.047 0.14 80.949 
346.737 0.146 80.6 0.987 -8.422 0.987 -8.422 0.146 80.6 
363.078 0.153 80.234 0.986 -8.814 0.986 -8.814 0.153 80.234 
380.189 0.16 79.849 0.984 -9.224 0.984 -9.224 0.16 79.849 
398.107 0.168 79.445 0.983 -9.652 0.983 -9.652 0.168 79.445 
416.869 0.175 79.021 0.982 -10.1 0.982 -10.1 0.175 79.021 
436.516 0.183 78.576 0.98 -10.568 0.98 -10.568 0.183 78.576 
457.088 0.192 78.109 0.979 -11.057 0.979 -11.057 0.192 78.109 
478.63 0.201 77.62 0.977 -11.567 0.977 -11.567 0.201 77.62 
501.187 0.21 77.108 0.975 -12.1 0.975 -12.1 0.21 77.108 
524.807 0.219 76.572 0.973 -12.656 0.973 -12.656 0.219 76.572 
549.541 0.229 76.011 0.97 -13.237 0.97 -13.237 0.229 76.011 
575.44 0.239 75.424 0.968 -13.843 0.968 -13.843 0.239 75.424 
602.56 0.25 74.81 0.965 -14.475 0.965 -14.475 0.25 74.81 
630.957 0.261 74.169 0.962 -15.134 0.962 -15.134 0.261 74.169 
660.693 0.273 73.5 0.959 -15.821 0.959 -15.821 0.273 73.5 
691.831 0.285 72.801 0.955 -16.536 0.955 -16.536 0.285 72.801 
724.436 0.297 72.072 0.952 -17.281 0.952 -17.281 0.297 72.072 
758.578 0.31 71.313 0.947 -18.057 0.947 -18.057 0.31 71.313 
794.328 0.323 70.521 0.943 -18.864 0.943 -18.864 0.323 70.521 
831.764 0.337 69.697 0.938 -19.702 0.938 -19.702 0.337 69.697 
870.964 0.351 68.84 0.933 -20.574 0.933 -20.574 0.351 68.84 
912.011 0.366 67.949 0.927 -21.479 0.927 -21.479 0.366 67.949 
954.993 0.381 67.023 0.921 -22.418 0.921 -22.418 0.381 67.023 
1000 0.397 66.062 0.914 -23.392 0.914 -23.392 0.397 66.062 
1047.129 0.413 65.065 0.907 -24.401 0.907 -24.401 0.413 65.065 
1096.478 0.43 64.032 0.899 -25.446 0.899 -25.446 0.43 64.032 
1148.154 0.447 62.963 0.891 -26.526 0.891 -26.526 0.447 62.963 
1202.264 0.464 61.858 0.882 -27.642 0.882 -27.642 0.464 61.858 
1258.925 0.482 60.716 0.872 -28.794 0.872 -28.794 0.482 60.716 
1318.257 0.5 59.539 0.862 -29.982 0.862 -29.982 0.5 59.539 
1380.384 0.518 58.325 0.851 -31.205 0.851 -31.205 0.518 58.325 
1445.44 0.537 57.075 0.839 -32.463 0.839 -32.463 0.537 57.075 
1513.561 0.556 55.791 0.827 -33.756 0.827 -33.756 0.556 55.791 
1584.893 0.575 54.472 0.814 -35.082 0.814 -35.082 0.575 54.472 
1659.587 0.594 53.12 0.8 -36.44 0.8 -36.44 0.594 53.12 
1737.801 0.613 51.737 0.785 -37.83 0.785 -37.83 0.613 51.737 
1819.701 0.633 50.322 0.77 -39.25 0.77 -39.25 0.633 50.322 
1905.461 0.652 48.879 0.753 -40.698 0.753 -40.698 0.652 48.879 
1995.262 0.671 47.408 0.736 -42.173 0.736 -42.173 0.671 47.408 
2089.296 0.691 45.911 0.718 -43.672 0.718 -43.672 0.691 45.911 
2187.762 0.71 44.39 0.7 -45.194 0.7 -45.194 0.71 44.39 
2290.868 0.728 42.847 0.68 -46.736 0.68 -46.736 0.728 42.847 
2398.833 0.747 41.285 0.66 -48.297 0.66 -48.297 0.747 41.285 
2511.886 0.765 39.706 0.639 -49.873 0.639 -49.873 0.765 39.706 
2630.268 0.782 38.111 0.617 -51.463 0.617 -51.463 0.782 38.111 
2754.229 0.799 36.503 0.595 -53.063 0.595 -53.063 0.799 36.503 
2884.032 0.816 34.885 0.572 -54.672 0.572 -54.672 0.816 34.885 
3019.952 0.832 33.258 0.548 -56.286 0.548 -56.286 0.832 33.258 
3162.278 0.847 31.624 0.524 -57.903 0.524 -57.903 0.847 31.624 
3311.311 0.862 29.986 0.5 -59.52 0.5 -59.52 0.862 29.986 
3467.369 0.876 28.345 0.475 -61.134 0.475 -61.134 0.876 28.345 
3630.781 0.889 26.704 0.449 -62.744 0.449 -62.744 0.889 26.704 
3801.894 0.901 25.063 0.424 -64.345 0.424 -64.345 0.901 25.063 
3981.072 0.913 23.424 0.398 -65.935 0.398 -65.935 0.913 23.424 
4168.694 0.924 21.788 0.371 -67.51 0.371 -67.51 0.924 21.788 
4365.158 0.934 20.157 0.345 -69.066 0.345 -69.066 0.934 20.157 
4570.882 0.943 18.53 0.318 -70.599 0.318 -70.599 0.943 18.53 
4786.301 0.952 16.91 0.291 -72.102 0.291 -72.102 0.952 16.91 
5011.872 0.959 15.295 0.264 -73.567 0.264 -73.567 0.959 15.295 
5248.075 0.966 13.686 0.237 -74.981 0.237 -74.981 0.966 13.686 
5495.409 0.972 12.084 0.209 -76.327 0.209 -76.327 0.972 12.084 
5754.399 0.977 10.488 0.182 -77.577 0.182 -77.577 0.977 10.488 
6025.596 0.981 8.898 0.155 -78.681 0.155 -78.681 0.981 8.898 
6309.573 0.985 7.314 0.127 -79.548 0.127 -79.548 0.985 7.314 
6606.934 0.988 5.735 0.1 -79.99 0.1 -79.99 0.988 5.735 
6918.31 0.989 4.16 0.073 -79.533 0.073 -79.533 0.989 4.16 
7244.36 0.99 2.59 0.046 -76.606 0.046 -76.606 0.99 2.59 
7585.776 0.991 1.024 0.02 -61.495 0.02 -61.495 0.991 1.024 
7943.282 0.99 -0.54 0.014 42.648 0.014 42.648 0.99 -0.54 
8317.638 0.988 -2.101 0.038 71.42 0.038 71.42 0.988 -2.101 
8709.636 0.986 -3.66 0.065 75.927 0.065 75.927 0.986 -3.66 
9120.108 0.983 -5.217 0.092 76.832 0.092 76.832 0.983 -5.217 
9549.926 0.979 -6.774 0.119 76.573 0.119 76.573 0.979 -6.774 
10000 0.975 -8.33 0.146 75.795 0.146 75.795 0.975 -8.33 
