# MHz S MA R 50

1 3.582e-3 38.904 0.997 -0.129 0.997 -0.129 3.582e-3 38.904 
1.047 3.664e-3 40.014 0.997 -0.135 0.997 -0.135 3.664e-3 40.014 
1.097 3.751e-3 41.128 0.997 -0.142 0.997 -0.142 3.751e-3 41.128 
1.149 3.844e-3 42.244 0.997 -0.148 0.997 -0.148 3.844e-3 42.244 
1.203 3.942e-3 43.361 0.997 -0.156 0.997 -0.156 3.942e-3 43.361 
1.26 4.046e-3 44.477 0.997 -0.163 0.997 -0.163 4.046e-3 44.477 
1.32 4.156e-3 45.589 0.997 -0.171 0.997 -0.171 4.156e-3 45.589 
1.383 4.272e-3 46.697 0.997 -0.179 0.997 -0.179 4.272e-3 46.697 
1.448 4.395e-3 47.798 0.997 -0.187 0.997 -0.187 4.395e-3 47.798 
1.517 4.526e-3 48.891 0.997 -0.196 0.997 -0.196 4.526e-3 48.891 
1.588 4.664e-3 49.975 0.997 -0.205 0.997 -0.205 4.664e-3 49.975 
1.664 4.81e-3 51.046 0.997 -0.215 0.997 -0.215 4.81e-3 51.046 
1.742 4.964e-3 52.106 0.997 -0.225 0.997 -0.225 4.964e-3 52.106 
1.825 5.127e-3 53.151 0.997 -0.236 0.997 -0.236 5.127e-3 53.151 
1.911 5.299e-3 54.18 0.997 -0.247 0.997 -0.247 5.299e-3 54.18 
2.002 5.481e-3 55.193 0.997 -0.259 0.997 -0.259 5.481e-3 55.193 
2.097 5.672e-3 56.189 0.997 -0.271 0.997 -0.271 5.672e-3 56.189 
2.196 5.874e-3 57.166 0.997 -0.284 0.997 -0.284 5.874e-3 57.166 
2.3 6.087e-3 58.123 0.997 -0.297 0.997 -0.297 6.087e-3 58.123 
2.409 6.312e-3 59.061 0.997 -0.311 0.997 -0.311 6.312e-3 59.061 
2.523 6.549e-3 59.977 0.997 -0.326 0.997 -0.326 6.549e-3 59.977 
2.643 6.798e-3 60.872 0.997 -0.341 0.997 -0.341 6.798e-3 60.872 
2.768 7.06e-3 61.746 0.997 -0.358 0.997 -0.358 7.06e-3 61.746 
2.899 7.336e-3 62.597 0.997 -0.374 0.997 -0.374 7.336e-3 62.597 
3.036 7.627e-3 63.426 0.997 -0.392 0.997 -0.392 7.627e-3 63.426 
3.18 7.932e-3 64.232 0.997 -0.411 0.997 -0.411 7.932e-3 64.232 
3.331 8.254e-3 65.016 0.997 -0.43 0.997 -0.43 8.254e-3 65.016 
3.488 8.592e-3 65.777 0.997 -0.451 0.997 -0.451 8.592e-3 65.777 
3.653 8.947e-3 66.515 0.996 -0.472 0.996 -0.472 8.947e-3 66.515 
3.826 9.32e-3 67.231 0.996 -0.494 0.996 -0.494 9.32e-3 67.231 
4.008 9.712e-3 67.924 0.996 -0.518 0.996 -0.518 9.712e-3 67.924 
4.198 0.01 68.595 0.996 -0.542 0.996 -0.542 0.01 68.595 
4.396 0.011 69.244 0.996 -0.568 0.996 -0.568 0.011 69.244 
4.605 0.011 69.871 0.996 -0.595 0.996 -0.595 0.011 69.871 
4.823 0.011 70.477 0.996 -0.623 0.996 -0.623 0.011 70.477 
5.051 0.012 71.062 0.996 -0.652 0.996 -0.652 0.012 71.062 
5.29 0.013 71.625 0.996 -0.683 0.996 -0.683 0.013 71.625 
5.541 0.013 72.168 0.996 -0.715 0.996 -0.715 0.013 72.168 
5.803 0.014 72.691 0.996 -0.749 0.996 -0.749 0.014 72.691 
6.078 0.014 73.195 0.996 -0.785 0.996 -0.785 0.014 73.195 
6.366 0.015 73.679 0.996 -0.822 0.996 -0.822 0.015 73.679 
6.667 0.016 74.144 0.996 -0.861 0.996 -0.861 0.016 74.144 
6.983 0.016 74.59 0.996 -0.901 0.996 -0.901 0.016 74.59 
7.314 0.017 75.018 0.996 -0.944 0.996 -0.944 0.017 75.018 
7.66 0.018 75.428 0.996 -0.989 0.996 -0.989 0.018 75.428 
8.023 0.019 75.821 0.996 -1.035 0.996 -1.035 0.019 75.821 
8.403 0.019 76.197 0.996 -1.084 0.996 -1.084 0.019 76.197 
8.801 0.02 76.556 0.995 -1.136 0.995 -1.136 0.02 76.556 
9.218 0.021 76.899 0.995 -1.189 0.995 -1.189 0.021 76.899 
9.655 0.022 77.225 0.995 -1.245 0.995 -1.245 0.022 77.225 
10.112 0.023 77.536 0.995 -1.304 0.995 -1.304 0.023 77.536 
10.591 0.024 77.831 0.995 -1.366 0.995 -1.366 0.024 77.831 
11.092 0.025 78.111 0.995 -1.431 0.995 -1.431 0.025 78.111 
11.618 0.027 78.377 0.995 -1.498 0.995 -1.498 0.027 78.377 
12.168 0.028 78.628 0.995 -1.569 0.995 -1.569 0.028 78.628 
12.744 0.029 78.864 0.995 -1.643 0.995 -1.643 0.029 78.864 
13.348 0.03 79.086 0.995 -1.721 0.995 -1.721 0.03 79.086 
13.98 0.032 79.294 0.995 -1.802 0.995 -1.802 0.032 79.294 
14.642 0.033 79.489 0.994 -1.887 0.994 -1.887 0.033 79.489 
15.335 0.035 79.67 0.994 -1.977 0.994 -1.977 0.035 79.67 
16.062 0.036 79.837 0.994 -2.07 0.994 -2.07 0.036 79.837 
16.822 0.038 79.991 0.994 -2.168 0.994 -2.168 0.038 79.991 
17.619 0.04 80.132 0.994 -2.27 0.994 -2.27 0.04 80.132 
18.454 0.042 80.26 0.994 -2.377 0.994 -2.377 0.042 80.26 
19.328 0.044 80.374 0.994 -2.49 0.994 -2.49 0.044 80.374 
20.243 0.046 80.476 0.993 -2.607 0.993 -2.607 0.046 80.476 
21.202 0.048 80.565 0.993 -2.73 0.993 -2.73 0.048 80.565 
22.206 0.05 80.641 0.993 -2.859 0.993 -2.859 0.05 80.641 
23.258 0.053 80.704 0.993 -2.994 0.993 -2.994 0.053 80.704 
24.359 0.055 80.753 0.993 -3.135 0.993 -3.135 0.055 80.753 
25.513 0.058 80.79 0.992 -3.283 0.992 -3.283 0.058 80.79 
26.721 0.06 80.814 0.992 -3.438 0.992 -3.438 0.06 80.814 
27.987 0.063 80.824 0.992 -3.6 0.992 -3.6 0.063 80.824 
29.312 0.066 80.822 0.992 -3.77 0.992 -3.77 0.066 80.822 
30.7 0.069 80.805 0.991 -3.948 0.991 -3.948 0.069 80.805 
32.154 0.072 80.775 0.991 -4.134 0.991 -4.134 0.072 80.775 
33.677 0.076 80.731 0.991 -4.328 0.991 -4.328 0.076 80.731 
35.272 0.079 80.673 0.99 -4.532 0.99 -4.532 0.079 80.673 
36.943 0.083 80.601 0.99 -4.745 0.99 -4.745 0.083 80.601 
38.693 0.087 80.515 0.989 -4.968 0.989 -4.968 0.087 80.515 
40.525 0.091 80.413 0.989 -5.202 0.989 -5.202 0.091 80.413 
42.444 0.095 80.296 0.988 -5.446 0.988 -5.446 0.095 80.296 
44.455 0.1 80.164 0.988 -5.702 0.988 -5.702 0.1 80.164 
46.56 0.104 80.016 0.987 -5.969 0.987 -5.969 0.104 80.016 
48.765 0.109 79.852 0.987 -6.249 0.987 -6.249 0.109 79.852 
51.075 0.114 79.671 0.986 -6.542 0.986 -6.542 0.114 79.671 
53.494 0.119 79.473 0.985 -6.848 0.985 -6.848 0.119 79.473 
56.027 0.125 79.258 0.984 -7.168 0.984 -7.168 0.125 79.258 
58.681 0.131 79.025 0.984 -7.503 0.984 -7.503 0.131 79.025 
61.46 0.137 78.773 0.983 -7.854 0.983 -7.854 0.137 78.773 
64.371 0.143 78.502 0.982 -8.22 0.982 -8.22 0.143 78.502 
67.42 0.15 78.212 0.98 -8.602 0.98 -8.602 0.15 78.212 
70.613 0.157 77.901 0.979 -9.002 0.979 -9.002 0.157 77.901 
73.957 0.164 77.57 0.978 -9.42 0.978 -9.42 0.164 77.57 
77.46 0.171 77.217 0.976 -9.857 0.976 -9.857 0.171 77.217 
81.128 0.179 76.843 0.975 -10.312 0.975 -10.312 0.179 76.843 
84.971 0.187 76.446 0.973 -10.789 0.973 -10.789 0.187 76.446 
88.995 0.196 76.025 0.971 -11.285 0.971 -11.285 0.196 76.025 
93.21 0.205 75.58 0.97 -11.804 0.97 -11.804 0.205 75.58 
97.624 0.214 75.111 0.967 -12.345 0.967 -12.345 0.214 75.111 
102.248 0.224 74.616 0.965 -12.909 0.965 -12.909 0.224 74.616 
107.091 0.234 74.095 0.963 -13.498 0.963 -13.498 0.234 74.095 
112.163 0.244 73.548 0.96 -14.111 0.96 -14.111 0.244 73.548 
117.475 0.255 72.973 0.957 -14.749 0.957 -14.749 0.255 72.973 
123.039 0.266 72.369 0.954 -15.414 0.954 -15.414 0.266 72.369 
128.866 0.278 71.737 0.95 -16.106 0.95 -16.106 0.278 71.737 
134.969 0.29 71.075 0.947 -16.825 0.947 -16.825 0.29 71.075 
141.361 0.302 70.384 0.943 -17.573 0.943 -17.573 0.302 70.384 
148.056 0.315 69.661 0.938 -18.35 0.938 -18.35 0.315 69.661 
155.069 0.328 68.908 0.934 -19.157 0.934 -19.157 0.328 68.908 
162.413 0.342 68.123 0.928 -19.993 0.928 -19.993 0.342 68.123 
170.105 0.356 67.305 0.923 -20.86 0.923 -20.86 0.356 67.305 
178.161 0.371 66.456 0.917 -21.757 0.917 -21.757 0.371 66.456 
186.599 0.386 65.574 0.911 -22.686 0.911 -22.686 0.386 65.574 
195.437 0.401 64.66 0.904 -23.646 0.904 -23.646 0.401 64.66 
204.693 0.417 63.713 0.897 -24.636 0.897 -24.636 0.417 63.713 
214.388 0.433 62.734 0.889 -25.658 0.889 -25.658 0.433 62.734 
224.541 0.45 61.723 0.881 -26.711 0.881 -26.711 0.45 61.723 
235.176 0.466 60.681 0.872 -27.793 0.872 -27.793 0.466 60.681 
246.314 0.484 59.607 0.863 -28.906 0.863 -28.906 0.484 59.607 
257.98 0.501 58.504 0.853 -30.047 0.853 -30.047 0.501 58.504 
270.198 0.518 57.372 0.842 -31.216 0.842 -31.216 0.518 57.372 
282.995 0.536 56.212 0.831 -32.412 0.831 -32.412 0.536 56.212 
296.398 0.554 55.026 0.82 -33.633 0.82 -33.633 0.554 55.026 
310.436 0.572 53.814 0.807 -34.877 0.807 -34.877 0.572 53.814 
325.139 0.59 52.58 0.794 -36.144 0.794 -36.144 0.59 52.58 
340.538 0.608 51.325 0.781 -37.431 0.781 -37.431 0.608 51.325 
356.666 0.626 50.05 0.767 -38.736 0.767 -38.736 0.626 50.05 
373.558 0.644 48.759 0.752 -40.057 0.752 -40.057 0.644 48.759 
391.25 0.661 47.454 0.737 -41.391 0.737 -41.391 0.661 47.454 
409.781 0.679 46.136 0.721 -42.736 0.721 -42.736 0.679 46.136 
429.188 0.696 44.81 0.705 -44.089 0.705 -44.089 0.696 44.81 
449.515 0.713 43.477 0.688 -45.448 0.688 -45.448 0.713 43.477 
470.805 0.729 42.14 0.671 -46.81 0.671 -46.81 0.729 42.14 
493.103 0.745 40.801 0.654 -48.173 0.654 -48.173 0.745 40.801 
516.457 0.761 39.464 0.636 -49.533 0.636 -49.533 0.761 39.464 
540.917 0.776 38.131 0.618 -50.888 0.618 -50.888 0.776 38.131 
566.536 0.791 36.805 0.599 -52.236 0.599 -52.236 0.791 36.805 
593.368 0.805 35.487 0.581 -53.574 0.581 -53.574 0.805 35.487 
621.47 0.818 34.181 0.562 -54.899 0.562 -54.899 0.818 34.181 
650.904 0.831 32.889 0.543 -56.211 0.543 -56.211 0.831 32.889 
681.732 0.844 31.611 0.524 -57.506 0.524 -57.506 0.844 31.611 
714.019 0.855 30.351 0.505 -58.783 0.505 -58.783 0.855 30.351 
747.836 0.866 29.11 0.487 -60.04 0.487 -60.04 0.866 29.11 
783.255 0.877 27.888 0.468 -61.276 0.468 -61.276 0.877 27.888 
820.351 0.887 26.688 0.449 -62.489 0.449 -62.489 0.887 26.688 
859.204 0.896 25.511 0.431 -63.679 0.431 -63.679 0.896 25.511 
899.897 0.905 24.356 0.412 -64.844 0.412 -64.844 0.905 24.356 
942.517 0.914 23.225 0.394 -65.984 0.394 -65.984 0.914 23.225 
987.156 0.921 22.119 0.377 -67.098 0.377 -67.098 0.921 22.119 
1033.909 0.928 21.037 0.359 -68.186 0.359 -68.186 0.928 21.037 
1082.877 0.935 19.979 0.342 -69.248 0.342 -69.248 0.935 19.979 
1134.163 0.941 18.946 0.325 -70.283 0.325 -70.283 0.941 18.946 
1187.879 0.947 17.936 0.308 -71.292 0.308 -71.292 0.947 17.936 
1244.138 0.953 16.951 0.292 -72.274 0.292 -72.274 0.953 16.951 
1303.062 0.958 15.989 0.275 -73.229 0.275 -73.229 0.958 15.989 
1364.777 0.962 15.05 0.26 -74.158 0.26 -74.158 0.962 15.05 
1429.415 0.966 14.132 0.244 -75.06 0.244 -75.06 0.966 14.132 
1497.114 0.97 13.236 0.229 -75.936 0.229 -75.936 0.97 13.236 
1568.019 0.974 12.361 0.214 -76.786 0.214 -76.786 0.974 12.361 
1642.283 0.977 11.504 0.199 -77.608 0.199 -77.608 0.977 11.504 
1720.063 0.98 10.667 0.185 -78.402 0.185 -78.402 0.98 10.667 
1801.528 0.982 9.846 0.171 -79.168 0.171 -79.168 0.982 9.846 
1886.851 0.985 9.042 0.157 -79.903 0.157 -79.903 0.985 9.042 
1976.214 0.987 8.254 0.144 -80.604 0.144 -80.604 0.987 8.254 
2069.811 0.989 7.479 0.13 -81.267 0.13 -81.267 0.989 7.479 
2167.84 0.99 6.718 0.117 -81.884 0.117 -81.884 0.99 6.718 
2270.512 0.992 5.968 0.104 -82.446 0.104 -82.446 0.992 5.968 
2378.046 0.993 5.229 0.091 -82.935 0.091 -82.935 0.993 5.229 
2490.674 0.994 4.5 0.079 -83.321 0.079 -83.321 0.994 4.5 
2608.635 0.995 3.778 0.066 -83.554 0.066 -83.554 0.995 3.778 
2732.184 0.995 3.064 0.054 -83.535 0.054 -83.535 0.995 3.064 
2861.584 0.996 2.355 0.041 -83.044 0.041 -83.044 0.996 2.355 
2997.112 0.996 1.651 0.029 -81.497 0.029 -81.497 0.996 1.651 
3139.06 0.996 0.95 0.017 -76.656 0.017 -76.656 0.996 0.95 
3287.73 0.996 0.251 5.83e-3 -48.403 5.83e-3 -48.403 0.996 0.251 
3443.441 0.996 -0.447 8.814e-3 61.907 8.814e-3 61.907 0.996 -0.447 
3606.527 0.995 -1.146 0.02 76.555 0.02 76.555 0.995 -1.146 
3777.337 0.995 -1.846 0.033 79.915 0.033 79.915 0.995 -1.846 
3956.237 0.994 -2.549 0.045 81.029 0.045 81.029 0.994 -2.549 
4143.61 0.993 -3.255 0.057 81.327 0.057 81.327 0.993 -3.255 
4339.857 0.992 -3.967 0.069 81.234 0.069 81.234 0.992 -3.967 
4545.398 0.99 -4.685 0.082 80.92 0.082 80.92 0.99 -4.685 
4760.675 0.989 -5.411 0.095 80.467 0.095 80.467 0.989 -5.411 
4986.147 0.987 -6.144 0.107 79.918 0.107 79.918 0.987 -6.144 
5222.297 0.985 -6.888 0.12 79.297 0.12 79.297 0.985 -6.888 
5469.633 0.982 -7.641 0.133 78.62 0.133 78.62 0.982 -7.641 
5728.682 0.98 -8.407 0.147 77.896 0.147 77.896 0.98 -8.407 
6000 0.977 -9.184 0.16 77.132 0.16 77.132 0.977 -9.184 
