# MHz S MA R 50

1 1.533e-3 40.856 0.999 -0.058 0.999 -0.058 1.533e-3 40.856 
1.047 1.57e-3 41.99 0.999 -0.06 0.999 -0.06 1.57e-3 41.99 
1.097 1.609e-3 43.126 0.999 -0.063 0.999 -0.063 1.609e-3 43.126 
1.149 1.651e-3 44.262 0.999 -0.066 0.999 -0.066 1.651e-3 44.262 
1.203 1.695e-3 45.395 0.999 -0.069 0.999 -0.069 1.695e-3 45.395 
1.26 1.741e-3 46.524 0.999 -0.072 0.999 -0.072 1.741e-3 46.524 
1.32 1.791e-3 47.647 0.999 -0.076 0.999 -0.076 1.791e-3 47.647 
1.382 1.843e-3 48.763 0.999 -0.08 0.999 -0.08 1.843e-3 48.763 
1.447 1.898e-3 49.87 0.999 -0.083 0.999 -0.083 1.898e-3 49.87 
1.516 1.957e-3 50.966 0.999 -0.087 0.999 -0.087 1.957e-3 50.966 
1.588 2.019e-3 52.05 0.999 -0.091 0.999 -0.091 2.019e-3 52.05 
1.663 2.084e-3 53.119 0.999 -0.096 0.999 -0.096 2.084e-3 53.119 
1.741 2.154e-3 54.174 0.999 -0.1 0.999 -0.1 2.154e-3 54.174 
1.824 2.227e-3 55.213 0.999 -0.105 0.999 -0.105 2.227e-3 55.213 
1.91 2.304e-3 56.233 0.999 -0.11 0.999 -0.11 2.304e-3 56.233 
2 2.385e-3 57.236 0.999 -0.115 0.999 -0.115 2.385e-3 57.236 
2.095 2.471e-3 58.219 0.999 -0.121 0.999 -0.121 2.471e-3 58.219 
2.194 2.562e-3 59.182 0.999 -0.126 0.999 -0.126 2.562e-3 59.182 
2.298 2.657e-3 60.124 0.999 -0.132 0.999 -0.132 2.657e-3 60.124 
2.406 2.757e-3 61.045 0.999 -0.138 0.999 -0.138 2.757e-3 61.045 
2.52 2.863e-3 61.944 0.999 -0.145 0.999 -0.145 2.863e-3 61.944 
2.639 2.975e-3 62.82 0.999 -0.152 0.999 -0.152 2.975e-3 62.82 
2.764 3.092e-3 63.675 0.999 -0.159 0.999 -0.159 3.092e-3 63.675 
2.895 3.216e-3 64.506 0.999 -0.167 0.999 -0.167 3.216e-3 64.506 
3.032 3.345e-3 65.315 0.999 -0.174 0.999 -0.174 3.345e-3 65.315 
3.175 3.482e-3 66.101 0.999 -0.183 0.999 -0.183 3.482e-3 66.101 
3.326 3.625e-3 66.864 0.999 -0.191 0.999 -0.191 3.625e-3 66.864 
3.483 3.776e-3 67.605 0.999 -0.2 0.999 -0.2 3.776e-3 67.605 
3.648 3.935e-3 68.323 0.999 -0.21 0.999 -0.21 3.935e-3 68.323 
3.82 4.101e-3 69.019 0.999 -0.22 0.999 -0.22 4.101e-3 69.019 
4.001 4.276e-3 69.693 0.999 -0.23 0.999 -0.23 4.276e-3 69.693 
4.19 4.46e-3 70.346 0.999 -0.241 0.999 -0.241 4.46e-3 70.346 
4.388 4.653e-3 70.976 0.998 -0.252 0.998 -0.252 4.653e-3 70.976 
4.596 4.855e-3 71.586 0.998 -0.264 0.998 -0.264 4.855e-3 71.586 
4.813 5.067e-3 72.176 0.998 -0.277 0.998 -0.277 5.067e-3 72.176 
5.041 5.29e-3 72.745 0.998 -0.29 0.998 -0.29 5.29e-3 72.745 
5.28 5.524e-3 73.295 0.998 -0.304 0.998 -0.304 5.524e-3 73.295 
5.529 5.769e-3 73.825 0.998 -0.318 0.998 -0.318 5.769e-3 73.825 
5.791 6.027e-3 74.336 0.998 -0.333 0.998 -0.333 6.027e-3 74.336 
6.065 6.297e-3 74.829 0.998 -0.349 0.998 -0.349 6.297e-3 74.829 
6.352 6.58e-3 75.304 0.998 -0.365 0.998 -0.365 6.58e-3 75.304 
6.652 6.876e-3 75.761 0.998 -0.383 0.998 -0.383 6.876e-3 75.761 
6.967 7.188e-3 76.202 0.998 -0.401 0.998 -0.401 7.188e-3 76.202 
7.296 7.514e-3 76.626 0.998 -0.42 0.998 -0.42 7.514e-3 76.626 
7.642 7.856e-3 77.033 0.998 -0.439 0.998 -0.439 7.856e-3 77.033 
8.003 8.214e-3 77.425 0.998 -0.46 0.998 -0.46 8.214e-3 77.425 
8.382 8.59e-3 77.802 0.998 -0.482 0.998 -0.482 8.59e-3 77.802 
8.778 8.984e-3 78.163 0.998 -0.505 0.998 -0.505 8.984e-3 78.163 
9.193 9.397e-3 78.511 0.998 -0.529 0.998 -0.529 9.397e-3 78.511 
9.628 9.829e-3 78.844 0.998 -0.554 0.998 -0.554 9.829e-3 78.844 
10.084 0.01 79.163 0.998 -0.58 0.998 -0.58 0.01 79.163 
10.561 0.011 79.469 0.998 -0.607 0.998 -0.607 0.011 79.469 
11.06 0.011 79.762 0.998 -0.636 0.998 -0.636 0.011 79.762 
11.583 0.012 80.043 0.998 -0.666 0.998 -0.666 0.012 80.043 
12.131 0.012 80.311 0.998 -0.697 0.998 -0.697 0.012 80.311 
12.705 0.013 80.567 0.998 -0.73 0.998 -0.73 0.013 80.567 
13.306 0.013 80.812 0.998 -0.765 0.998 -0.765 0.013 80.812 
13.935 0.014 81.045 0.998 -0.801 0.998 -0.801 0.014 81.045 
14.595 0.015 81.267 0.998 -0.839 0.998 -0.839 0.015 81.267 
15.285 0.015 81.479 0.998 -0.879 0.998 -0.879 0.015 81.479 
16.008 0.016 81.679 0.998 -0.92 0.998 -0.92 0.016 81.679 
16.765 0.017 81.869 0.998 -0.964 0.998 -0.964 0.017 81.869 
17.558 0.018 82.05 0.998 -1.009 0.998 -1.009 0.018 82.05 
18.389 0.019 82.22 0.998 -1.057 0.998 -1.057 0.019 82.22 
19.259 0.019 82.38 0.998 -1.107 0.998 -1.107 0.019 82.38 
20.17 0.02 82.531 0.998 -1.159 0.998 -1.159 0.02 82.531 
21.124 0.021 82.672 0.998 -1.214 0.998 -1.214 0.021 82.672 
22.123 0.022 82.804 0.997 -1.271 0.997 -1.271 0.022 82.804 
23.169 0.023 82.927 0.997 -1.331 0.997 -1.331 0.023 82.927 
24.265 0.024 83.04 0.997 -1.394 0.997 -1.394 0.024 83.04 
25.413 0.026 83.145 0.997 -1.46 0.997 -1.46 0.026 83.145 
26.615 0.027 83.241 0.997 -1.529 0.997 -1.529 0.027 83.241 
27.874 0.028 83.328 0.997 -1.601 0.997 -1.601 0.028 83.328 
29.193 0.029 83.406 0.997 -1.677 0.997 -1.677 0.029 83.406 
30.574 0.031 83.475 0.997 -1.756 0.997 -1.756 0.031 83.475 
32.02 0.032 83.536 0.997 -1.839 0.997 -1.839 0.032 83.536 
33.535 0.034 83.588 0.997 -1.926 0.997 -1.926 0.034 83.588 
35.121 0.035 83.631 0.997 -2.017 0.997 -2.017 0.035 83.631 
36.782 0.037 83.665 0.997 -2.112 0.997 -2.112 0.037 83.665 
38.522 0.039 83.691 0.996 -2.212 0.996 -2.212 0.039 83.691 
40.344 0.041 83.708 0.996 -2.316 0.996 -2.316 0.041 83.708 
42.253 0.042 83.716 0.996 -2.426 0.996 -2.426 0.042 83.716 
44.252 0.044 83.714 0.996 -2.54 0.996 -2.54 0.044 83.714 
46.345 0.047 83.704 0.996 -2.66 0.996 -2.66 0.047 83.704 
48.537 0.049 83.685 0.996 -2.785 0.996 -2.785 0.049 83.685 
50.833 0.051 83.656 0.996 -2.917 0.996 -2.917 0.051 83.656 
53.237 0.053 83.618 0.995 -3.054 0.995 -3.054 0.053 83.618 
55.756 0.056 83.57 0.995 -3.198 0.995 -3.198 0.056 83.57 
58.393 0.059 83.512 0.995 -3.349 0.995 -3.349 0.059 83.512 
61.155 0.061 83.444 0.995 -3.507 0.995 -3.507 0.061 83.444 
64.048 0.064 83.366 0.995 -3.673 0.995 -3.673 0.064 83.366 
67.078 0.067 83.277 0.994 -3.846 0.994 -3.846 0.067 83.277 
70.251 0.07 83.178 0.994 -4.027 0.994 -4.027 0.07 83.178 
73.574 0.074 83.067 0.994 -4.216 0.994 -4.216 0.074 83.067 
77.054 0.077 82.945 0.993 -4.415 0.993 -4.415 0.077 82.945 
80.699 0.081 82.812 0.993 -4.623 0.993 -4.623 0.081 82.812 
84.516 0.084 82.666 0.993 -4.84 0.993 -4.84 0.084 82.666 
88.514 0.088 82.508 0.992 -5.068 0.992 -5.068 0.088 82.508 
92.701 0.093 82.337 0.992 -5.306 0.992 -5.306 0.093 82.337 
97.086 0.097 82.153 0.991 -5.555 0.991 -5.555 0.097 82.153 
101.679 0.101 81.956 0.991 -5.816 0.991 -5.816 0.101 81.956 
106.488 0.106 81.744 0.99 -6.089 0.99 -6.089 0.106 81.744 
111.526 0.111 81.518 0.99 -6.374 0.99 -6.374 0.111 81.518 
116.801 0.116 81.277 0.989 -6.673 0.989 -6.673 0.116 81.277 
122.326 0.122 81.021 0.988 -6.986 0.988 -6.986 0.122 81.021 
128.112 0.127 80.748 0.988 -7.312 0.988 -7.312 0.127 80.748 
134.172 0.133 80.459 0.987 -7.654 0.987 -7.654 0.133 80.459 
140.519 0.139 80.153 0.986 -8.012 0.986 -8.012 0.139 80.153 
147.166 0.146 79.829 0.985 -8.385 0.985 -8.385 0.146 79.829 
154.128 0.153 79.486 0.984 -8.776 0.984 -8.776 0.153 79.486 
161.418 0.16 79.124 0.982 -9.184 0.982 -9.184 0.16 79.124 
169.054 0.167 78.743 0.981 -9.611 0.981 -9.611 0.167 78.743 
177.051 0.175 78.341 0.98 -10.057 0.98 -10.057 0.175 78.341 
185.426 0.183 77.918 0.978 -10.522 0.978 -10.522 0.183 77.918 
194.197 0.191 77.473 0.977 -11.009 0.977 -11.009 0.191 77.473 
203.383 0.2 77.005 0.975 -11.516 0.975 -11.516 0.2 77.005 
213.003 0.209 76.514 0.973 -12.046 0.973 -12.046 0.209 76.514 
223.079 0.218 75.999 0.971 -12.599 0.971 -12.599 0.218 75.999 
233.631 0.228 75.459 0.968 -13.176 0.968 -13.176 0.228 75.459 
244.683 0.238 74.893 0.966 -13.778 0.966 -13.778 0.238 74.893 
256.257 0.249 74.3 0.963 -14.405 0.963 -14.405 0.249 74.3 
268.379 0.26 73.68 0.96 -15.058 0.96 -15.058 0.26 73.68 
281.074 0.271 73.032 0.957 -15.739 0.957 -15.739 0.271 73.032 
294.369 0.283 72.356 0.953 -16.447 0.953 -16.447 0.283 72.356 
308.294 0.295 71.649 0.949 -17.184 0.949 -17.184 0.295 71.649 
322.877 0.308 70.913 0.945 -17.95 0.945 -17.95 0.308 70.913 
338.15 0.321 70.146 0.941 -18.746 0.941 -18.746 0.321 70.146 
354.145 0.335 69.347 0.936 -19.573 0.936 -19.573 0.335 69.347 
370.898 0.349 68.516 0.931 -20.431 0.931 -20.431 0.349 68.516 
388.442 0.364 67.653 0.925 -21.321 0.925 -21.321 0.364 67.653 
406.817 0.379 66.757 0.919 -22.243 0.919 -22.243 0.379 66.757 
426.06 0.394 65.827 0.912 -23.197 0.912 -23.197 0.394 65.827 
446.214 0.41 64.865 0.905 -24.184 0.905 -24.184 0.41 64.865 
467.321 0.426 63.869 0.898 -25.203 0.898 -25.203 0.426 63.869 
489.427 0.442 62.839 0.89 -26.256 0.89 -26.256 0.442 62.839 
512.578 0.459 61.777 0.881 -27.34 0.881 -27.34 0.459 61.777 
536.825 0.477 60.681 0.872 -28.457 0.872 -28.457 0.477 60.681 
562.218 0.494 59.554 0.862 -29.605 0.862 -29.605 0.494 59.554 
588.812 0.512 58.395 0.852 -30.785 0.852 -30.785 0.512 58.395 
616.665 0.53 57.205 0.841 -31.994 0.841 -31.994 0.53 57.205 
645.835 0.548 55.985 0.829 -33.232 0.829 -33.232 0.548 55.985 
676.385 0.566 54.737 0.817 -34.499 0.817 -34.499 0.566 54.737 
708.38 0.585 53.462 0.804 -35.791 0.804 -35.791 0.585 53.462 
741.888 0.603 52.162 0.79 -37.108 0.79 -37.108 0.603 52.162 
776.982 0.622 50.838 0.775 -38.449 0.775 -38.449 0.622 50.838 
813.735 0.64 49.493 0.76 -39.81 0.76 -39.81 0.64 49.493 
852.227 0.659 48.128 0.745 -41.19 0.745 -41.19 0.659 48.128 
892.54 0.677 46.746 0.728 -42.587 0.728 -42.587 0.677 46.746 
934.76 0.695 45.349 0.711 -43.998 0.711 -43.998 0.695 45.349 
978.976 0.712 43.94 0.694 -45.421 0.694 -45.421 0.712 43.94 
1025.285 0.73 42.52 0.676 -46.853 0.676 -46.853 0.73 42.52 
1073.784 0.747 41.094 0.657 -48.292 0.657 -48.292 0.747 41.094 
1124.577 0.763 39.662 0.638 -49.735 0.638 -49.735 0.763 39.662 
1177.773 0.779 38.228 0.619 -51.18 0.619 -51.18 0.779 38.228 
1233.485 0.795 36.794 0.599 -52.625 0.599 -52.625 0.795 36.794 
1291.832 0.81 35.363 0.579 -54.066 0.579 -54.066 0.81 35.363 
1352.939 0.824 33.936 0.558 -55.501 0.558 -55.501 0.824 33.936 
1416.937 0.838 32.516 0.538 -56.929 0.538 -56.929 0.838 32.516 
1483.962 0.851 31.105 0.517 -58.347 0.517 -58.347 0.851 31.105 
1554.158 0.864 29.705 0.496 -59.754 0.496 -59.754 0.864 29.705 
1627.674 0.876 28.317 0.474 -61.148 0.474 -61.148 0.876 28.317 
1704.668 0.887 26.942 0.453 -62.526 0.453 -62.526 0.887 26.942 
1785.304 0.898 25.582 0.432 -63.889 0.432 -63.889 0.898 25.582 
1869.754 0.908 24.238 0.411 -65.235 0.411 -65.235 0.908 24.238 
1958.198 0.918 22.911 0.389 -66.562 0.389 -66.562 0.918 22.911 
2050.827 0.926 21.6 0.368 -67.871 0.368 -67.871 0.926 21.6 
2147.837 0.935 20.307 0.347 -69.16 0.347 -69.16 0.935 20.307 
2249.436 0.942 19.032 0.326 -70.429 0.326 -70.429 0.942 19.032 
2355.841 0.949 17.775 0.305 -71.678 0.305 -71.678 0.949 17.775 
2467.279 0.956 16.534 0.285 -72.905 0.285 -72.905 0.956 16.534 
2583.988 0.962 15.311 0.264 -74.112 0.264 -74.112 0.962 15.311 
2706.218 0.967 14.105 0.244 -75.296 0.244 -75.296 0.967 14.105 
2834.23 0.972 12.914 0.223 -76.459 0.223 -76.459 0.972 12.914 
2968.297 0.977 11.738 0.203 -77.598 0.203 -77.598 0.977 11.738 
3108.706 0.981 10.576 0.184 -78.711 0.184 -78.711 0.981 10.576 
3255.757 0.984 9.427 0.164 -79.796 0.164 -79.796 0.984 9.427 
3409.764 0.987 8.291 0.144 -80.848 0.144 -80.848 0.987 8.291 
3571.055 0.99 7.164 0.125 -81.858 0.125 -81.858 0.99 7.164 
3739.976 0.992 6.048 0.105 -82.81 0.105 -82.81 0.992 6.048 
3916.888 0.994 4.939 0.086 -83.673 0.086 -83.673 0.994 4.939 
4102.168 0.996 3.837 0.067 -84.379 0.067 -84.379 0.996 3.837 
4296.213 0.997 2.741 0.048 -84.75 0.048 -84.75 0.997 2.741 
4499.436 0.997 1.648 0.029 -84.136 0.029 -84.136 0.997 1.648 
4712.272 0.998 0.558 9.974e-3 -76.938 9.974e-3 -76.938 0.998 0.558 
4935.176 0.998 -0.531 9.537e-3 76.047 9.537e-3 76.047 0.998 -0.531 
5168.624 0.997 -1.622 0.028 83.766 0.028 83.766 0.997 -1.622 
5413.115 0.997 -2.714 0.047 84.423 0.047 84.423 0.997 -2.714 
5669.171 0.995 -3.809 0.066 84.061 0.066 84.061 0.995 -3.809 
5937.339 0.994 -4.91 0.086 83.356 0.086 83.356 0.994 -4.91 
6218.192 0.992 -6.017 0.105 82.491 0.105 82.491 0.992 -6.017 
6512.33 0.989 -7.132 0.124 81.536 0.124 81.536 0.989 -7.132 
6820.382 0.987 -8.255 0.144 80.521 0.144 80.521 0.987 -8.255 
7143.006 0.983 -9.389 0.163 79.462 0.163 79.462 0.983 -9.389 
7480.891 0.98 -10.535 0.183 78.37 0.183 78.37 0.98 -10.535 
7834.759 0.976 -11.693 0.203 77.248 0.203 77.248 0.976 -11.693 
8205.365 0.971 -12.864 0.223 76.101 0.223 76.101 0.971 -12.864 
8593.503 0.966 -14.049 0.243 74.929 0.243 74.929 0.966 -14.049 
9000 0.96 -15.25 0.263 73.734 0.263 73.734 0.96 -15.25 
