# MHz S MA R 50

1 0.021 31.794 0.982 -0.637 0.982 -0.637 0.021 31.794 
1.047 0.021 32.879 0.982 -0.667 0.982 -0.667 0.021 32.879 
1.097 0.021 33.979 0.982 -0.698 0.982 -0.698 0.021 33.979 
1.149 0.022 35.092 0.982 -0.731 0.982 -0.731 0.022 35.092 
1.203 0.022 36.218 0.982 -0.766 0.982 -0.766 0.022 36.218 
1.26 0.023 37.353 0.982 -0.802 0.982 -0.802 0.023 37.353 
1.32 0.023 38.496 0.982 -0.84 0.982 -0.84 0.023 38.496 
1.383 0.024 39.645 0.982 -0.88 0.982 -0.88 0.024 39.645 
1.448 0.024 40.797 0.982 -0.921 0.982 -0.921 0.024 40.797 
1.517 0.025 41.952 0.982 -0.965 0.982 -0.965 0.025 41.952 
1.589 0.025 43.105 0.982 -1.011 0.982 -1.011 0.025 43.105 
1.664 0.026 44.255 0.982 -1.058 0.982 -1.058 0.026 44.255 
1.743 0.027 45.401 0.981 -1.108 0.981 -1.108 0.027 45.401 
1.825 0.027 46.539 0.981 -1.161 0.981 -1.161 0.027 46.539 
1.912 0.028 47.667 0.981 -1.216 0.981 -1.216 0.028 47.667 
2.002 0.029 48.783 0.981 -1.273 0.981 -1.273 0.029 48.783 
2.097 0.03 49.886 0.981 -1.333 0.981 -1.333 0.03 49.886 
2.196 0.031 50.974 0.981 -1.396 0.981 -1.396 0.031 50.974 
2.3 0.032 52.043 0.981 -1.462 0.981 -1.462 0.032 52.043 
2.409 0.033 53.094 0.981 -1.531 0.981 -1.531 0.033 53.094 
2.523 0.034 54.124 0.981 -1.604 0.981 -1.604 0.034 54.124 
2.643 0.035 55.131 0.98 -1.679 0.98 -1.679 0.035 55.131 
2.768 0.036 56.115 0.98 -1.759 0.98 -1.759 0.036 56.115 
2.899 0.038 57.074 0.98 -1.842 0.98 -1.842 0.038 57.074 
3.037 0.039 58.007 0.98 -1.929 0.98 -1.929 0.039 58.007 
3.18 0.04 58.913 0.98 -2.02 0.98 -2.02 0.04 58.913 
3.331 0.042 59.791 0.98 -2.115 0.98 -2.115 0.042 59.791 
3.489 0.043 60.641 0.979 -2.215 0.979 -2.215 0.043 60.641 
3.654 0.045 61.461 0.979 -2.319 0.979 -2.319 0.045 61.461 
3.827 0.047 62.252 0.979 -2.429 0.979 -2.429 0.047 62.252 
4.008 0.049 63.013 0.979 -2.543 0.979 -2.543 0.049 63.013 
4.198 0.051 63.744 0.979 -2.663 0.979 -2.663 0.051 63.744 
4.397 0.053 64.444 0.978 -2.789 0.978 -2.789 0.053 64.444 
4.605 0.055 65.113 0.978 -2.92 0.978 -2.92 0.055 65.113 
4.824 0.057 65.751 0.978 -3.058 0.978 -3.058 0.057 65.751 
5.052 0.06 66.359 0.978 -3.202 0.978 -3.202 0.06 66.359 
5.291 0.062 66.935 0.977 -3.353 0.977 -3.353 0.062 66.935 
5.542 0.065 67.481 0.977 -3.511 0.977 -3.511 0.065 67.481 
5.804 0.068 67.996 0.977 -3.676 0.977 -3.676 0.068 67.996 
6.079 0.07 68.48 0.976 -3.849 0.976 -3.849 0.07 68.48 
6.367 0.074 68.934 0.976 -4.03 0.976 -4.03 0.074 68.934 
6.669 0.077 69.358 0.976 -4.22 0.976 -4.22 0.077 69.358 
6.985 0.08 69.751 0.975 -4.418 0.975 -4.418 0.08 69.751 
7.316 0.084 70.114 0.975 -4.626 0.975 -4.626 0.084 70.114 
7.662 0.087 70.447 0.974 -4.843 0.974 -4.843 0.087 70.447 
8.025 0.091 70.75 0.974 -5.071 0.974 -5.071 0.091 70.75 
8.405 0.095 71.023 0.973 -5.308 0.973 -5.308 0.095 71.023 
8.803 0.099 71.267 0.973 -5.557 0.973 -5.557 0.099 71.267 
9.22 0.104 71.482 0.972 -5.818 0.972 -5.818 0.104 71.482 
9.657 0.109 71.666 0.971 -6.09 0.971 -6.09 0.109 71.666 
10.115 0.113 71.822 0.971 -6.375 0.971 -6.375 0.113 71.822 
10.594 0.119 71.948 0.97 -6.673 0.97 -6.673 0.119 71.948 
11.095 0.124 72.044 0.969 -6.985 0.969 -6.985 0.124 72.044 
11.621 0.129 72.111 0.968 -7.31 0.968 -7.31 0.129 72.111 
12.172 0.135 72.149 0.967 -7.651 0.967 -7.651 0.135 72.149 
12.748 0.141 72.157 0.966 -8.007 0.966 -8.007 0.141 72.157 
13.352 0.148 72.135 0.965 -8.379 0.965 -8.379 0.148 72.135 
13.984 0.154 72.083 0.964 -8.768 0.964 -8.768 0.154 72.083 
14.647 0.161 72.001 0.962 -9.174 0.962 -9.174 0.161 72.001 
15.34 0.169 71.889 0.961 -9.599 0.961 -9.599 0.169 71.889 
16.067 0.176 71.746 0.96 -10.042 0.96 -10.042 0.176 71.746 
16.828 0.184 71.573 0.958 -10.505 0.958 -10.505 0.184 71.573 
17.625 0.192 71.368 0.956 -10.988 0.956 -10.988 0.192 71.368 
18.46 0.201 71.132 0.954 -11.492 0.954 -11.492 0.201 71.132 
19.335 0.21 70.863 0.952 -12.017 0.952 -12.017 0.21 70.863 
20.25 0.219 70.563 0.95 -12.566 0.95 -12.566 0.219 70.563 
21.21 0.229 70.23 0.947 -13.137 0.947 -13.137 0.229 70.23 
22.214 0.239 69.864 0.945 -13.732 0.945 -13.732 0.239 69.864 
23.266 0.249 69.465 0.942 -14.353 0.942 -14.353 0.249 69.465 
24.368 0.26 69.032 0.939 -14.998 0.939 -14.998 0.26 69.032 
25.523 0.271 68.565 0.936 -15.67 0.936 -15.67 0.271 68.565 
26.732 0.283 68.063 0.932 -16.368 0.932 -16.368 0.283 68.063 
27.998 0.295 67.527 0.928 -17.094 0.928 -17.094 0.295 67.527 
29.324 0.308 66.955 0.924 -17.848 0.924 -17.848 0.308 66.955 
30.713 0.321 66.348 0.92 -18.631 0.92 -18.631 0.321 66.348 
32.168 0.334 65.706 0.915 -19.443 0.915 -19.443 0.334 65.706 
33.692 0.348 65.028 0.91 -20.284 0.91 -20.284 0.348 65.028 
35.287 0.362 64.314 0.904 -21.154 0.904 -21.154 0.362 64.314 
36.959 0.377 63.564 0.898 -22.055 0.898 -22.055 0.377 63.564 
38.71 0.392 62.779 0.892 -22.986 0.892 -22.986 0.392 62.779 
40.543 0.407 61.958 0.885 -23.947 0.885 -23.947 0.407 61.958 
42.464 0.423 61.102 0.878 -24.937 0.878 -24.937 0.423 61.102 
44.475 0.439 60.212 0.87 -25.958 0.87 -25.958 0.439 60.212 
46.582 0.455 59.288 0.862 -27.007 0.862 -27.007 0.455 59.288 
48.788 0.472 58.331 0.853 -28.085 0.853 -28.085 0.472 58.331 
51.099 0.489 57.342 0.843 -29.191 0.843 -29.191 0.489 57.342 
53.519 0.506 56.321 0.834 -30.323 0.834 -30.323 0.506 56.321 
56.054 0.523 55.271 0.823 -31.482 0.823 -31.482 0.523 55.271 
58.71 0.541 54.193 0.812 -32.664 0.812 -32.664 0.541 54.193 
61.491 0.558 53.088 0.801 -33.869 0.801 -33.869 0.558 53.088 
64.403 0.576 51.959 0.789 -35.095 0.789 -35.095 0.576 51.959 
67.454 0.593 50.807 0.776 -36.34 0.776 -36.34 0.593 50.807 
70.649 0.611 49.635 0.763 -37.603 0.763 -37.603 0.611 49.635 
73.995 0.628 48.445 0.749 -38.88 0.749 -38.88 0.628 48.445 
77.5 0.646 47.24 0.735 -40.169 0.735 -40.169 0.646 47.24 
81.171 0.663 46.022 0.72 -41.468 0.72 -41.468 0.663 46.022 
85.016 0.68 44.793 0.705 -42.775 0.705 -42.775 0.68 44.793 
89.043 0.696 43.557 0.69 -44.086 0.69 -44.086 0.696 43.557 
93.261 0.713 42.317 0.674 -45.399 0.674 -45.399 0.713 42.317 
97.678 0.728 41.075 0.658 -46.712 0.658 -46.712 0.728 41.075 
102.305 0.744 39.833 0.641 -48.021 0.641 -48.021 0.744 39.833 
107.151 0.759 38.596 0.624 -49.323 0.624 -49.323 0.759 38.596 
112.226 0.773 37.365 0.607 -50.617 0.607 -50.617 0.773 37.365 
117.542 0.787 36.144 0.59 -51.9 0.59 -51.9 0.787 36.144 
123.11 0.801 34.934 0.573 -53.168 0.573 -53.168 0.801 34.934 
128.941 0.814 33.738 0.556 -54.421 0.556 -54.421 0.814 33.738 
135.049 0.826 32.558 0.538 -55.656 0.538 -55.656 0.826 32.558 
141.446 0.838 31.396 0.521 -56.871 0.521 -56.871 0.838 31.396 
148.145 0.849 30.254 0.504 -58.064 0.504 -58.064 0.849 30.254 
155.163 0.86 29.134 0.487 -59.233 0.487 -59.233 0.86 29.134 
162.512 0.87 28.037 0.47 -60.378 0.47 -60.378 0.87 28.037 
170.21 0.879 26.964 0.454 -61.497 0.454 -61.497 0.879 26.964 
178.272 0.888 25.917 0.437 -62.589 0.437 -62.589 0.888 25.917 
186.717 0.896 24.895 0.421 -63.653 0.421 -63.653 0.896 24.895 
195.561 0.904 23.901 0.405 -64.689 0.405 -64.689 0.904 23.901 
204.824 0.912 22.934 0.39 -65.695 0.39 -65.695 0.912 22.934 
214.526 0.919 21.996 0.375 -66.673 0.375 -66.673 0.919 21.996 
224.688 0.925 21.085 0.36 -67.621 0.36 -67.621 0.925 21.085 
235.33 0.931 20.202 0.345 -68.539 0.345 -68.539 0.931 20.202 
246.477 0.936 19.347 0.331 -69.429 0.331 -69.429 0.936 19.347 
258.152 0.942 18.52 0.318 -70.289 0.318 -70.289 0.942 18.52 
270.38 0.946 17.721 0.304 -71.12 0.304 -71.12 0.946 17.721 
283.187 0.951 16.949 0.292 -71.923 0.292 -71.923 0.951 16.949 
296.601 0.955 16.204 0.279 -72.697 0.279 -72.697 0.955 16.204 
310.65 0.959 15.485 0.267 -73.445 0.267 -73.445 0.959 15.485 
325.365 0.962 14.792 0.255 -74.165 0.255 -74.165 0.962 14.792 
340.777 0.965 14.124 0.244 -74.859 0.244 -74.859 0.965 14.124 
356.918 0.968 13.48 0.233 -75.527 0.233 -75.527 0.968 13.48 
373.824 0.971 12.86 0.223 -76.17 0.223 -76.17 0.971 12.86 
391.532 0.974 12.263 0.212 -76.789 0.212 -76.789 0.974 12.263 
410.077 0.976 11.689 0.203 -77.384 0.203 -77.384 0.976 11.689 
429.501 0.978 11.136 0.193 -77.957 0.193 -77.957 0.978 11.136 
449.846 0.98 10.603 0.184 -78.507 0.184 -78.507 0.98 10.603 
471.154 0.982 10.091 0.175 -79.036 0.175 -79.036 0.982 10.091 
493.471 0.984 9.598 0.167 -79.544 0.167 -79.544 0.984 9.598 
516.845 0.985 9.124 0.159 -80.032 0.159 -80.032 0.985 9.124 
541.327 0.986 8.667 0.151 -80.5 0.151 -80.5 0.986 8.667 
566.968 0.988 8.227 0.143 -80.95 0.143 -80.95 0.988 8.227 
593.824 0.989 7.803 0.136 -81.381 0.136 -81.381 0.989 7.803 
621.951 0.99 7.395 0.129 -81.794 0.129 -81.794 0.99 7.395 
651.411 0.991 7.002 0.122 -82.189 0.122 -82.189 0.991 7.002 
682.267 0.992 6.623 0.115 -82.568 0.115 -82.568 0.992 6.623 
714.584 0.992 6.257 0.109 -82.93 0.109 -82.93 0.992 6.257 
748.432 0.993 5.903 0.103 -83.275 0.103 -83.275 0.993 5.903 
783.883 0.994 5.562 0.097 -83.604 0.097 -83.604 0.994 5.562 
821.013 0.994 5.232 0.091 -83.916 0.091 -83.916 0.994 5.232 
859.902 0.995 4.913 0.086 -84.211 0.086 -84.211 0.995 4.913 
900.634 0.996 4.604 0.08 -84.489 0.08 -84.489 0.996 4.604 
943.294 0.996 4.304 0.075 -84.749 0.075 -84.749 0.996 4.304 
987.975 0.996 4.014 0.07 -84.989 0.07 -84.989 0.996 4.014 
1034.773 0.997 3.731 0.065 -85.208 0.065 -85.208 0.997 3.731 
1083.787 0.997 3.457 0.06 -85.404 0.06 -85.404 0.997 3.457 
1135.123 0.997 3.19 0.056 -85.573 0.056 -85.573 0.997 3.19 
1188.891 0.997 2.929 0.051 -85.711 0.051 -85.711 0.997 2.929 
1245.205 0.998 2.674 0.047 -85.811 0.047 -85.811 0.998 2.674 
1304.187 0.998 2.426 0.042 -85.866 0.042 -85.866 0.998 2.426 
1365.963 0.998 2.182 0.038 -85.86 0.038 -85.86 0.998 2.182 
1430.664 0.998 1.943 0.034 -85.777 0.034 -85.777 0.998 1.943 
1498.431 0.998 1.708 0.03 -85.585 0.03 -85.585 0.998 1.708 
1569.407 0.998 1.476 0.026 -85.238 0.026 -85.238 0.998 1.476 
1643.746 0.998 1.248 0.022 -84.652 0.022 -84.652 0.998 1.248 
1721.606 0.998 1.022 0.018 -83.678 0.018 -83.678 0.998 1.022 
1803.153 0.998 0.799 0.014 -81.997 0.014 -81.997 0.998 0.799 
1888.563 0.998 0.578 0.01 -78.832 0.01 -78.832 0.998 0.578 
1978.019 0.998 0.358 6.561e-3 -71.685 6.561e-3 -71.685 0.998 0.358 
2071.713 0.998 0.138 3.251e-3 -47.825 3.251e-3 -47.825 0.998 0.138 
2169.844 0.998 -0.08 2.737e-3 30.788 2.737e-3 30.788 0.998 -0.08 
2272.623 0.997 -0.299 5.807e-3 63.758 5.807e-3 63.758 0.997 -0.299 
2380.271 0.997 -0.518 9.457e-3 72.556 9.457e-3 72.556 0.997 -0.518 
2493.018 0.997 -0.738 0.013 76.204 0.013 76.204 0.997 -0.738 
2611.105 0.997 -0.96 0.017 78.061 0.017 78.061 0.997 -0.96 
2734.786 0.996 -1.183 0.021 79.093 0.021 79.093 0.996 -1.183 
2864.325 0.996 -1.408 0.025 79.677 0.025 79.677 0.996 -1.408 
3000 0.995 -1.635 0.029 79.987 0.029 79.987 0.995 -1.635 
