# MHz S MA R 50

1 587.5e-6 39.871 1 -0.022 1 -0.022 587.5e-6 39.871 
1.047 600.7e-6 41.04 1 -0.023 1 -0.023 600.7e-6 41.04 
1.096 614.7e-6 42.213 1 -0.024 1 -0.024 614.7e-6 42.213 
1.148 629.5e-6 43.388 1 -0.025 1 -0.025 629.5e-6 43.388 
1.202 645.3e-6 44.564 1 -0.026 1 -0.026 645.3e-6 44.564 
1.259 662.1e-6 45.737 1 -0.027 1 -0.027 662.1e-6 45.737 
1.318 679.9e-6 46.907 1 -0.028 1 -0.028 679.9e-6 46.907 
1.38 698.8e-6 48.071 1 -0.03 1 -0.03 698.8e-6 48.071 
1.445 718.9e-6 49.226 1 -0.031 1 -0.031 718.9e-6 49.226 
1.514 740.1e-6 50.372 1 -0.033 1 -0.033 740.1e-6 50.372 
1.585 762.7e-6 51.507 1 -0.034 1 -0.034 762.7e-6 51.507 
1.66 786.5e-6 52.629 1 -0.036 1 -0.036 786.5e-6 52.629 
1.738 811.7e-6 53.735 1 -0.038 1 -0.038 811.7e-6 53.735 
1.82 838.4e-6 54.826 1 -0.039 1 -0.039 838.4e-6 54.826 
1.905 866.7e-6 55.899 1 -0.041 1 -0.041 866.7e-6 55.899 
1.995 896.5e-6 56.954 1 -0.043 1 -0.043 896.5e-6 56.954 
2.089 928e-6 57.988 1 -0.045 1 -0.045 928e-6 57.988 
2.188 961.2e-6 59.002 1 -0.047 1 -0.047 961.2e-6 59.002 
2.291 996.3e-6 59.995 1 -0.049 1 -0.049 996.3e-6 59.995 
2.399 1.033e-3 60.965 0.999 -0.052 0.999 -0.052 1.033e-3 60.965 
2.512 1.072e-3 61.912 0.999 -0.054 0.999 -0.054 1.072e-3 61.912 
2.63 1.113e-3 62.836 0.999 -0.057 0.999 -0.057 1.113e-3 62.836 
2.754 1.157e-3 63.736 0.999 -0.059 0.999 -0.059 1.157e-3 63.736 
2.884 1.202e-3 64.612 0.999 -0.062 0.999 -0.062 1.202e-3 64.612 
3.02 1.25e-3 65.464 0.999 -0.065 0.999 -0.065 1.25e-3 65.464 
3.162 1.301e-3 66.292 0.999 -0.068 0.999 -0.068 1.301e-3 66.292 
3.311 1.354e-3 67.096 0.999 -0.071 0.999 -0.071 1.354e-3 67.096 
3.467 1.41e-3 67.875 0.999 -0.075 0.999 -0.075 1.41e-3 67.875 
3.631 1.468e-3 68.631 0.999 -0.078 0.999 -0.078 1.468e-3 68.631 
3.802 1.53e-3 69.363 0.999 -0.082 0.999 -0.082 1.53e-3 69.363 
3.981 1.595e-3 70.072 0.999 -0.086 0.999 -0.086 1.595e-3 70.072 
4.169 1.663e-3 70.758 0.999 -0.09 0.999 -0.09 1.663e-3 70.758 
4.365 1.734e-3 71.421 0.999 -0.094 0.999 -0.094 1.734e-3 71.421 
4.571 1.809e-3 72.062 0.999 -0.099 0.999 -0.099 1.809e-3 72.062 
4.786 1.888e-3 72.681 0.999 -0.103 0.999 -0.103 1.888e-3 72.681 
5.012 1.971e-3 73.279 0.999 -0.108 0.999 -0.108 1.971e-3 73.279 
5.248 2.057e-3 73.856 0.999 -0.113 0.999 -0.113 2.057e-3 73.856 
5.495 2.148e-3 74.413 0.999 -0.119 0.999 -0.119 2.148e-3 74.413 
5.754 2.244e-3 74.949 0.999 -0.124 0.999 -0.124 2.244e-3 74.949 
6.026 2.344e-3 75.467 0.999 -0.13 0.999 -0.13 2.344e-3 75.467 
6.31 2.449e-3 75.966 0.999 -0.136 0.999 -0.136 2.449e-3 75.966 
6.607 2.559e-3 76.446 0.999 -0.143 0.999 -0.143 2.559e-3 76.446 
6.918 2.675e-3 76.909 0.999 -0.149 0.999 -0.149 2.675e-3 76.909 
7.244 2.796e-3 77.354 0.999 -0.156 0.999 -0.156 2.796e-3 77.354 
7.586 2.922e-3 77.783 0.999 -0.164 0.999 -0.164 2.922e-3 77.783 
7.943 3.055e-3 78.196 0.999 -0.171 0.999 -0.171 3.055e-3 78.196 
8.318 3.195e-3 78.593 0.999 -0.18 0.999 -0.18 3.195e-3 78.593 
8.71 3.341e-3 78.975 0.999 -0.188 0.999 -0.188 3.341e-3 78.975 
9.12 3.494e-3 79.342 0.999 -0.197 0.999 -0.197 3.494e-3 79.342 
9.55 3.655e-3 79.695 0.999 -0.206 0.999 -0.206 3.655e-3 79.695 
10 3.823e-3 80.034 0.999 -0.216 0.999 -0.216 3.823e-3 80.034 
10.471 3.999e-3 80.361 0.999 -0.226 0.999 -0.226 3.999e-3 80.361 
10.965 4.183e-3 80.674 0.999 -0.237 0.999 -0.237 4.183e-3 80.674 
11.482 4.377e-3 80.975 0.999 -0.248 0.999 -0.248 4.377e-3 80.975 
12.023 4.579e-3 81.263 0.999 -0.26 0.999 -0.26 4.579e-3 81.263 
12.589 4.792e-3 81.54 0.999 -0.272 0.999 -0.272 4.792e-3 81.54 
13.183 5.014e-3 81.806 0.999 -0.285 0.999 -0.285 5.014e-3 81.806 
13.804 5.247e-3 82.062 0.999 -0.298 0.999 -0.298 5.247e-3 82.062 
14.454 5.491e-3 82.306 0.999 -0.312 0.999 -0.312 5.491e-3 82.306 
15.136 5.746e-3 82.541 0.999 -0.327 0.999 -0.327 5.746e-3 82.541 
15.849 6.014e-3 82.765 0.999 -0.342 0.999 -0.342 6.014e-3 82.765 
16.596 6.294e-3 82.98 0.999 -0.358 0.999 -0.358 6.294e-3 82.98 
17.378 6.588e-3 83.186 0.999 -0.375 0.999 -0.375 6.588e-3 83.186 
18.197 6.896e-3 83.383 0.999 -0.393 0.999 -0.393 6.896e-3 83.383 
19.055 7.218e-3 83.571 0.999 -0.411 0.999 -0.411 7.218e-3 83.571 
19.953 7.555e-3 83.751 0.999 -0.431 0.999 -0.431 7.555e-3 83.751 
20.893 7.908e-3 83.923 0.999 -0.451 0.999 -0.451 7.908e-3 83.923 
21.878 8.278e-3 84.086 0.999 -0.472 0.999 -0.472 8.278e-3 84.086 
22.909 8.666e-3 84.243 0.999 -0.494 0.999 -0.494 8.666e-3 84.243 
23.988 9.072e-3 84.391 0.999 -0.518 0.999 -0.518 9.072e-3 84.391 
25.119 9.497e-3 84.532 0.999 -0.542 0.999 -0.542 9.497e-3 84.532 
26.303 9.942e-3 84.667 0.999 -0.568 0.999 -0.568 9.942e-3 84.667 
27.542 0.01 84.794 0.999 -0.594 0.999 -0.594 0.01 84.794 
28.84 0.011 84.914 0.999 -0.622 0.999 -0.622 0.011 84.914 
30.2 0.011 85.028 0.999 -0.652 0.999 -0.652 0.011 85.028 
31.623 0.012 85.135 0.999 -0.682 0.999 -0.682 0.012 85.135 
33.113 0.013 85.236 0.999 -0.715 0.999 -0.715 0.013 85.236 
34.674 0.013 85.331 0.999 -0.748 0.999 -0.748 0.013 85.331 
36.308 0.014 85.42 0.999 -0.784 0.999 -0.784 0.014 85.42 
38.019 0.014 85.502 0.999 -0.82 0.999 -0.82 0.014 85.502 
39.811 0.015 85.579 0.999 -0.859 0.999 -0.859 0.015 85.579 
41.687 0.016 85.65 0.999 -0.9 0.999 -0.9 0.016 85.65 
43.652 0.016 85.715 0.999 -0.942 0.999 -0.942 0.016 85.715 
45.709 0.017 85.774 0.999 -0.986 0.999 -0.986 0.017 85.774 
47.863 0.018 85.828 0.999 -1.033 0.999 -1.033 0.018 85.828 
50.119 0.019 85.876 0.999 -1.081 0.999 -1.081 0.019 85.876 
52.481 0.02 85.919 0.999 -1.132 0.999 -1.132 0.02 85.919 
54.954 0.021 85.955 0.999 -1.186 0.999 -1.186 0.021 85.955 
57.544 0.022 85.987 0.999 -1.242 0.999 -1.242 0.022 85.987 
60.256 0.023 86.012 0.999 -1.3 0.999 -1.3 0.023 86.012 
63.096 0.024 86.032 0.999 -1.361 0.999 -1.361 0.024 86.032 
66.069 0.025 86.047 0.999 -1.425 0.999 -1.425 0.025 86.047 
69.183 0.026 86.055 0.999 -1.492 0.999 -1.492 0.026 86.055 
72.444 0.027 86.058 0.998 -1.563 0.998 -1.563 0.027 86.058 
75.858 0.029 86.056 0.998 -1.636 0.998 -1.636 0.029 86.056 
79.433 0.03 86.047 0.998 -1.713 0.998 -1.713 0.03 86.047 
83.176 0.031 86.033 0.998 -1.794 0.998 -1.794 0.031 86.033 
87.096 0.033 86.012 0.998 -1.879 0.998 -1.879 0.033 86.012 
91.201 0.034 85.986 0.998 -1.967 0.998 -1.967 0.034 85.986 
95.499 0.036 85.953 0.998 -2.06 0.998 -2.06 0.036 85.953 
100 0.038 85.914 0.998 -2.157 0.998 -2.157 0.038 85.914 
104.713 0.039 85.868 0.998 -2.258 0.998 -2.258 0.039 85.868 
109.648 0.041 85.816 0.998 -2.364 0.998 -2.364 0.041 85.816 
114.815 0.043 85.758 0.998 -2.476 0.998 -2.476 0.043 85.758 
120.226 0.045 85.692 0.998 -2.592 0.998 -2.592 0.045 85.692 
125.893 0.047 85.619 0.998 -2.714 0.998 -2.714 0.047 85.619 
131.826 0.05 85.539 0.997 -2.842 0.997 -2.842 0.05 85.539 
138.038 0.052 85.451 0.997 -2.976 0.997 -2.976 0.052 85.451 
144.544 0.054 85.356 0.997 -3.115 0.997 -3.115 0.054 85.356 
151.356 0.057 85.252 0.997 -3.262 0.997 -3.262 0.057 85.252 
158.489 0.06 85.141 0.997 -3.415 0.997 -3.415 0.06 85.141 
165.959 0.062 85.021 0.997 -3.576 0.997 -3.576 0.062 85.021 
173.78 0.065 84.892 0.996 -3.744 0.996 -3.744 0.065 84.892 
181.97 0.068 84.754 0.996 -3.92 0.996 -3.92 0.068 84.754 
190.546 0.072 84.606 0.996 -4.104 0.996 -4.104 0.072 84.606 
199.526 0.075 84.449 0.996 -4.297 0.996 -4.297 0.075 84.449 
208.93 0.078 84.282 0.995 -4.499 0.995 -4.499 0.078 84.282 
218.776 0.082 84.104 0.995 -4.71 0.995 -4.71 0.082 84.104 
229.087 0.086 83.916 0.995 -4.931 0.995 -4.931 0.086 83.916 
239.883 0.09 83.716 0.994 -5.163 0.994 -5.163 0.09 83.716 
251.189 0.094 83.504 0.994 -5.405 0.994 -5.405 0.094 83.504 
263.027 0.099 83.28 0.993 -5.658 0.993 -5.658 0.099 83.28 
275.423 0.103 83.044 0.993 -5.923 0.993 -5.923 0.103 83.044 
288.403 0.108 82.794 0.992 -6.201 0.992 -6.201 0.108 82.794 
301.995 0.113 82.531 0.992 -6.491 0.992 -6.491 0.113 82.531 
316.228 0.118 82.254 0.991 -6.795 0.991 -6.795 0.118 82.254 
331.131 0.124 81.961 0.99 -7.113 0.99 -7.113 0.124 81.961 
346.737 0.13 81.653 0.99 -7.445 0.99 -7.445 0.13 81.653 
363.078 0.136 81.33 0.989 -7.793 0.989 -7.793 0.136 81.33 
380.189 0.142 80.989 0.988 -8.156 0.988 -8.156 0.142 80.989 
398.107 0.148 80.632 0.987 -8.536 0.987 -8.536 0.148 80.632 
416.869 0.155 80.256 0.986 -8.934 0.986 -8.934 0.155 80.256 
436.516 0.162 79.861 0.984 -9.349 0.984 -9.349 0.162 79.861 
457.088 0.17 79.448 0.983 -9.784 0.983 -9.784 0.17 79.448 
478.63 0.178 79.014 0.982 -10.238 0.982 -10.238 0.178 79.014 
501.187 0.186 78.558 0.98 -10.712 0.98 -10.712 0.186 78.558 
524.807 0.194 78.082 0.979 -11.208 0.979 -11.208 0.194 78.082 
549.541 0.203 77.582 0.977 -11.726 0.977 -11.726 0.203 77.582 
575.44 0.212 77.059 0.975 -12.266 0.975 -12.266 0.212 77.059 
602.56 0.222 76.512 0.972 -12.831 0.972 -12.831 0.222 76.512 
630.957 0.232 75.939 0.97 -13.42 0.97 -13.42 0.232 75.939 
660.693 0.243 75.34 0.968 -14.035 0.968 -14.035 0.243 75.34 
691.831 0.253 74.715 0.965 -14.676 0.965 -14.676 0.253 74.715 
724.436 0.265 74.061 0.962 -15.345 0.962 -15.345 0.265 74.061 
758.578 0.276 73.379 0.958 -16.042 0.958 -16.042 0.276 73.379 
794.328 0.289 72.666 0.955 -16.768 0.955 -16.768 0.289 72.666 
831.764 0.301 71.924 0.951 -17.525 0.951 -17.525 0.301 71.924 
870.964 0.314 71.149 0.946 -18.312 0.946 -18.312 0.314 71.149 
912.011 0.328 70.343 0.942 -19.131 0.942 -19.131 0.328 70.343 
954.993 0.342 69.503 0.937 -19.983 0.937 -19.983 0.342 69.503 
1000 0.356 68.63 0.931 -20.869 0.931 -20.869 0.356 68.63 
1047.129 0.371 67.721 0.925 -21.789 0.925 -21.789 0.371 67.721 
1096.478 0.387 66.778 0.919 -22.743 0.919 -22.743 0.387 66.778 
1148.154 0.402 65.798 0.912 -23.733 0.912 -23.733 0.402 65.798 
1202.264 0.419 64.782 0.905 -24.759 0.905 -24.759 0.419 64.782 
1258.925 0.436 63.729 0.897 -25.822 0.897 -25.822 0.436 63.729 
1318.257 0.453 62.639 0.888 -26.921 0.888 -26.921 0.453 62.639 
1380.384 0.47 61.512 0.879 -28.056 0.879 -28.056 0.47 61.512 
1445.44 0.488 60.347 0.869 -29.229 0.869 -29.229 0.488 60.347 
1513.561 0.507 59.145 0.858 -30.439 0.858 -30.439 0.507 59.145 
1584.893 0.525 57.905 0.847 -31.685 0.847 -31.685 0.525 57.905 
1659.587 0.544 56.629 0.835 -32.967 0.835 -32.967 0.544 56.629 
1737.801 0.563 55.317 0.822 -34.285 0.822 -34.285 0.563 55.317 
1819.701 0.583 53.969 0.809 -35.638 0.809 -35.638 0.583 53.969 
1905.461 0.602 52.586 0.794 -37.024 0.794 -37.024 0.602 52.586 
1995.262 0.622 51.17 0.779 -38.443 0.779 -38.443 0.622 51.17 
2089.296 0.641 49.722 0.763 -39.894 0.763 -39.894 0.641 49.722 
2187.762 0.661 48.243 0.746 -41.374 0.746 -41.374 0.661 48.243 
2290.868 0.681 46.734 0.728 -42.882 0.728 -42.882 0.681 46.734 
2398.833 0.7 45.198 0.71 -44.416 0.71 -44.416 0.7 45.198 
2511.886 0.719 43.636 0.69 -45.974 0.69 -45.974 0.719 43.636 
2630.268 0.738 42.051 0.67 -47.554 0.67 -47.554 0.738 42.051 
2754.229 0.756 40.444 0.649 -49.153 0.649 -49.153 0.756 40.444 
2884.032 0.775 38.817 0.627 -50.77 0.627 -50.77 0.775 38.817 
3019.952 0.792 37.173 0.604 -52.4 0.604 -52.4 0.792 37.173 
3162.278 0.809 35.514 0.581 -54.043 0.581 -54.043 0.809 35.514 
3311.311 0.826 33.842 0.557 -55.694 0.557 -55.694 0.826 33.842 
3467.369 0.842 32.159 0.532 -57.351 0.532 -57.351 0.842 32.159 
3630.781 0.857 30.468 0.507 -59.012 0.507 -59.012 0.857 30.468 
3801.894 0.872 28.769 0.481 -60.671 0.481 -60.671 0.872 28.769 
3981.072 0.886 27.066 0.455 -62.328 0.455 -62.328 0.886 27.066 
4168.694 0.899 25.359 0.428 -63.977 0.428 -63.977 0.899 25.359 
4365.158 0.911 23.651 0.401 -65.614 0.401 -65.614 0.911 23.651 
4570.882 0.922 21.942 0.374 -67.236 0.374 -67.236 0.922 21.942 
4786.301 0.933 20.235 0.346 -68.835 0.346 -68.835 0.933 20.235 
5011.872 0.942 18.529 0.318 -70.406 0.318 -70.406 0.942 18.529 
5248.075 0.951 16.826 0.29 -71.937 0.29 -71.937 0.951 16.826 
5495.409 0.959 15.127 0.261 -73.417 0.261 -73.417 0.959 15.127 
5754.399 0.966 13.432 0.232 -74.825 0.232 -74.825 0.966 13.432 
6025.596 0.972 11.741 0.204 -76.132 0.204 -76.132 0.972 11.741 
6309.573 0.977 10.054 0.175 -77.287 0.175 -77.287 0.977 10.054 
6606.934 0.981 8.373 0.146 -78.202 0.146 -78.202 0.981 8.373 
6918.31 0.984 6.696 0.117 -78.699 0.117 -78.699 0.984 6.696 
7244.36 0.986 5.023 0.088 -78.372 0.088 -78.372 0.986 5.023 
7585.776 0.987 3.356 0.06 -76.038 0.06 -76.038 0.987 3.356 
7943.282 0.988 1.692 0.032 -66.419 0.032 -66.419 0.988 1.692 
8317.638 0.987 0.033 0.013 -2.52 0.013 -2.52 0.987 0.033 
8709.636 0.986 -1.623 0.032 62.173 0.032 62.173 0.986 -1.623 
9120.108 0.983 -3.274 0.059 71.902 0.059 71.902 0.983 -3.274 
9549.926 0.98 -4.922 0.087 74.258 0.087 74.258 0.98 -4.922 
10000 0.976 -6.566 0.116 74.59 0.116 74.59 0.976 -6.566 
