# MHz S MA R 50

1 786e-6 46.604 0.999 -0.033 0.999 -0.033 786e-6 46.604 
1.047 808.5e-6 47.709 0.999 -0.034 0.999 -0.034 808.5e-6 47.709 
1.096 832.2e-6 48.807 0.999 -0.036 0.999 -0.036 832.2e-6 48.807 
1.148 857.3e-6 49.896 0.999 -0.038 0.999 -0.038 857.3e-6 49.896 
1.202 883.9e-6 50.974 0.999 -0.039 0.999 -0.039 883.9e-6 50.974 
1.259 911.9e-6 52.04 0.999 -0.041 0.999 -0.041 911.9e-6 52.04 
1.318 941.6e-6 53.093 0.999 -0.043 0.999 -0.043 941.6e-6 53.093 
1.38 972.9e-6 54.131 0.999 -0.045 0.999 -0.045 972.9e-6 54.131 
1.445 1.006e-3 55.154 0.999 -0.047 0.999 -0.047 1.006e-3 55.154 
1.514 1.041e-3 56.159 0.999 -0.05 0.999 -0.05 1.041e-3 56.159 
1.585 1.077e-3 57.147 0.999 -0.052 0.999 -0.052 1.077e-3 57.147 
1.66 1.116e-3 58.117 0.999 -0.054 0.999 -0.054 1.116e-3 58.117 
1.738 1.157e-3 59.067 0.999 -0.057 0.999 -0.057 1.157e-3 59.067 
1.82 1.2e-3 59.997 0.999 -0.06 0.999 -0.06 1.2e-3 59.997 
1.905 1.245e-3 60.907 0.999 -0.062 0.999 -0.062 1.245e-3 60.907 
1.995 1.293e-3 61.796 0.999 -0.065 0.999 -0.065 1.293e-3 61.796 
2.089 1.343e-3 62.664 0.999 -0.068 0.999 -0.068 1.343e-3 62.664 
2.188 1.396e-3 63.51 0.999 -0.072 0.999 -0.072 1.396e-3 63.51 
2.291 1.451e-3 64.335 0.999 -0.075 0.999 -0.075 1.451e-3 64.335 
2.399 1.51e-3 65.137 0.999 -0.079 0.999 -0.079 1.51e-3 65.137 
2.512 1.571e-3 65.918 0.999 -0.082 0.999 -0.082 1.571e-3 65.918 
2.63 1.636e-3 66.677 0.999 -0.086 0.999 -0.086 1.636e-3 66.677 
2.754 1.703e-3 67.415 0.999 -0.09 0.999 -0.09 1.703e-3 67.415 
2.884 1.775e-3 68.131 0.999 -0.094 0.999 -0.094 1.775e-3 68.131 
3.02 1.849e-3 68.826 0.999 -0.099 0.999 -0.099 1.849e-3 68.826 
3.162 1.928e-3 69.5 0.999 -0.104 0.999 -0.104 1.928e-3 69.5 
3.311 2.01e-3 70.153 0.999 -0.108 0.999 -0.108 2.01e-3 70.153 
3.467 2.097e-3 70.785 0.999 -0.114 0.999 -0.114 2.097e-3 70.785 
3.631 2.187e-3 71.398 0.999 -0.119 0.999 -0.119 2.187e-3 71.398 
3.802 2.283e-3 71.991 0.999 -0.124 0.999 -0.124 2.283e-3 71.991 
3.981 2.382e-3 72.565 0.999 -0.13 0.999 -0.13 2.382e-3 72.565 
4.169 2.487e-3 73.119 0.999 -0.136 0.999 -0.136 2.487e-3 73.119 
4.365 2.597e-3 73.656 0.999 -0.143 0.999 -0.143 2.597e-3 73.656 
4.571 2.712e-3 74.174 0.999 -0.15 0.999 -0.15 2.712e-3 74.174 
4.786 2.833e-3 74.675 0.999 -0.157 0.999 -0.157 2.833e-3 74.675 
5.012 2.96e-3 75.158 0.999 -0.164 0.999 -0.164 2.96e-3 75.158 
5.248 3.093e-3 75.625 0.999 -0.172 0.999 -0.172 3.093e-3 75.625 
5.495 3.232e-3 76.076 0.999 -0.18 0.999 -0.18 3.232e-3 76.076 
5.754 3.378e-3 76.511 0.999 -0.188 0.999 -0.188 3.378e-3 76.511 
6.026 3.531e-3 76.931 0.999 -0.197 0.999 -0.197 3.531e-3 76.931 
6.31 3.692e-3 77.335 0.999 -0.207 0.999 -0.207 3.692e-3 77.335 
6.607 3.86e-3 77.726 0.999 -0.216 0.999 -0.216 3.86e-3 77.726 
6.918 4.036e-3 78.102 0.999 -0.226 0.999 -0.226 4.036e-3 78.102 
7.244 4.22e-3 78.464 0.999 -0.237 0.999 -0.237 4.22e-3 78.464 
7.586 4.414e-3 78.814 0.999 -0.248 0.999 -0.248 4.414e-3 78.814 
7.943 4.616e-3 79.15 0.999 -0.26 0.999 -0.26 4.616e-3 79.15 
8.318 4.829e-3 79.474 0.999 -0.272 0.999 -0.272 4.829e-3 79.474 
8.71 5.051e-3 79.786 0.999 -0.285 0.999 -0.285 5.051e-3 79.786 
9.12 5.284e-3 80.086 0.999 -0.299 0.999 -0.299 5.284e-3 80.086 
9.55 5.528e-3 80.375 0.999 -0.313 0.999 -0.313 5.528e-3 80.375 
10 5.784e-3 80.653 0.999 -0.327 0.999 -0.327 5.784e-3 80.653 
10.471 6.052e-3 80.92 0.999 -0.343 0.999 -0.343 6.052e-3 80.92 
10.965 6.332e-3 81.177 0.999 -0.359 0.999 -0.359 6.332e-3 81.177 
11.482 6.626e-3 81.424 0.999 -0.376 0.999 -0.376 6.626e-3 81.424 
12.023 6.934e-3 81.661 0.999 -0.393 0.999 -0.393 6.934e-3 81.661 
12.589 7.256e-3 81.888 0.999 -0.412 0.999 -0.412 7.256e-3 81.888 
13.183 7.594e-3 82.107 0.999 -0.431 0.999 -0.431 7.594e-3 82.107 
13.804 7.948e-3 82.316 0.999 -0.452 0.999 -0.452 7.948e-3 82.316 
14.454 8.318e-3 82.516 0.999 -0.473 0.999 -0.473 8.318e-3 82.516 
15.136 8.706e-3 82.708 0.999 -0.495 0.999 -0.495 8.706e-3 82.708 
15.849 9.112e-3 82.892 0.999 -0.519 0.999 -0.519 9.112e-3 82.892 
16.596 9.538e-3 83.068 0.999 -0.543 0.999 -0.543 9.538e-3 83.068 
17.378 9.983e-3 83.236 0.999 -0.569 0.999 -0.569 9.983e-3 83.236 
18.197 0.01 83.396 0.999 -0.595 0.999 -0.595 0.01 83.396 
19.055 0.011 83.548 0.999 -0.624 0.999 -0.624 0.011 83.548 
19.953 0.011 83.694 0.999 -0.653 0.999 -0.653 0.011 83.694 
20.893 0.012 83.832 0.999 -0.684 0.999 -0.684 0.012 83.832 
21.878 0.013 83.963 0.999 -0.716 0.999 -0.716 0.013 83.963 
22.909 0.013 84.087 0.999 -0.75 0.999 -0.75 0.013 84.087 
23.988 0.014 84.204 0.999 -0.785 0.999 -0.785 0.014 84.204 
25.119 0.014 84.315 0.999 -0.822 0.999 -0.822 0.014 84.315 
26.303 0.015 84.419 0.999 -0.861 0.999 -0.861 0.015 84.419 
27.542 0.016 84.516 0.999 -0.901 0.999 -0.901 0.016 84.516 
28.84 0.017 84.608 0.999 -0.944 0.999 -0.944 0.017 84.608 
30.2 0.017 84.693 0.999 -0.988 0.999 -0.988 0.017 84.693 
31.623 0.018 84.771 0.999 -1.034 0.999 -1.034 0.018 84.771 
33.113 0.019 84.844 0.998 -1.083 0.998 -1.083 0.019 84.844 
34.674 0.02 84.91 0.998 -1.134 0.998 -1.134 0.02 84.91 
36.308 0.021 84.97 0.998 -1.188 0.998 -1.188 0.021 84.97 
38.019 0.022 85.024 0.998 -1.244 0.998 -1.244 0.022 85.024 
39.811 0.023 85.071 0.998 -1.302 0.998 -1.302 0.023 85.071 
41.687 0.024 85.113 0.998 -1.363 0.998 -1.363 0.024 85.113 
43.652 0.025 85.149 0.998 -1.428 0.998 -1.428 0.025 85.149 
45.709 0.026 85.178 0.998 -1.495 0.998 -1.495 0.026 85.178 
47.863 0.027 85.201 0.998 -1.565 0.998 -1.565 0.027 85.201 
50.119 0.029 85.218 0.998 -1.639 0.998 -1.639 0.029 85.218 
52.481 0.03 85.229 0.998 -1.716 0.998 -1.716 0.03 85.229 
54.954 0.031 85.233 0.998 -1.797 0.998 -1.797 0.031 85.233 
57.544 0.033 85.231 0.998 -1.881 0.998 -1.881 0.033 85.231 
60.256 0.034 85.222 0.998 -1.97 0.998 -1.97 0.034 85.222 
63.096 0.036 85.207 0.998 -2.063 0.998 -2.063 0.036 85.207 
66.069 0.038 85.185 0.998 -2.16 0.998 -2.16 0.038 85.185 
69.183 0.039 85.156 0.997 -2.261 0.997 -2.261 0.039 85.156 
72.444 0.041 85.12 0.997 -2.368 0.997 -2.368 0.041 85.12 
75.858 0.043 85.077 0.997 -2.479 0.997 -2.479 0.043 85.077 
79.433 0.045 85.027 0.997 -2.596 0.997 -2.596 0.045 85.027 
83.176 0.047 84.969 0.997 -2.718 0.997 -2.718 0.047 84.969 
87.096 0.05 84.904 0.997 -2.846 0.997 -2.846 0.05 84.904 
91.201 0.052 84.831 0.997 -2.98 0.997 -2.98 0.052 84.831 
95.499 0.054 84.75 0.996 -3.12 0.996 -3.12 0.054 84.75 
100 0.057 84.66 0.996 -3.266 0.996 -3.266 0.057 84.66 
104.713 0.06 84.562 0.996 -3.42 0.996 -3.42 0.06 84.562 
109.648 0.062 84.455 0.996 -3.581 0.996 -3.581 0.062 84.455 
114.815 0.065 84.339 0.996 -3.749 0.996 -3.749 0.065 84.339 
120.226 0.068 84.214 0.995 -3.925 0.995 -3.925 0.068 84.214 
125.893 0.072 84.078 0.995 -4.109 0.995 -4.109 0.072 84.078 
131.826 0.075 83.933 0.995 -4.302 0.995 -4.302 0.075 83.933 
138.038 0.079 83.778 0.995 -4.504 0.995 -4.504 0.079 83.778 
144.544 0.082 83.612 0.994 -4.715 0.994 -4.715 0.082 83.612 
151.356 0.086 83.434 0.994 -4.936 0.994 -4.936 0.086 83.434 
158.489 0.09 83.245 0.993 -5.168 0.993 -5.168 0.09 83.245 
165.959 0.094 83.044 0.993 -5.41 0.993 -5.41 0.094 83.044 
173.78 0.099 82.831 0.993 -5.663 0.993 -5.663 0.099 82.831 
181.97 0.103 82.605 0.992 -5.928 0.992 -5.928 0.103 82.605 
190.546 0.108 82.366 0.991 -6.205 0.991 -6.205 0.108 82.366 
199.526 0.113 82.112 0.991 -6.495 0.991 -6.495 0.113 82.112 
208.93 0.118 81.845 0.99 -6.799 0.99 -6.799 0.118 81.845 
218.776 0.124 81.562 0.989 -7.116 0.989 -7.116 0.124 81.562 
229.087 0.13 81.264 0.989 -7.448 0.989 -7.448 0.13 81.264 
239.883 0.136 80.95 0.988 -7.795 0.988 -7.795 0.136 80.95 
251.189 0.142 80.619 0.987 -8.158 0.987 -8.158 0.142 80.619 
263.027 0.148 80.27 0.986 -8.537 0.986 -8.537 0.148 80.27 
275.423 0.155 79.904 0.985 -8.934 0.985 -8.934 0.155 79.904 
288.403 0.162 79.519 0.984 -9.348 0.984 -9.348 0.162 79.519 
301.995 0.17 79.114 0.982 -9.781 0.982 -9.781 0.17 79.114 
316.228 0.178 78.689 0.981 -10.234 0.981 -10.234 0.178 78.689 
331.131 0.186 78.244 0.979 -10.706 0.979 -10.706 0.186 78.244 
346.737 0.194 77.776 0.977 -11.2 0.977 -11.2 0.194 77.776 
363.078 0.203 77.287 0.976 -11.715 0.976 -11.715 0.203 77.287 
380.189 0.212 76.774 0.974 -12.253 0.974 -12.253 0.212 76.774 
398.107 0.222 76.237 0.971 -12.814 0.971 -12.814 0.222 76.237 
416.869 0.232 75.675 0.969 -13.399 0.969 -13.399 0.232 75.675 
436.516 0.242 75.087 0.966 -14.01 0.966 -14.01 0.242 75.087 
457.088 0.253 74.473 0.964 -14.646 0.964 -14.646 0.253 74.473 
478.63 0.264 73.832 0.961 -15.309 0.961 -15.309 0.264 73.832 
501.187 0.276 73.162 0.957 -15.999 0.957 -15.999 0.276 73.162 
524.807 0.288 72.464 0.954 -16.718 0.954 -16.718 0.288 72.464 
549.541 0.3 71.736 0.95 -17.466 0.95 -17.466 0.3 71.736 
575.44 0.313 70.977 0.945 -18.243 0.945 -18.243 0.313 70.977 
602.56 0.326 70.188 0.941 -19.051 0.941 -19.051 0.326 70.188 
630.957 0.34 69.367 0.936 -19.891 0.936 -19.891 0.34 69.367 
660.693 0.355 68.513 0.931 -20.762 0.931 -20.762 0.355 68.513 
691.831 0.369 67.627 0.925 -21.665 0.925 -21.665 0.369 67.627 
724.436 0.384 66.707 0.919 -22.601 0.919 -22.601 0.384 66.707 
758.578 0.4 65.754 0.912 -23.571 0.912 -23.571 0.4 65.754 
794.328 0.416 64.767 0.905 -24.573 0.905 -24.573 0.416 64.767 
831.764 0.432 63.746 0.897 -25.61 0.897 -25.61 0.432 63.746 
870.964 0.449 62.691 0.889 -26.679 0.889 -26.679 0.449 62.691 
912.011 0.466 61.602 0.88 -27.783 0.88 -27.783 0.466 61.602 
954.993 0.484 60.479 0.87 -28.919 0.87 -28.919 0.484 60.479 
1000 0.501 59.323 0.86 -30.088 0.86 -30.088 0.501 59.323 
1047.129 0.519 58.135 0.849 -31.289 0.849 -31.289 0.519 58.135 
1096.478 0.538 56.915 0.838 -32.521 0.838 -32.521 0.538 56.915 
1148.154 0.556 55.664 0.826 -33.784 0.826 -33.784 0.556 55.664 
1202.264 0.575 54.383 0.813 -35.076 0.813 -35.076 0.575 54.383 
1258.925 0.593 53.074 0.799 -36.396 0.799 -36.396 0.593 53.074 
1318.257 0.612 51.738 0.785 -37.742 0.785 -37.742 0.612 51.738 
1380.384 0.631 50.377 0.77 -39.112 0.77 -39.112 0.631 50.377 
1445.44 0.65 48.993 0.755 -40.506 0.755 -40.506 0.65 48.993 
1513.561 0.668 47.587 0.738 -41.92 0.738 -41.92 0.668 47.587 
1584.893 0.687 46.162 0.721 -43.353 0.721 -43.353 0.687 46.162 
1659.587 0.705 44.72 0.704 -44.802 0.704 -44.802 0.705 44.72 
1737.801 0.723 43.263 0.685 -46.265 0.685 -46.265 0.723 43.263 
1819.701 0.74 41.794 0.666 -47.739 0.666 -47.739 0.74 41.794 
1905.461 0.757 40.315 0.647 -49.223 0.647 -49.223 0.757 40.315 
1995.262 0.774 38.829 0.627 -50.713 0.627 -50.713 0.774 38.829 
2089.296 0.79 37.338 0.607 -52.207 0.607 -52.207 0.79 37.338 
2187.762 0.806 35.844 0.586 -53.702 0.586 -53.702 0.806 35.844 
2290.868 0.821 34.349 0.564 -55.197 0.564 -55.197 0.821 34.349 
2398.833 0.836 32.856 0.543 -56.689 0.543 -56.689 0.836 32.856 
2511.886 0.85 31.367 0.521 -58.175 0.521 -58.175 0.85 31.367 
2630.268 0.863 29.884 0.498 -59.653 0.498 -59.653 0.863 29.884 
2754.229 0.876 28.407 0.476 -61.122 0.476 -61.122 0.876 28.407 
2884.032 0.888 26.94 0.453 -62.58 0.453 -62.58 0.888 26.94 
3019.952 0.899 25.482 0.43 -64.024 0.43 -64.024 0.899 25.482 
3162.278 0.91 24.036 0.407 -65.453 0.407 -65.453 0.91 24.036 
3311.311 0.92 22.601 0.384 -66.866 0.384 -66.866 0.92 22.601 
3467.369 0.929 21.18 0.361 -68.26 0.361 -68.26 0.929 21.18 
3630.781 0.938 19.771 0.338 -69.635 0.338 -69.635 0.938 19.771 
3801.894 0.946 18.376 0.315 -70.988 0.315 -70.988 0.946 18.376 
3981.072 0.953 16.995 0.292 -72.317 0.292 -72.317 0.953 16.995 
4168.694 0.959 15.626 0.269 -73.619 0.269 -73.619 0.959 15.626 
4365.158 0.966 14.271 0.247 -74.892 0.247 -74.892 0.966 14.271 
4570.882 0.971 12.929 0.224 -76.129 0.224 -76.129 0.971 12.929 
4786.301 0.976 11.599 0.201 -77.324 0.201 -77.324 0.976 11.599 
5011.872 0.98 10.28 0.179 -78.467 0.179 -78.467 0.98 10.28 
5248.075 0.984 8.972 0.156 -79.538 0.156 -79.538 0.984 8.972 
5495.409 0.987 7.673 0.134 -80.508 0.134 -80.508 0.987 7.673 
5754.399 0.989 6.382 0.111 -81.324 0.111 -81.324 0.989 6.382 
6025.596 0.991 5.099 0.089 -81.876 0.089 -81.876 0.991 5.099 
6309.573 0.993 3.822 0.067 -81.91 0.067 -81.91 0.993 3.822 
6606.934 0.994 2.55 0.045 -80.669 0.045 -80.669 0.994 2.55 
6918.31 0.994 1.282 0.023 -74.559 0.023 -74.559 0.994 1.282 
7244.36 0.994 0.017 6.049e-3 -2.717 6.049e-3 -2.717 0.994 0.017 
7585.776 0.993 -1.248 0.023 72.175 0.023 72.175 0.993 -1.248 
7943.282 0.992 -2.513 0.044 78.45 0.044 78.45 0.992 -2.513 
8317.638 0.99 -3.778 0.066 79.716 0.066 79.716 0.99 -3.778 
8709.636 0.988 -5.047 0.088 79.686 0.088 79.686 0.988 -5.047 
9120.108 0.985 -6.318 0.11 79.128 0.11 79.128 0.985 -6.318 
9549.926 0.982 -7.595 0.133 78.301 0.133 78.301 0.982 -7.595 
10000 0.978 -8.876 0.155 77.317 0.155 77.317 0.978 -8.876 
