# MHz S MA R 50

1 2.337e-3 36.102 0.998 -0.079 0.998 -0.079 2.337e-3 36.102 
1.047 2.385e-3 37.198 0.998 -0.083 0.998 -0.083 2.385e-3 37.198 
1.097 2.436e-3 38.303 0.998 -0.087 0.998 -0.087 2.436e-3 38.303 
1.148 2.49e-3 39.416 0.998 -0.091 0.998 -0.091 2.49e-3 39.416 
1.202 2.548e-3 40.533 0.998 -0.095 0.998 -0.095 2.548e-3 40.533 
1.259 2.609e-3 41.654 0.998 -0.1 0.998 -0.1 2.609e-3 41.654 
1.319 2.673e-3 42.777 0.998 -0.104 0.998 -0.104 2.673e-3 42.777 
1.381 2.742e-3 43.9 0.998 -0.109 0.998 -0.109 2.742e-3 43.9 
1.446 2.814e-3 45.021 0.998 -0.114 0.998 -0.114 2.814e-3 45.021 
1.514 2.891e-3 46.138 0.998 -0.12 0.998 -0.12 2.891e-3 46.138 
1.585 2.972e-3 47.251 0.998 -0.125 0.998 -0.125 2.972e-3 47.251 
1.66 3.059e-3 48.355 0.998 -0.131 0.998 -0.131 3.059e-3 48.355 
1.739 3.15e-3 49.452 0.998 -0.137 0.998 -0.137 3.15e-3 49.452 
1.821 3.246e-3 50.538 0.998 -0.144 0.998 -0.144 3.246e-3 50.538 
1.906 3.348e-3 51.612 0.998 -0.151 0.998 -0.151 3.348e-3 51.612 
1.996 3.456e-3 52.672 0.998 -0.158 0.998 -0.158 3.456e-3 52.672 
2.091 3.57e-3 53.719 0.998 -0.165 0.998 -0.165 3.57e-3 53.719 
2.189 3.69e-3 54.749 0.998 -0.173 0.998 -0.173 3.69e-3 54.749 
2.292 3.817e-3 55.762 0.998 -0.181 0.998 -0.181 3.817e-3 55.762 
2.4 3.95e-3 56.758 0.998 -0.19 0.998 -0.19 3.95e-3 56.758 
2.514 4.091e-3 57.735 0.998 -0.199 0.998 -0.199 4.091e-3 57.735 
2.632 4.24e-3 58.691 0.998 -0.208 0.998 -0.208 4.24e-3 58.691 
2.756 4.397e-3 59.628 0.998 -0.218 0.998 -0.218 4.397e-3 59.628 
2.886 4.562e-3 60.544 0.998 -0.228 0.998 -0.228 4.562e-3 60.544 
3.023 4.736e-3 61.438 0.998 -0.239 0.998 -0.239 4.736e-3 61.438 
3.165 4.919e-3 62.31 0.998 -0.25 0.998 -0.25 4.919e-3 62.31 
3.314 5.111e-3 63.16 0.998 -0.262 0.998 -0.262 5.111e-3 63.16 
3.471 5.314e-3 63.988 0.998 -0.274 0.998 -0.274 5.314e-3 63.988 
3.634 5.527e-3 64.793 0.998 -0.287 0.998 -0.287 5.527e-3 64.793 
3.806 5.751e-3 65.576 0.998 -0.301 0.998 -0.301 5.751e-3 65.576 
3.985 5.986e-3 66.336 0.998 -0.315 0.998 -0.315 5.986e-3 66.336 
4.173 6.234e-3 67.073 0.998 -0.33 0.998 -0.33 6.234e-3 67.073 
4.37 6.493e-3 67.788 0.998 -0.345 0.998 -0.345 6.493e-3 67.788 
4.576 6.766e-3 68.481 0.998 -0.362 0.998 -0.362 6.766e-3 68.481 
4.792 7.053e-3 69.152 0.998 -0.379 0.998 -0.379 7.053e-3 69.152 
5.018 7.354e-3 69.801 0.997 -0.396 0.997 -0.396 7.354e-3 69.801 
5.255 7.67e-3 70.429 0.997 -0.415 0.997 -0.415 7.67e-3 70.429 
5.503 8.002e-3 71.036 0.997 -0.435 0.997 -0.435 8.002e-3 71.036 
5.762 8.35e-3 71.622 0.997 -0.455 0.997 -0.455 8.35e-3 71.622 
6.034 8.715e-3 72.188 0.997 -0.477 0.997 -0.477 8.715e-3 72.188 
6.319 9.098e-3 72.733 0.997 -0.499 0.997 -0.499 9.098e-3 72.733 
6.617 9.5e-3 73.259 0.997 -0.523 0.997 -0.523 9.5e-3 73.259 
6.929 9.921e-3 73.766 0.997 -0.547 0.997 -0.547 9.921e-3 73.766 
7.256 0.01 74.254 0.997 -0.573 0.997 -0.573 0.01 74.254 
7.598 0.011 74.724 0.997 -0.6 0.997 -0.6 0.011 74.724 
7.956 0.011 75.176 0.997 -0.628 0.997 -0.628 0.011 75.176 
8.332 0.012 75.61 0.997 -0.658 0.997 -0.658 0.012 75.61 
8.725 0.012 76.027 0.997 -0.689 0.997 -0.689 0.012 76.027 
9.136 0.013 76.427 0.997 -0.721 0.997 -0.721 0.013 76.427 
9.567 0.014 76.811 0.997 -0.755 0.997 -0.755 0.014 76.811 
10.018 0.014 77.18 0.997 -0.791 0.997 -0.791 0.014 77.18 
10.491 0.015 77.532 0.997 -0.828 0.997 -0.828 0.015 77.532 
10.986 0.015 77.87 0.997 -0.867 0.997 -0.867 0.015 77.87 
11.504 0.016 78.193 0.997 -0.908 0.997 -0.908 0.016 78.193 
12.046 0.017 78.501 0.997 -0.951 0.997 -0.951 0.017 78.501 
12.615 0.018 78.795 0.997 -0.996 0.997 -0.996 0.018 78.795 
13.21 0.018 79.075 0.997 -1.043 0.997 -1.043 0.018 79.075 
13.833 0.019 79.342 0.997 -1.092 0.997 -1.092 0.019 79.342 
14.485 0.02 79.595 0.997 -1.143 0.997 -1.143 0.02 79.595 
15.168 0.021 79.836 0.996 -1.197 0.996 -1.197 0.021 79.836 
15.884 0.022 80.064 0.996 -1.254 0.996 -1.254 0.022 80.064 
16.633 0.023 80.279 0.996 -1.313 0.996 -1.313 0.023 80.279 
17.417 0.024 80.482 0.996 -1.374 0.996 -1.374 0.024 80.482 
18.239 0.025 80.674 0.996 -1.439 0.996 -1.439 0.025 80.674 
19.099 0.027 80.853 0.996 -1.507 0.996 -1.507 0.027 80.853 
20 0.028 81.02 0.996 -1.578 0.996 -1.578 0.028 81.02 
20.943 0.029 81.177 0.996 -1.652 0.996 -1.652 0.029 81.177 
21.931 0.03 81.321 0.996 -1.73 0.996 -1.73 0.03 81.321 
22.966 0.032 81.455 0.996 -1.812 0.996 -1.812 0.032 81.455 
24.049 0.033 81.577 0.996 -1.897 0.996 -1.897 0.033 81.577 
25.183 0.035 81.688 0.996 -1.986 0.996 -1.986 0.035 81.688 
26.371 0.036 81.788 0.995 -2.08 0.995 -2.08 0.036 81.788 
27.615 0.038 81.878 0.995 -2.177 0.995 -2.177 0.038 81.878 
28.917 0.04 81.956 0.995 -2.28 0.995 -2.28 0.04 81.956 
30.281 0.042 82.023 0.995 -2.387 0.995 -2.387 0.042 82.023 
31.709 0.044 82.08 0.995 -2.5 0.995 -2.5 0.044 82.08 
33.205 0.046 82.125 0.995 -2.617 0.995 -2.617 0.046 82.125 
34.771 0.048 82.16 0.995 -2.74 0.995 -2.74 0.048 82.16 
36.411 0.05 82.184 0.994 -2.869 0.994 -2.869 0.05 82.184 
38.129 0.053 82.196 0.994 -3.004 0.994 -3.004 0.053 82.196 
39.927 0.055 82.197 0.994 -3.145 0.994 -3.145 0.055 82.197 
41.81 0.058 82.187 0.994 -3.293 0.994 -3.293 0.058 82.187 
43.782 0.06 82.166 0.994 -3.448 0.994 -3.448 0.06 82.166 
45.847 0.063 82.133 0.993 -3.61 0.993 -3.61 0.063 82.133 
48.01 0.066 82.088 0.993 -3.779 0.993 -3.779 0.066 82.088 
50.274 0.069 82.031 0.993 -3.957 0.993 -3.957 0.069 82.031 
52.646 0.072 81.962 0.992 -4.142 0.992 -4.142 0.072 81.962 
55.129 0.076 81.881 0.992 -4.337 0.992 -4.337 0.076 81.881 
57.729 0.079 81.786 0.992 -4.54 0.992 -4.54 0.079 81.786 
60.452 0.083 81.679 0.991 -4.753 0.991 -4.753 0.083 81.679 
63.303 0.087 81.559 0.991 -4.976 0.991 -4.976 0.087 81.559 
66.289 0.091 81.425 0.991 -5.209 0.991 -5.209 0.091 81.425 
69.416 0.095 81.277 0.99 -5.453 0.99 -5.453 0.095 81.277 
72.69 0.1 81.115 0.99 -5.708 0.99 -5.708 0.1 81.115 
76.118 0.104 80.938 0.989 -5.975 0.989 -5.975 0.104 80.938 
79.709 0.109 80.746 0.988 -6.254 0.988 -6.254 0.109 80.746 
83.468 0.114 80.538 0.988 -6.546 0.988 -6.546 0.114 80.538 
87.405 0.119 80.314 0.987 -6.851 0.987 -6.851 0.119 80.314 
91.528 0.125 80.074 0.986 -7.17 0.986 -7.17 0.125 80.074 
95.845 0.131 79.817 0.985 -7.504 0.985 -7.504 0.131 79.817 
100.366 0.137 79.542 0.984 -7.854 0.984 -7.854 0.137 79.542 
105.099 0.143 79.249 0.983 -8.218 0.983 -8.218 0.143 79.249 
110.057 0.15 78.937 0.982 -8.6 0.982 -8.6 0.15 78.937 
115.248 0.157 78.607 0.981 -8.999 0.981 -8.999 0.157 78.607 
120.684 0.164 78.256 0.98 -9.415 0.98 -9.415 0.164 78.256 
126.376 0.171 77.884 0.978 -9.85 0.978 -9.85 0.171 77.884 
132.337 0.179 77.492 0.977 -10.304 0.977 -10.304 0.179 77.492 
138.578 0.187 77.077 0.975 -10.779 0.975 -10.779 0.187 77.077 
145.115 0.196 76.64 0.974 -11.274 0.974 -11.274 0.196 76.64 
151.959 0.204 76.179 0.972 -11.791 0.972 -11.791 0.204 76.179 
159.127 0.214 75.695 0.97 -12.33 0.97 -12.33 0.214 75.695 
166.632 0.223 75.185 0.967 -12.892 0.967 -12.892 0.223 75.185 
174.492 0.233 74.65 0.965 -13.478 0.965 -13.478 0.233 74.65 
182.722 0.244 74.089 0.962 -14.089 0.962 -14.089 0.244 74.089 
191.34 0.254 73.501 0.959 -14.726 0.959 -14.726 0.254 73.501 
200.365 0.265 72.886 0.956 -15.388 0.956 -15.388 0.265 72.886 
209.816 0.277 72.241 0.953 -16.078 0.953 -16.078 0.277 72.241 
219.712 0.289 71.568 0.949 -16.795 0.949 -16.795 0.289 71.568 
230.075 0.301 70.866 0.945 -17.541 0.945 -17.541 0.301 70.866 
240.927 0.314 70.133 0.941 -18.315 0.941 -18.315 0.314 70.133 
252.291 0.328 69.369 0.936 -19.119 0.936 -19.119 0.328 69.369 
264.191 0.341 68.574 0.931 -19.954 0.931 -19.954 0.341 68.574 
276.652 0.356 67.747 0.926 -20.819 0.926 -20.819 0.356 67.747 
289.7 0.37 66.888 0.92 -21.715 0.92 -21.715 0.37 66.888 
303.365 0.385 65.996 0.914 -22.642 0.914 -22.642 0.385 65.996 
317.673 0.4 65.073 0.907 -23.6 0.907 -23.6 0.4 65.073 
332.657 0.416 64.117 0.9 -24.59 0.9 -24.59 0.416 64.117 
348.347 0.432 63.128 0.892 -25.612 0.892 -25.612 0.432 63.128 
364.778 0.449 62.107 0.884 -26.664 0.884 -26.664 0.449 62.107 
381.983 0.466 61.055 0.875 -27.748 0.875 -27.748 0.466 61.055 
400 0.483 59.971 0.866 -28.861 0.866 -28.861 0.483 59.971 
418.867 0.5 58.857 0.856 -30.005 0.856 -30.005 0.5 58.857 
438.623 0.518 57.713 0.846 -31.177 0.846 -31.177 0.518 57.713 
459.312 0.536 56.541 0.834 -32.376 0.834 -32.376 0.536 56.541 
480.976 0.554 55.342 0.823 -33.602 0.823 -33.602 0.554 55.342 
503.662 0.572 54.117 0.81 -34.853 0.81 -34.853 0.572 54.117 
527.418 0.59 52.867 0.797 -36.127 0.797 -36.127 0.59 52.867 
552.295 0.608 51.596 0.784 -37.423 0.784 -37.423 0.608 51.596 
578.345 0.626 50.304 0.77 -38.738 0.77 -38.738 0.626 50.304 
605.623 0.644 48.994 0.755 -40.07 0.755 -40.07 0.644 48.994 
634.189 0.662 47.669 0.739 -41.418 0.739 -41.418 0.662 47.669 
664.101 0.679 46.329 0.723 -42.779 0.723 -42.779 0.679 46.329 
695.425 0.697 44.979 0.707 -44.149 0.707 -44.149 0.697 44.979 
728.226 0.714 43.621 0.69 -45.528 0.69 -45.528 0.714 43.621 
762.574 0.73 42.256 0.673 -46.911 0.673 -46.911 0.73 42.256 
798.542 0.747 40.889 0.655 -48.297 0.655 -48.297 0.747 40.889 
836.206 0.763 39.521 0.636 -49.683 0.636 -49.683 0.763 39.521 
875.648 0.778 38.154 0.618 -51.067 0.618 -51.067 0.778 38.154 
916.949 0.793 36.792 0.599 -52.445 0.599 -52.445 0.793 36.792 
960.199 0.807 35.437 0.58 -53.816 0.58 -53.816 0.807 35.437 
1005.488 0.821 34.091 0.561 -55.177 0.561 -55.177 0.821 34.091 
1052.914 0.834 32.757 0.541 -56.526 0.541 -56.526 0.834 32.757 
1102.576 0.847 31.435 0.522 -57.861 0.522 -57.861 0.847 31.435 
1154.581 0.859 30.128 0.502 -59.181 0.502 -59.181 0.859 30.128 
1209.039 0.87 28.837 0.482 -60.484 0.482 -60.484 0.87 28.837 
1266.065 0.881 27.565 0.463 -61.768 0.463 -61.768 0.881 27.565 
1325.782 0.891 26.311 0.443 -63.032 0.443 -63.032 0.891 26.311 
1388.314 0.901 25.077 0.424 -64.275 0.424 -64.275 0.901 25.077 
1453.797 0.91 23.864 0.405 -65.497 0.405 -65.497 0.91 23.864 
1522.368 0.918 22.673 0.385 -66.696 0.385 -66.696 0.918 22.673 
1594.173 0.926 21.503 0.367 -67.873 0.367 -67.873 0.926 21.503 
1669.365 0.934 20.354 0.348 -69.026 0.348 -69.026 0.934 20.354 
1748.103 0.941 19.228 0.329 -70.156 0.329 -70.156 0.941 19.228 
1830.556 0.947 18.124 0.311 -71.263 0.311 -71.263 0.947 18.124 
1916.897 0.953 17.041 0.293 -72.347 0.293 -72.347 0.953 17.041 
2007.311 0.958 15.979 0.275 -73.408 0.275 -73.408 0.958 15.979 
2101.989 0.963 14.937 0.258 -74.446 0.258 -74.446 0.963 14.937 
2201.133 0.968 13.915 0.241 -75.462 0.241 -75.462 0.968 13.915 
2304.953 0.972 12.913 0.223 -76.456 0.223 -76.456 0.972 12.913 
2413.671 0.976 11.928 0.207 -77.428 0.207 -77.428 0.976 11.928 
2527.516 0.98 10.96 0.19 -78.378 0.19 -78.378 0.98 10.96 
2646.73 0.983 10.009 0.174 -79.306 0.174 -79.306 0.983 10.009 
2771.568 0.986 9.073 0.158 -80.212 0.158 -80.212 0.986 9.073 
2902.294 0.988 8.15 0.142 -81.094 0.142 -81.094 0.988 8.15 
3039.186 0.99 7.24 0.126 -81.95 0.126 -81.95 0.99 7.24 
3182.534 0.992 6.341 0.11 -82.776 0.11 -82.776 0.992 6.341 
3332.644 0.994 5.453 0.095 -83.564 0.095 -83.564 0.994 5.453 
3489.834 0.995 4.573 0.08 -84.3 0.08 -84.3 0.995 4.573 
3654.438 0.996 3.701 0.065 -84.954 0.065 -84.954 0.996 3.701 
3826.806 0.997 2.834 0.049 -85.461 0.049 -85.461 0.997 2.834 
4007.304 0.998 1.972 0.034 -85.638 0.034 -85.638 0.998 1.972 
4196.316 0.998 1.114 0.019 -84.739 0.019 -84.739 0.998 1.114 
4394.242 0.999 0.257 4.696e-3 -72.51 4.696e-3 -72.51 0.999 0.257 
4601.504 0.999 -0.599 0.011 81.874 0.011 81.874 0.999 -0.599 
4818.542 0.998 -1.457 0.025 85.432 0.025 85.432 0.998 -1.457 
5045.817 0.998 -2.317 0.04 85.713 0.04 85.713 0.998 -2.317 
5283.812 0.997 -3.18 0.055 85.365 0.055 85.365 0.997 -3.18 
5533.032 0.996 -4.049 0.071 84.785 0.071 84.785 0.996 -4.049 
5794.008 0.995 -4.924 0.086 84.091 0.086 84.091 0.995 -4.924 
6067.292 0.993 -5.808 0.101 83.329 0.101 83.329 0.993 -5.808 
6353.467 0.992 -6.7 0.117 82.522 0.117 82.522 0.992 -6.7 
6653.139 0.99 -7.604 0.132 81.679 0.132 81.679 0.99 -7.604 
6966.946 0.987 -8.519 0.148 80.809 0.148 80.809 0.987 -8.519 
7295.554 0.985 -9.447 0.164 79.912 0.164 79.912 0.985 -9.447 
7639.662 0.982 -10.389 0.18 78.993 0.18 78.993 0.982 -10.389 
8000 0.978 -11.347 0.197 78.05 0.197 78.05 0.978 -11.347 
