# MHz S MA R 50

1 573.3e-6 37.817 1 -0.02 1 -0.02 573.3e-6 37.817 
1.047 585.3e-6 38.97 1 -0.021 1 -0.021 585.3e-6 38.97 
1.097 598.1e-6 40.129 1 -0.022 1 -0.022 598.1e-6 40.129 
1.148 611.7e-6 41.294 1 -0.023 1 -0.023 611.7e-6 41.294 
1.203 626.2e-6 42.463 1 -0.024 1 -0.024 626.2e-6 42.463 
1.259 641.6e-6 43.633 1 -0.025 1 -0.025 641.6e-6 43.633 
1.319 657.9e-6 44.803 1 -0.027 1 -0.027 657.9e-6 44.803 
1.381 675.2e-6 45.97 1 -0.028 1 -0.028 675.2e-6 45.97 
1.446 693.6e-6 47.133 1 -0.029 1 -0.029 693.6e-6 47.133 
1.514 713.2e-6 48.29 1 -0.031 1 -0.031 713.2e-6 48.29 
1.586 733.9e-6 49.438 1 -0.032 1 -0.032 733.9e-6 49.438 
1.661 755.8e-6 50.576 1 -0.033 1 -0.033 755.8e-6 50.576 
1.739 779e-6 51.702 1 -0.035 1 -0.035 779e-6 51.702 
1.821 803.6e-6 52.815 1 -0.037 1 -0.037 803.6e-6 52.815 
1.907 829.6e-6 53.914 1 -0.038 1 -0.038 829.6e-6 53.914 
1.997 857.1e-6 54.995 1 -0.04 1 -0.04 857.1e-6 54.995 
2.092 886.2e-6 56.06 1 -0.042 1 -0.042 886.2e-6 56.06 
2.19 916.9e-6 57.105 1 -0.044 1 -0.044 916.9e-6 57.105 
2.294 949.4e-6 58.13 0.999 -0.046 0.999 -0.046 949.4e-6 58.13 
2.402 983.6e-6 59.135 0.999 -0.048 0.999 -0.048 983.6e-6 59.135 
2.515 1.02e-3 60.119 0.999 -0.051 0.999 -0.051 1.02e-3 60.119 
2.634 1.058e-3 61.08 0.999 -0.053 0.999 -0.053 1.058e-3 61.08 
2.758 1.098e-3 62.018 0.999 -0.056 0.999 -0.056 1.098e-3 62.018 
2.889 1.14e-3 62.933 0.999 -0.058 0.999 -0.058 1.14e-3 62.933 
3.025 1.185e-3 63.824 0.999 -0.061 0.999 -0.061 1.185e-3 63.824 
3.168 1.232e-3 64.692 0.999 -0.064 0.999 -0.064 1.232e-3 64.692 
3.317 1.281e-3 65.536 0.999 -0.067 0.999 -0.067 1.281e-3 65.536 
3.474 1.333e-3 66.356 0.999 -0.07 0.999 -0.07 1.333e-3 66.356 
3.638 1.387e-3 67.152 0.999 -0.073 0.999 -0.073 1.387e-3 67.152 
3.809 1.445e-3 67.924 0.999 -0.077 0.999 -0.077 1.445e-3 67.924 
3.989 1.505e-3 68.673 0.999 -0.08 0.999 -0.08 1.505e-3 68.673 
4.178 1.569e-3 69.398 0.999 -0.084 0.999 -0.084 1.569e-3 69.398 
4.375 1.635e-3 70.1 0.999 -0.088 0.999 -0.088 1.635e-3 70.1 
4.581 1.705e-3 70.78 0.999 -0.092 0.999 -0.092 1.705e-3 70.78 
4.797 1.779e-3 71.437 0.999 -0.097 0.999 -0.097 1.779e-3 71.437 
5.024 1.856e-3 72.072 0.999 -0.101 0.999 -0.101 1.856e-3 72.072 
5.261 1.937e-3 72.686 0.999 -0.106 0.999 -0.106 1.937e-3 72.686 
5.509 2.022e-3 73.278 0.999 -0.111 0.999 -0.111 2.022e-3 73.278 
5.769 2.111e-3 73.85 0.999 -0.116 0.999 -0.116 2.111e-3 73.85 
6.042 2.204e-3 74.402 0.999 -0.122 0.999 -0.122 2.204e-3 74.402 
6.327 2.303e-3 74.934 0.999 -0.127 0.999 -0.127 2.303e-3 74.934 
6.625 2.406e-3 75.447 0.999 -0.133 0.999 -0.133 2.406e-3 75.447 
6.938 2.514e-3 75.942 0.999 -0.14 0.999 -0.14 2.514e-3 75.942 
7.266 2.627e-3 76.419 0.999 -0.146 0.999 -0.146 2.627e-3 76.419 
7.609 2.746e-3 76.878 0.999 -0.153 0.999 -0.153 2.746e-3 76.878 
7.968 2.87e-3 77.32 0.999 -0.161 0.999 -0.161 2.87e-3 77.32 
8.344 3e-3 77.746 0.999 -0.168 0.999 -0.168 3e-3 77.746 
8.738 3.137e-3 78.156 0.999 -0.176 0.999 -0.176 3.137e-3 78.156 
9.15 3.281e-3 78.55 0.999 -0.184 0.999 -0.184 3.281e-3 78.55 
9.582 3.431e-3 78.929 0.999 -0.193 0.999 -0.193 3.431e-3 78.929 
10.034 3.588e-3 79.294 0.999 -0.202 0.999 -0.202 3.588e-3 79.294 
10.508 3.753e-3 79.645 0.999 -0.212 0.999 -0.212 3.753e-3 79.645 
11.004 3.926e-3 79.982 0.999 -0.222 0.999 -0.222 3.926e-3 79.982 
11.523 4.108e-3 80.306 0.999 -0.232 0.999 -0.232 4.108e-3 80.306 
12.067 4.297e-3 80.618 0.999 -0.243 0.999 -0.243 4.297e-3 80.618 
12.637 4.496e-3 80.917 0.999 -0.255 0.999 -0.255 4.496e-3 80.917 
13.233 4.705e-3 81.204 0.999 -0.267 0.999 -0.267 4.705e-3 81.204 
13.858 4.923e-3 81.48 0.999 -0.279 0.999 -0.279 4.923e-3 81.48 
14.512 5.152e-3 81.744 0.999 -0.292 0.999 -0.292 5.152e-3 81.744 
15.197 5.392e-3 81.998 0.999 -0.306 0.999 -0.306 5.392e-3 81.998 
15.914 5.643e-3 82.242 0.999 -0.321 0.999 -0.321 5.643e-3 82.242 
16.665 5.906e-3 82.475 0.999 -0.336 0.999 -0.336 5.906e-3 82.475 
17.452 6.181e-3 82.699 0.999 -0.352 0.999 -0.352 6.181e-3 82.699 
18.275 6.47e-3 82.913 0.999 -0.368 0.999 -0.368 6.47e-3 82.913 
19.138 6.772e-3 83.118 0.999 -0.386 0.999 -0.386 6.772e-3 83.118 
20.041 7.089e-3 83.314 0.999 -0.404 0.999 -0.404 7.089e-3 83.314 
20.987 7.42e-3 83.501 0.999 -0.423 0.999 -0.423 7.42e-3 83.501 
21.978 7.768e-3 83.68 0.999 -0.443 0.999 -0.443 7.768e-3 83.68 
23.015 8.131e-3 83.851 0.999 -0.464 0.999 -0.464 8.131e-3 83.851 
24.101 8.512e-3 84.014 0.999 -0.485 0.999 -0.485 8.512e-3 84.014 
25.239 8.911e-3 84.17 0.999 -0.508 0.999 -0.508 8.911e-3 84.17 
26.43 9.329e-3 84.318 0.999 -0.532 0.999 -0.532 9.329e-3 84.318 
27.678 9.767e-3 84.459 0.999 -0.557 0.999 -0.557 9.767e-3 84.459 
28.984 0.01 84.592 0.999 -0.584 0.999 -0.584 0.01 84.592 
30.352 0.011 84.719 0.999 -0.611 0.999 -0.611 0.011 84.719 
31.785 0.011 84.839 0.999 -0.64 0.999 -0.64 0.011 84.839 
33.285 0.012 84.952 0.999 -0.67 0.999 -0.67 0.012 84.952 
34.856 0.012 85.059 0.999 -0.702 0.999 -0.702 0.012 85.059 
36.501 0.013 85.159 0.999 -0.735 0.999 -0.735 0.013 85.159 
38.224 0.013 85.253 0.999 -0.77 0.999 -0.77 0.013 85.253 
40.028 0.014 85.342 0.999 -0.806 0.999 -0.806 0.014 85.342 
41.918 0.015 85.424 0.999 -0.844 0.999 -0.844 0.015 85.424 
43.896 0.015 85.5 0.999 -0.884 0.999 -0.884 0.015 85.5 
45.968 0.016 85.57 0.999 -0.926 0.999 -0.926 0.016 85.57 
48.138 0.017 85.634 0.999 -0.969 0.999 -0.969 0.017 85.634 
50.41 0.018 85.693 0.999 -1.015 0.999 -1.015 0.018 85.693 
52.789 0.019 85.745 0.999 -1.063 0.999 -1.063 0.019 85.745 
55.281 0.019 85.793 0.999 -1.113 0.999 -1.113 0.019 85.793 
57.89 0.02 85.834 0.999 -1.166 0.999 -1.166 0.02 85.834 
60.623 0.021 85.87 0.999 -1.221 0.999 -1.221 0.021 85.87 
63.484 0.022 85.9 0.999 -1.278 0.999 -1.278 0.022 85.9 
66.48 0.023 85.924 0.999 -1.339 0.999 -1.339 0.023 85.924 
69.618 0.024 85.943 0.999 -1.402 0.999 -1.402 0.024 85.943 
72.904 0.026 85.956 0.999 -1.468 0.999 -1.468 0.026 85.956 
76.345 0.027 85.963 0.998 -1.537 0.998 -1.537 0.027 85.963 
79.949 0.028 85.965 0.998 -1.61 0.998 -1.61 0.028 85.965 
83.722 0.029 85.961 0.998 -1.685 0.998 -1.685 0.029 85.961 
87.674 0.031 85.95 0.998 -1.765 0.998 -1.765 0.031 85.95 
91.812 0.032 85.934 0.998 -1.848 0.998 -1.848 0.032 85.934 
96.146 0.034 85.912 0.998 -1.935 0.998 -1.935 0.034 85.912 
100.684 0.035 85.883 0.998 -2.026 0.998 -2.026 0.035 85.883 
105.436 0.037 85.848 0.998 -2.122 0.998 -2.122 0.037 85.848 
110.413 0.039 85.806 0.998 -2.222 0.998 -2.222 0.039 85.806 
115.624 0.041 85.758 0.998 -2.327 0.998 -2.327 0.041 85.758 
121.082 0.043 85.704 0.998 -2.436 0.998 -2.436 0.043 85.704 
126.797 0.045 85.642 0.998 -2.551 0.998 -2.551 0.045 85.642 
132.782 0.047 85.573 0.997 -2.672 0.997 -2.672 0.047 85.573 
139.049 0.049 85.497 0.997 -2.797 0.997 -2.797 0.049 85.497 
145.612 0.051 85.414 0.997 -2.929 0.997 -2.929 0.051 85.414 
152.485 0.054 85.322 0.997 -3.067 0.997 -3.067 0.054 85.322 
159.682 0.056 85.223 0.997 -3.212 0.997 -3.212 0.056 85.223 
167.219 0.059 85.116 0.997 -3.363 0.997 -3.363 0.059 85.116 
175.112 0.061 85 0.997 -3.521 0.997 -3.521 0.061 85 
183.377 0.064 84.875 0.996 -3.687 0.996 -3.687 0.064 84.875 
192.033 0.067 84.742 0.996 -3.86 0.996 -3.86 0.067 84.742 
201.096 0.071 84.599 0.996 -4.042 0.996 -4.042 0.071 84.599 
210.588 0.074 84.446 0.996 -4.232 0.996 -4.232 0.074 84.446 
220.528 0.077 84.283 0.995 -4.431 0.995 -4.431 0.077 84.283 
230.937 0.081 84.11 0.995 -4.639 0.995 -4.639 0.081 84.11 
241.837 0.085 83.926 0.995 -4.857 0.995 -4.857 0.085 83.926 
253.252 0.089 83.731 0.994 -5.086 0.994 -5.086 0.089 83.731 
265.205 0.093 83.524 0.994 -5.324 0.994 -5.324 0.093 83.524 
277.723 0.097 83.306 0.993 -5.574 0.993 -5.574 0.097 83.306 
290.831 0.102 83.074 0.993 -5.836 0.993 -5.836 0.102 83.074 
304.559 0.106 82.83 0.992 -6.109 0.992 -6.109 0.106 82.83 
318.934 0.111 82.572 0.992 -6.396 0.992 -6.396 0.111 82.572 
333.987 0.117 82.3 0.991 -6.695 0.991 -6.695 0.117 82.3 
349.752 0.122 82.014 0.99 -7.008 0.99 -7.008 0.122 82.014 
366.26 0.128 81.712 0.99 -7.336 0.99 -7.336 0.128 81.712 
383.547 0.134 81.394 0.989 -7.679 0.989 -7.679 0.134 81.394 
401.651 0.14 81.06 0.988 -8.037 0.988 -8.037 0.14 81.06 
420.609 0.146 80.709 0.987 -8.412 0.987 -8.412 0.146 80.709 
440.461 0.153 80.341 0.986 -8.804 0.986 -8.804 0.153 80.341 
461.251 0.16 79.953 0.985 -9.213 0.985 -9.213 0.16 79.953 
483.022 0.167 79.547 0.984 -9.641 0.984 -9.641 0.167 79.547 
505.821 0.175 79.121 0.982 -10.089 0.982 -10.089 0.175 79.121 
529.695 0.183 78.674 0.981 -10.556 0.981 -10.556 0.183 78.674 
554.697 0.192 78.206 0.979 -11.044 0.979 -11.044 0.192 78.206 
580.879 0.2 77.715 0.977 -11.554 0.977 -11.554 0.2 77.715 
608.296 0.209 77.202 0.975 -12.086 0.975 -12.086 0.209 77.202 
637.008 0.219 76.664 0.973 -12.642 0.973 -12.642 0.219 76.664 
667.074 0.229 76.102 0.971 -13.221 0.971 -13.221 0.229 76.102 
698.56 0.239 75.515 0.968 -13.826 0.968 -13.826 0.239 75.515 
731.532 0.25 74.901 0.966 -14.457 0.966 -14.457 0.25 74.901 
766.06 0.261 74.26 0.963 -15.114 0.963 -15.114 0.261 74.26 
802.218 0.272 73.59 0.959 -15.799 0.959 -15.799 0.272 73.59 
840.083 0.284 72.893 0.956 -16.512 0.956 -16.512 0.284 72.893 
879.735 0.297 72.165 0.952 -17.254 0.952 -17.254 0.297 72.165 
921.258 0.309 71.407 0.948 -18.026 0.948 -18.026 0.309 71.407 
964.742 0.323 70.618 0.943 -18.829 0.943 -18.829 0.323 70.618 
1010.277 0.337 69.797 0.939 -19.664 0.939 -19.664 0.337 69.797 
1057.962 0.351 68.943 0.933 -20.531 0.933 -20.531 0.351 68.943 
1107.898 0.365 68.056 0.928 -21.43 0.928 -21.43 0.365 68.056 
1160.191 0.38 67.136 0.921 -22.362 0.921 -22.362 0.38 67.136 
1214.952 0.396 66.181 0.915 -23.329 0.915 -23.329 0.396 66.181 
1272.297 0.412 65.193 0.908 -24.329 0.908 -24.329 0.412 65.193 
1332.35 0.428 64.169 0.9 -25.363 0.9 -25.363 0.428 64.169 
1395.237 0.445 63.111 0.892 -26.432 0.892 -26.432 0.445 63.111 
1461.092 0.462 62.018 0.883 -27.536 0.883 -27.536 0.462 62.018 
1530.055 0.48 60.89 0.874 -28.673 0.874 -28.673 0.48 60.89 
1602.273 0.498 59.728 0.864 -29.844 0.864 -29.844 0.498 59.728 
1677.901 0.516 58.532 0.853 -31.049 0.853 -31.049 0.516 58.532 
1757.097 0.534 57.303 0.842 -32.286 0.842 -32.286 0.534 57.303 
1840.032 0.553 56.042 0.829 -33.555 0.829 -33.555 0.553 56.042 
1926.882 0.572 54.75 0.817 -34.856 0.817 -34.856 0.572 54.75 
2017.83 0.59 53.427 0.803 -36.185 0.803 -36.185 0.59 53.427 
2113.072 0.609 52.076 0.789 -37.543 0.789 -37.543 0.609 52.076 
2212.809 0.628 50.697 0.774 -38.928 0.774 -38.928 0.628 50.697 
2317.253 0.647 49.293 0.758 -40.337 0.758 -40.337 0.647 49.293 
2426.627 0.666 47.865 0.742 -41.769 0.742 -41.769 0.666 47.865 
2541.164 0.685 46.416 0.724 -43.223 0.724 -43.223 0.685 46.416 
2661.107 0.703 44.947 0.706 -44.695 0.706 -44.695 0.703 44.947 
2786.711 0.722 43.461 0.688 -46.183 0.688 -46.183 0.722 43.461 
2918.243 0.739 41.961 0.669 -47.685 0.669 -47.685 0.739 41.961 
3055.984 0.757 40.447 0.649 -49.198 0.649 -49.198 0.757 40.447 
3200.226 0.774 38.924 0.628 -50.721 0.628 -50.721 0.774 38.924 
3351.277 0.791 37.393 0.607 -52.25 0.607 -52.25 0.791 37.393 
3509.457 0.807 35.856 0.586 -53.783 0.586 -53.783 0.807 35.856 
3675.103 0.822 34.316 0.564 -55.317 0.564 -55.317 0.822 34.316 
3848.568 0.837 32.776 0.541 -56.85 0.541 -56.85 0.837 32.776 
4030.22 0.852 31.236 0.519 -58.38 0.519 -58.38 0.852 31.236 
4220.446 0.865 29.699 0.495 -59.903 0.495 -59.903 0.865 29.699 
4419.651 0.878 28.167 0.472 -61.419 0.472 -61.419 0.878 28.167 
4628.258 0.89 26.641 0.448 -62.925 0.448 -62.925 0.89 26.641 
4846.711 0.902 25.122 0.425 -64.418 0.425 -64.418 0.902 25.122 
5075.476 0.913 23.612 0.401 -65.897 0.401 -65.897 0.913 23.612 
5315.038 0.923 22.112 0.376 -67.358 0.376 -67.358 0.923 22.112 
5565.907 0.932 20.622 0.352 -68.801 0.352 -68.801 0.932 20.622 
5828.618 0.941 19.143 0.328 -70.222 0.328 -70.222 0.941 19.143 
6103.728 0.949 17.675 0.304 -71.618 0.304 -71.618 0.949 17.675 
6391.823 0.956 16.219 0.279 -72.984 0.279 -72.984 0.956 16.219 
6693.517 0.963 14.774 0.255 -74.317 0.255 -74.317 0.963 14.774 
7009.451 0.969 13.339 0.231 -75.607 0.231 -75.607 0.969 13.339 
7340.296 0.974 11.916 0.207 -76.844 0.207 -76.844 0.974 11.916 
7686.758 0.979 10.502 0.182 -78.012 0.182 -78.012 0.979 10.502 
8049.572 0.982 9.098 0.158 -79.083 0.158 -79.083 0.982 9.098 
8429.511 0.986 7.703 0.134 -80.01 0.134 -80.01 0.986 7.703 
8827.384 0.988 6.315 0.11 -80.705 0.11 -80.705 0.988 6.315 
9244.035 0.99 4.934 0.086 -80.981 0.086 -80.981 0.99 4.934 
9680.353 0.991 3.559 0.062 -80.367 0.062 -80.367 0.991 3.559 
10137.265 0.992 2.188 0.039 -77.25 0.039 -77.25 0.992 2.188 
10615.743 0.992 0.822 0.016 -60.983 0.016 -60.983 0.992 0.822 
11116.806 0.992 -0.542 0.013 48.171 0.013 48.171 0.992 -0.542 
11641.518 0.99 -1.905 0.034 72.943 0.034 72.943 0.99 -1.905 
12190.997 0.989 -3.267 0.058 77.018 0.058 77.018 0.989 -3.267 
12766.411 0.986 -4.63 0.081 77.901 0.081 77.901 0.986 -4.63 
13368.985 0.983 -5.994 0.105 77.729 0.105 77.729 0.983 -5.994 
14000 0.979 -7.36 0.129 77.08 0.129 77.08 0.979 -7.36 
