# MHz S MA R 50

1 5.028e-3 39.225 0.996 -0.183 0.996 -0.183 5.028e-3 39.225 
1.047 5.145e-3 40.336 0.996 -0.192 0.996 -0.192 5.145e-3 40.336 
1.097 5.268e-3 41.45 0.996 -0.201 0.996 -0.201 5.268e-3 41.45 
1.149 5.399e-3 42.566 0.996 -0.21 0.996 -0.21 5.399e-3 42.566 
1.203 5.539e-3 43.682 0.996 -0.22 0.996 -0.22 5.539e-3 43.682 
1.26 5.686e-3 44.796 0.996 -0.23 0.996 -0.23 5.686e-3 44.796 
1.32 5.842e-3 45.906 0.996 -0.241 0.996 -0.241 5.842e-3 45.906 
1.383 6.007e-3 47.01 0.996 -0.253 0.996 -0.253 6.007e-3 47.01 
1.448 6.182e-3 48.107 0.996 -0.265 0.996 -0.265 6.182e-3 48.107 
1.517 6.367e-3 49.196 0.996 -0.277 0.996 -0.277 6.367e-3 49.196 
1.588 6.563e-3 50.273 0.996 -0.29 0.996 -0.29 6.563e-3 50.273 
1.664 6.77e-3 51.339 0.996 -0.304 0.996 -0.304 6.77e-3 51.339 
1.742 6.988e-3 52.391 0.996 -0.319 0.996 -0.319 6.988e-3 52.391 
1.825 7.219e-3 53.429 0.996 -0.334 0.996 -0.334 7.219e-3 53.429 
1.911 7.463e-3 54.45 0.996 -0.349 0.996 -0.349 7.463e-3 54.45 
2.002 7.721e-3 55.454 0.996 -0.366 0.996 -0.366 7.721e-3 55.454 
2.097 7.992e-3 56.44 0.996 -0.383 0.996 -0.383 7.992e-3 56.44 
2.196 8.279e-3 57.407 0.996 -0.401 0.996 -0.401 8.279e-3 57.407 
2.3 8.58e-3 58.353 0.996 -0.42 0.996 -0.42 8.58e-3 58.353 
2.409 8.899e-3 59.279 0.995 -0.44 0.995 -0.44 8.899e-3 59.279 
2.523 9.234e-3 60.184 0.995 -0.461 0.995 -0.461 9.234e-3 60.184 
2.643 9.587e-3 61.067 0.995 -0.483 0.995 -0.483 9.587e-3 61.067 
2.768 9.958e-3 61.928 0.995 -0.506 0.995 -0.506 9.958e-3 61.928 
2.899 0.01 62.766 0.995 -0.53 0.995 -0.53 0.01 62.766 
3.036 0.011 63.581 0.995 -0.555 0.995 -0.555 0.011 63.581 
3.18 0.011 64.373 0.995 -0.581 0.995 -0.581 0.011 64.373 
3.331 0.012 65.142 0.995 -0.609 0.995 -0.609 0.012 65.142 
3.488 0.012 65.888 0.995 -0.637 0.995 -0.637 0.012 65.888 
3.653 0.013 66.61 0.995 -0.667 0.995 -0.667 0.013 66.61 
3.826 0.013 67.31 0.995 -0.699 0.995 -0.699 0.013 67.31 
4.008 0.014 67.987 0.995 -0.732 0.995 -0.732 0.014 67.987 
4.198 0.014 68.641 0.995 -0.767 0.995 -0.767 0.014 68.641 
4.396 0.015 69.273 0.995 -0.803 0.995 -0.803 0.015 69.273 
4.605 0.016 69.882 0.995 -0.841 0.995 -0.841 0.016 69.882 
4.823 0.016 70.47 0.995 -0.881 0.995 -0.881 0.016 70.47 
5.051 0.017 71.035 0.995 -0.922 0.995 -0.922 0.017 71.035 
5.29 0.018 71.58 0.995 -0.966 0.995 -0.966 0.018 71.58 
5.541 0.018 72.103 0.994 -1.012 0.994 -1.012 0.018 72.103 
5.803 0.019 72.606 0.994 -1.06 0.994 -1.06 0.019 72.606 
6.078 0.02 73.089 0.994 -1.11 0.994 -1.11 0.02 73.089 
6.366 0.021 73.551 0.994 -1.162 0.994 -1.162 0.021 73.551 
6.667 0.022 73.994 0.994 -1.217 0.994 -1.217 0.022 73.994 
6.983 0.023 74.418 0.994 -1.275 0.994 -1.275 0.023 74.418 
7.314 0.024 74.823 0.994 -1.335 0.994 -1.335 0.024 74.823 
7.66 0.025 75.21 0.994 -1.398 0.994 -1.398 0.025 75.21 
8.023 0.026 75.578 0.994 -1.464 0.994 -1.464 0.026 75.578 
8.403 0.027 75.928 0.994 -1.533 0.994 -1.533 0.027 75.928 
8.801 0.029 76.261 0.994 -1.606 0.994 -1.606 0.029 76.261 
9.218 0.03 76.576 0.993 -1.682 0.993 -1.682 0.03 76.576 
9.655 0.031 76.875 0.993 -1.761 0.993 -1.761 0.031 76.875 
10.112 0.033 77.157 0.993 -1.844 0.993 -1.844 0.033 77.157 
10.591 0.034 77.422 0.993 -1.931 0.993 -1.931 0.034 77.422 
11.092 0.036 77.671 0.993 -2.023 0.993 -2.023 0.036 77.671 
11.618 0.038 77.904 0.993 -2.118 0.993 -2.118 0.038 77.904 
12.168 0.039 78.121 0.993 -2.218 0.993 -2.218 0.039 78.121 
12.744 0.041 78.323 0.993 -2.323 0.993 -2.323 0.041 78.323 
13.348 0.043 78.509 0.992 -2.433 0.992 -2.433 0.043 78.509 
13.98 0.045 78.68 0.992 -2.547 0.992 -2.547 0.045 78.68 
14.642 0.047 78.836 0.992 -2.668 0.992 -2.668 0.047 78.836 
15.335 0.049 78.976 0.992 -2.794 0.992 -2.794 0.049 78.976 
16.062 0.052 79.102 0.992 -2.925 0.992 -2.925 0.052 79.102 
16.822 0.054 79.212 0.991 -3.063 0.991 -3.063 0.054 79.212 
17.619 0.056 79.308 0.991 -3.208 0.991 -3.208 0.056 79.308 
18.454 0.059 79.388 0.991 -3.359 0.991 -3.359 0.059 79.388 
19.328 0.062 79.454 0.991 -3.517 0.991 -3.517 0.062 79.454 
20.243 0.065 79.504 0.99 -3.683 0.99 -3.683 0.065 79.504 
21.202 0.068 79.54 0.99 -3.857 0.99 -3.857 0.068 79.54 
22.206 0.071 79.56 0.99 -4.038 0.99 -4.038 0.071 79.56 
23.258 0.074 79.565 0.989 -4.228 0.989 -4.228 0.074 79.565 
24.359 0.078 79.555 0.989 -4.427 0.989 -4.427 0.078 79.555 
25.513 0.081 79.528 0.988 -4.635 0.988 -4.635 0.081 79.528 
26.721 0.085 79.487 0.988 -4.853 0.988 -4.853 0.085 79.487 
27.987 0.089 79.429 0.988 -5.081 0.988 -5.081 0.089 79.429 
29.312 0.093 79.354 0.987 -5.32 0.987 -5.32 0.093 79.354 
30.7 0.097 79.264 0.987 -5.57 0.987 -5.57 0.097 79.264 
32.154 0.102 79.156 0.986 -5.831 0.986 -5.831 0.102 79.156 
33.677 0.107 79.032 0.985 -6.104 0.985 -6.104 0.107 79.032 
35.272 0.112 78.889 0.985 -6.39 0.985 -6.39 0.112 78.889 
36.943 0.117 78.729 0.984 -6.689 0.984 -6.689 0.117 78.729 
38.693 0.122 78.551 0.983 -7.002 0.983 -7.002 0.122 78.551 
40.525 0.128 78.354 0.982 -7.329 0.982 -7.329 0.128 78.354 
42.444 0.134 78.138 0.981 -7.671 0.981 -7.671 0.134 78.138 
44.455 0.14 77.902 0.98 -8.028 0.98 -8.028 0.14 77.902 
46.56 0.146 77.646 0.979 -8.402 0.979 -8.402 0.146 77.646 
48.765 0.153 77.37 0.978 -8.792 0.978 -8.792 0.153 77.37 
51.075 0.16 77.072 0.977 -9.2 0.977 -9.2 0.16 77.072 
53.494 0.168 76.753 0.975 -9.627 0.975 -9.627 0.168 76.753 
56.027 0.175 76.411 0.974 -10.072 0.974 -10.072 0.175 76.411 
58.681 0.183 76.046 0.972 -10.537 0.972 -10.537 0.183 76.046 
61.46 0.192 75.658 0.97 -11.022 0.97 -11.022 0.192 75.658 
64.371 0.2 75.245 0.969 -11.528 0.969 -11.528 0.2 75.245 
67.42 0.209 74.808 0.966 -12.057 0.966 -12.057 0.209 74.808 
70.613 0.219 74.345 0.964 -12.608 0.964 -12.608 0.219 74.345 
73.957 0.228 73.856 0.962 -13.182 0.962 -13.182 0.228 73.856 
77.46 0.239 73.34 0.959 -13.781 0.959 -13.781 0.239 73.34 
81.128 0.249 72.796 0.956 -14.405 0.956 -14.405 0.249 72.796 
84.971 0.26 72.224 0.953 -15.054 0.953 -15.054 0.26 72.224 
88.995 0.271 71.624 0.95 -15.73 0.95 -15.73 0.271 71.624 
93.21 0.283 70.994 0.946 -16.432 0.946 -16.432 0.283 70.994 
97.624 0.295 70.334 0.943 -17.163 0.943 -17.163 0.295 70.334 
102.248 0.308 69.644 0.938 -17.922 0.938 -17.922 0.308 69.644 
107.091 0.321 68.922 0.934 -18.71 0.934 -18.71 0.321 68.922 
112.163 0.335 68.169 0.929 -19.527 0.929 -19.527 0.335 68.169 
117.475 0.348 67.385 0.924 -20.374 0.924 -20.374 0.348 67.385 
123.039 0.363 66.568 0.918 -21.251 0.918 -21.251 0.363 66.568 
128.866 0.377 65.719 0.912 -22.159 0.912 -22.159 0.377 65.719 
134.969 0.393 64.838 0.906 -23.097 0.906 -23.097 0.393 64.838 
141.361 0.408 63.925 0.899 -24.066 0.899 -24.066 0.408 63.925 
148.056 0.424 62.979 0.891 -25.065 0.891 -25.065 0.424 62.979 
155.069 0.44 62.002 0.883 -26.094 0.883 -26.094 0.44 62.002 
162.413 0.457 60.993 0.875 -27.153 0.875 -27.153 0.457 60.993 
170.105 0.473 59.954 0.866 -28.241 0.866 -28.241 0.473 59.954 
178.161 0.49 58.885 0.857 -29.357 0.857 -29.357 0.49 58.885 
186.599 0.508 57.788 0.846 -30.501 0.846 -30.501 0.508 57.788 
195.437 0.525 56.662 0.836 -31.671 0.836 -31.671 0.525 56.662 
204.693 0.543 55.511 0.825 -32.866 0.825 -32.866 0.543 55.511 
214.388 0.561 54.334 0.813 -34.085 0.813 -34.085 0.561 54.334 
224.541 0.578 53.135 0.8 -35.325 0.8 -35.325 0.578 53.135 
235.176 0.596 51.915 0.787 -36.585 0.787 -36.585 0.596 51.915 
246.314 0.614 50.675 0.774 -37.863 0.774 -37.863 0.614 50.675 
257.98 0.632 49.42 0.76 -39.156 0.76 -39.156 0.632 49.42 
270.198 0.649 48.149 0.745 -40.462 0.745 -40.462 0.649 48.149 
282.995 0.666 46.867 0.73 -41.779 0.73 -41.779 0.666 46.867 
296.398 0.684 45.576 0.714 -43.105 0.714 -43.105 0.684 45.576 
310.436 0.7 44.279 0.698 -44.435 0.698 -44.435 0.7 44.279 
325.139 0.717 42.977 0.682 -45.769 0.682 -45.769 0.717 42.977 
340.538 0.733 41.675 0.665 -47.102 0.665 -47.102 0.733 41.675 
356.666 0.748 40.374 0.648 -48.433 0.648 -48.433 0.748 40.374 
373.558 0.763 39.078 0.631 -49.758 0.631 -49.758 0.763 39.078 
391.25 0.778 37.789 0.613 -51.075 0.613 -51.075 0.778 37.789 
409.781 0.792 36.51 0.595 -52.382 0.595 -52.382 0.792 36.51 
429.188 0.806 35.242 0.577 -53.676 0.577 -53.676 0.806 35.242 
449.515 0.819 33.989 0.559 -54.955 0.559 -54.955 0.819 33.989 
470.805 0.831 32.752 0.541 -56.217 0.541 -56.217 0.831 32.752 
493.103 0.843 31.533 0.523 -57.459 0.523 -57.459 0.843 31.533 
516.457 0.854 30.334 0.505 -58.681 0.505 -58.681 0.854 30.334 
540.917 0.865 29.157 0.487 -59.88 0.487 -59.88 0.865 29.157 
566.536 0.875 28.003 0.47 -61.056 0.47 -61.056 0.875 28.003 
593.368 0.885 26.872 0.452 -62.206 0.452 -62.206 0.885 26.872 
621.47 0.894 25.767 0.435 -63.33 0.435 -63.33 0.894 25.767 
650.904 0.902 24.688 0.418 -64.428 0.418 -64.428 0.902 24.688 
681.732 0.91 23.635 0.401 -65.499 0.401 -65.499 0.91 23.635 
714.019 0.917 22.609 0.384 -66.541 0.384 -66.541 0.917 22.609 
747.836 0.924 21.61 0.368 -67.556 0.368 -67.556 0.924 21.61 
783.255 0.931 20.638 0.352 -68.542 0.352 -68.542 0.931 20.638 
820.351 0.937 19.693 0.337 -69.5 0.337 -69.5 0.937 19.693 
859.204 0.942 18.775 0.322 -70.429 0.322 -70.429 0.942 18.775 
899.897 0.947 17.884 0.307 -71.331 0.307 -71.331 0.947 17.884 
942.517 0.952 17.019 0.293 -72.205 0.293 -72.205 0.952 17.019 
987.156 0.957 16.18 0.279 -73.052 0.279 -73.052 0.957 16.18 
1033.909 0.961 15.366 0.265 -73.872 0.265 -73.872 0.961 15.366 
1082.877 0.964 14.576 0.252 -74.665 0.252 -74.665 0.964 14.576 
1134.163 0.968 13.81 0.239 -75.432 0.239 -75.432 0.968 13.81 
1187.879 0.971 13.068 0.226 -76.174 0.226 -76.174 0.971 13.068 
1244.138 0.974 12.347 0.214 -76.891 0.214 -76.891 0.974 12.347 
1303.062 0.977 11.648 0.202 -77.583 0.202 -77.583 0.977 11.648 
1364.777 0.979 10.97 0.19 -78.252 0.19 -78.252 0.979 10.97 
1429.415 0.981 10.31 0.179 -78.896 0.179 -78.896 0.981 10.31 
1497.114 0.983 9.67 0.168 -79.516 0.168 -79.516 0.983 9.67 
1568.019 0.985 9.047 0.157 -80.113 0.157 -80.113 0.985 9.047 
1642.283 0.987 8.441 0.147 -80.685 0.147 -80.685 0.987 8.441 
1720.063 0.988 7.851 0.137 -81.233 0.137 -81.233 0.988 7.851 
1801.528 0.99 7.276 0.127 -81.755 0.127 -81.755 0.99 7.276 
1886.851 0.991 6.714 0.117 -82.25 0.117 -82.25 0.991 6.714 
1976.214 0.992 6.165 0.107 -82.715 0.107 -82.715 0.992 6.165 
2069.811 0.993 5.628 0.098 -83.147 0.098 -83.147 0.993 5.628 
2167.84 0.994 5.102 0.089 -83.539 0.089 -83.539 0.994 5.102 
2270.512 0.995 4.587 0.08 -83.883 0.08 -83.883 0.995 4.587 
2378.046 0.995 4.08 0.071 -84.167 0.071 -84.167 0.995 4.08 
2490.674 0.996 3.581 0.062 -84.37 0.062 -84.37 0.996 3.581 
2608.635 0.996 3.089 0.054 -84.459 0.054 -84.459 0.996 3.089 
2732.184 0.997 2.604 0.045 -84.376 0.045 -84.376 0.997 2.604 
2861.584 0.997 2.124 0.037 -84.009 0.037 -84.009 0.997 2.124 
2997.112 0.997 1.648 0.029 -83.123 0.029 -83.123 0.997 1.648 
3139.06 0.997 1.176 0.021 -81.111 0.021 -81.111 0.997 1.176 
3287.73 0.997 0.706 0.013 -75.837 0.013 -75.837 0.997 0.706 
3443.441 0.997 0.238 5.201e-3 -52.636 5.201e-3 -52.636 0.997 0.238 
3606.527 0.997 -0.23 5.23e-3 49.852 5.23e-3 49.852 0.997 -0.23 
3777.337 0.996 -0.697 0.013 72.828 0.013 72.828 0.996 -0.697 
3956.237 0.996 -1.166 0.021 78.061 0.021 78.061 0.996 -1.166 
4143.61 0.995 -1.637 0.029 80.046 0.029 80.046 0.995 -1.637 
4339.857 0.995 -2.11 0.037 80.902 0.037 80.902 0.995 -2.11 
4545.398 0.994 -2.587 0.045 81.234 0.045 81.234 0.994 -2.587 
4760.675 0.993 -3.068 0.054 81.277 0.054 81.277 0.993 -3.068 
4986.147 0.992 -3.555 0.062 81.141 0.062 81.141 0.992 -3.555 
5222.297 0.991 -4.048 0.071 80.885 0.071 80.885 0.991 -4.048 
5469.633 0.99 -4.548 0.08 80.541 0.08 80.541 0.99 -4.548 
5728.682 0.989 -5.056 0.088 80.131 0.088 80.131 0.989 -5.056 
6000 0.987 -5.572 0.097 79.666 0.097 79.666 0.987 -5.572 
