# MHz S MA R 50

1 0.031 31.778 0.974 -0.947 0.974 -0.947 0.031 31.778 
1.047 0.031 32.854 0.974 -0.991 0.974 -0.991 0.031 32.854 
1.097 0.032 33.944 0.974 -1.038 0.974 -1.038 0.032 33.944 
1.148 0.032 35.047 0.974 -1.087 0.974 -1.087 0.032 35.047 
1.202 0.033 36.161 0.974 -1.138 0.974 -1.138 0.033 36.161 
1.259 0.033 37.283 0.974 -1.192 0.974 -1.192 0.033 37.283 
1.318 0.034 38.412 0.973 -1.248 0.973 -1.248 0.034 38.412 
1.381 0.035 39.546 0.973 -1.306 0.973 -1.306 0.035 39.546 
1.446 0.036 40.682 0.973 -1.368 0.973 -1.368 0.036 40.682 
1.514 0.036 41.819 0.973 -1.432 0.973 -1.432 0.036 41.819 
1.585 0.037 42.953 0.973 -1.499 0.973 -1.499 0.037 42.953 
1.66 0.038 44.083 0.973 -1.57 0.973 -1.57 0.038 44.083 
1.738 0.039 45.206 0.973 -1.644 0.973 -1.644 0.039 45.206 
1.82 0.04 46.32 0.973 -1.721 0.973 -1.721 0.04 46.32 
1.906 0.042 47.423 0.972 -1.802 0.972 -1.802 0.042 47.423 
1.996 0.043 48.512 0.972 -1.886 0.972 -1.886 0.043 48.512 
2.09 0.044 49.587 0.972 -1.975 0.972 -1.975 0.044 49.587 
2.188 0.045 50.643 0.972 -2.068 0.972 -2.068 0.045 50.643 
2.291 0.047 51.681 0.972 -2.165 0.972 -2.165 0.047 51.681 
2.399 0.048 52.697 0.971 -2.266 0.971 -2.266 0.048 52.697 
2.513 0.05 53.691 0.971 -2.373 0.971 -2.373 0.05 53.691 
2.631 0.052 54.661 0.971 -2.484 0.971 -2.484 0.052 54.661 
2.755 0.053 55.605 0.971 -2.601 0.971 -2.601 0.053 55.605 
2.885 0.055 56.522 0.971 -2.723 0.971 -2.723 0.055 56.522 
3.021 0.057 57.411 0.97 -2.851 0.97 -2.851 0.057 57.411 
3.163 0.059 58.27 0.97 -2.984 0.97 -2.984 0.059 58.27 
3.313 0.062 59.1 0.97 -3.124 0.97 -3.124 0.062 59.1 
3.469 0.064 59.9 0.97 -3.271 0.97 -3.271 0.064 59.9 
3.632 0.066 60.667 0.969 -3.424 0.969 -3.424 0.066 60.667 
3.803 0.069 61.403 0.969 -3.584 0.969 -3.584 0.069 61.403 
3.983 0.072 62.106 0.969 -3.752 0.969 -3.752 0.072 62.106 
4.171 0.075 62.776 0.968 -3.928 0.968 -3.928 0.075 62.776 
4.367 0.078 63.413 0.968 -4.112 0.968 -4.112 0.078 63.413 
4.573 0.081 64.017 0.967 -4.304 0.967 -4.304 0.081 64.017 
4.789 0.084 64.587 0.967 -4.505 0.967 -4.505 0.084 64.587 
5.014 0.088 65.123 0.966 -4.716 0.966 -4.716 0.088 65.123 
5.251 0.091 65.625 0.966 -4.936 0.966 -4.936 0.091 65.625 
5.498 0.095 66.094 0.965 -5.166 0.965 -5.166 0.095 66.094 
5.758 0.099 66.528 0.965 -5.408 0.965 -5.408 0.099 66.528 
6.029 0.103 66.928 0.964 -5.66 0.964 -5.66 0.103 66.928 
6.313 0.108 67.295 0.964 -5.923 0.964 -5.923 0.108 67.295 
6.611 0.112 67.627 0.963 -6.199 0.963 -6.199 0.112 67.627 
6.922 0.117 67.925 0.962 -6.487 0.962 -6.487 0.117 67.925 
7.249 0.122 68.19 0.961 -6.789 0.961 -6.789 0.122 68.19 
7.591 0.128 68.42 0.96 -7.104 0.96 -7.104 0.128 68.42 
7.948 0.133 68.616 0.959 -7.434 0.959 -7.434 0.133 68.616 
8.323 0.139 68.779 0.958 -7.778 0.958 -7.778 0.139 68.779 
8.716 0.145 68.907 0.957 -8.138 0.957 -8.138 0.145 68.907 
9.126 0.152 69.001 0.956 -8.514 0.956 -8.514 0.152 69.001 
9.557 0.158 69.061 0.955 -8.907 0.955 -8.907 0.158 69.061 
10.007 0.165 69.087 0.954 -9.317 0.954 -9.317 0.165 69.087 
10.479 0.173 69.078 0.952 -9.745 0.952 -9.745 0.173 69.078 
10.973 0.18 69.035 0.951 -10.193 0.951 -10.193 0.18 69.035 
11.49 0.188 68.957 0.949 -10.659 0.949 -10.659 0.188 68.957 
12.032 0.196 68.844 0.947 -11.146 0.947 -11.146 0.196 68.844 
12.599 0.205 68.696 0.945 -11.654 0.945 -11.654 0.205 68.696 
13.193 0.214 68.513 0.943 -12.184 0.943 -12.184 0.214 68.513 
13.815 0.223 68.294 0.941 -12.736 0.941 -12.736 0.223 68.294 
14.466 0.233 68.039 0.938 -13.312 0.938 -13.312 0.233 68.039 
15.148 0.243 67.748 0.935 -13.911 0.935 -13.911 0.243 67.748 
15.863 0.253 67.421 0.933 -14.535 0.933 -14.535 0.253 67.421 
16.61 0.264 67.057 0.929 -15.184 0.929 -15.184 0.264 67.057 
17.394 0.276 66.656 0.926 -15.86 0.926 -15.86 0.276 66.656 
18.213 0.287 66.218 0.922 -16.562 0.922 -16.562 0.287 66.218 
19.072 0.299 65.743 0.918 -17.291 0.918 -17.291 0.299 65.743 
19.971 0.312 65.23 0.914 -18.048 0.914 -18.048 0.312 65.23 
20.913 0.325 64.68 0.91 -18.834 0.91 -18.834 0.325 64.68 
21.899 0.338 64.092 0.905 -19.648 0.905 -19.648 0.338 64.092 
22.931 0.352 63.467 0.9 -20.491 0.9 -20.491 0.352 63.467 
24.012 0.366 62.803 0.894 -21.364 0.894 -21.364 0.366 62.803 
25.144 0.381 62.102 0.888 -22.267 0.888 -22.267 0.381 62.102 
26.33 0.396 61.364 0.882 -23.199 0.882 -23.199 0.396 61.364 
27.571 0.411 60.589 0.875 -24.161 0.875 -24.161 0.411 60.589 
28.871 0.427 59.778 0.867 -25.152 0.867 -25.152 0.427 59.778 
30.232 0.443 58.93 0.86 -26.173 0.86 -26.173 0.443 58.93 
31.657 0.459 58.048 0.851 -27.222 0.851 -27.222 0.459 58.048 
33.149 0.476 57.131 0.843 -28.299 0.843 -28.299 0.476 57.131 
34.712 0.492 56.181 0.833 -29.403 0.833 -29.403 0.492 56.181 
36.349 0.509 55.199 0.823 -30.534 0.823 -30.534 0.509 55.199 
38.062 0.527 54.186 0.813 -31.689 0.813 -31.689 0.527 54.186 
39.857 0.544 53.145 0.802 -32.868 0.802 -32.868 0.544 53.145 
41.736 0.561 52.076 0.791 -34.07 0.791 -34.07 0.561 52.076 
43.703 0.579 50.982 0.779 -35.292 0.779 -35.292 0.579 50.982 
45.763 0.596 49.865 0.766 -36.532 0.766 -36.532 0.596 49.865 
47.921 0.614 48.727 0.753 -37.788 0.753 -37.788 0.614 48.727 
50.18 0.631 47.571 0.739 -39.059 0.739 -39.059 0.631 47.571 
52.546 0.648 46.398 0.725 -40.342 0.725 -40.342 0.648 46.398 
55.023 0.665 45.212 0.711 -41.634 0.711 -41.634 0.665 45.212 
57.617 0.682 44.016 0.696 -42.932 0.696 -42.932 0.682 44.016 
60.333 0.699 42.811 0.68 -44.235 0.68 -44.235 0.699 42.811 
63.177 0.715 41.602 0.665 -45.54 0.665 -45.54 0.715 41.602 
66.156 0.73 40.39 0.649 -46.843 0.649 -46.843 0.73 40.39 
69.275 0.746 39.179 0.632 -48.142 0.632 -48.142 0.746 39.179 
72.54 0.76 37.971 0.616 -49.435 0.616 -49.435 0.76 37.971 
75.96 0.775 36.769 0.599 -50.719 0.599 -50.719 0.775 36.769 
79.541 0.789 35.575 0.582 -51.992 0.582 -51.992 0.789 35.575 
83.291 0.802 34.393 0.565 -53.251 0.565 -53.251 0.802 34.393 
87.218 0.815 33.224 0.548 -54.493 0.548 -54.493 0.815 33.224 
91.33 0.827 32.07 0.531 -55.718 0.531 -55.718 0.827 32.07 
95.635 0.839 30.934 0.514 -56.923 0.514 -56.923 0.839 30.934 
100.144 0.85 29.817 0.498 -58.106 0.498 -58.106 0.85 29.817 
104.865 0.86 28.721 0.481 -59.265 0.481 -59.265 0.86 28.721 
109.809 0.87 27.647 0.464 -60.4 0.464 -60.4 0.87 27.647 
114.985 0.879 26.597 0.448 -61.51 0.448 -61.51 0.879 26.597 
120.406 0.888 25.572 0.432 -62.593 0.432 -62.593 0.888 25.572 
126.083 0.897 24.571 0.416 -63.648 0.416 -63.648 0.897 24.571 
132.027 0.904 23.598 0.4 -64.675 0.4 -64.675 0.904 23.598 
138.251 0.912 22.65 0.385 -65.673 0.385 -65.673 0.912 22.65 
144.769 0.918 21.73 0.37 -66.643 0.37 -66.643 0.918 21.73 
151.593 0.925 20.837 0.356 -67.583 0.356 -67.583 0.925 20.837 
158.74 0.931 19.972 0.342 -68.495 0.342 -68.495 0.931 19.972 
166.224 0.936 19.134 0.328 -69.377 0.328 -69.377 0.936 19.134 
174.06 0.941 18.323 0.314 -70.23 0.314 -70.23 0.941 18.323 
182.266 0.946 17.539 0.301 -71.055 0.301 -71.055 0.946 17.539 
190.859 0.951 16.782 0.289 -71.852 0.289 -71.852 0.951 16.782 
199.856 0.955 16.051 0.277 -72.621 0.277 -72.621 0.955 16.051 
209.278 0.958 15.346 0.265 -73.363 0.265 -73.363 0.958 15.346 
219.144 0.962 14.666 0.253 -74.078 0.253 -74.078 0.962 14.666 
229.476 0.965 14.01 0.242 -74.767 0.242 -74.767 0.965 14.01 
240.294 0.968 13.378 0.231 -75.431 0.231 -75.431 0.968 13.378 
251.622 0.971 12.77 0.221 -76.07 0.221 -76.07 0.971 12.77 
263.485 0.973 12.185 0.211 -76.685 0.211 -76.685 0.973 12.185 
275.906 0.976 11.621 0.201 -77.276 0.201 -77.276 0.976 11.621 
288.913 0.978 11.078 0.192 -77.845 0.192 -77.845 0.978 11.078 
302.534 0.98 10.556 0.183 -78.392 0.183 -78.392 0.98 10.556 
316.796 0.982 10.053 0.175 -78.918 0.175 -78.918 0.982 10.053 
331.731 0.983 9.57 0.166 -79.423 0.166 -79.423 0.983 9.57 
347.37 0.985 9.105 0.158 -79.908 0.158 -79.908 0.985 9.105 
363.747 0.986 8.657 0.151 -80.374 0.151 -80.374 0.986 8.657 
380.895 0.987 8.226 0.143 -80.821 0.143 -80.821 0.987 8.226 
398.852 0.988 7.811 0.136 -81.25 0.136 -81.25 0.988 7.811 
417.655 0.99 7.411 0.129 -81.662 0.129 -81.662 0.99 7.411 
437.345 0.991 7.026 0.122 -82.057 0.122 -82.057 0.991 7.026 
457.963 0.991 6.655 0.116 -82.435 0.116 -82.435 0.991 6.655 
479.553 0.992 6.297 0.11 -82.797 0.11 -82.797 0.992 6.297 
502.161 0.993 5.952 0.104 -83.143 0.104 -83.143 0.993 5.952 
525.834 0.994 5.619 0.098 -83.473 0.098 -83.473 0.994 5.619 
550.624 0.994 5.297 0.092 -83.787 0.092 -83.787 0.994 5.297 
576.582 0.995 4.986 0.087 -84.086 0.087 -84.086 0.995 4.986 
603.765 0.995 4.685 0.082 -84.369 0.082 -84.369 0.995 4.685 
632.228 0.996 4.394 0.077 -84.635 0.077 -84.635 0.996 4.394 
662.034 0.996 4.112 0.072 -84.885 0.072 -84.885 0.996 4.112 
693.244 0.997 3.838 0.067 -85.116 0.067 -85.116 0.997 3.838 
725.927 0.997 3.572 0.062 -85.328 0.062 -85.328 0.997 3.572 
760.149 0.997 3.314 0.058 -85.518 0.058 -85.518 0.997 3.314 
795.985 0.997 3.062 0.053 -85.684 0.053 -85.684 0.997 3.062 
833.511 0.998 2.817 0.049 -85.822 0.049 -85.822 0.998 2.817 
872.806 0.998 2.577 0.045 -85.926 0.045 -85.926 0.998 2.577 
913.953 0.998 2.343 0.041 -85.989 0.041 -85.989 0.998 2.343 
957.04 0.998 2.114 0.037 -86 0.037 -86 0.998 2.114 
1002.158 0.998 1.889 0.033 -85.942 0.033 -85.942 0.998 1.889 
1049.404 0.998 1.668 0.029 -85.791 0.029 -85.791 0.998 1.668 
1098.876 0.998 1.451 0.025 -85.509 0.025 -85.509 0.998 1.451 
1150.681 0.998 1.237 0.022 -85.03 0.022 -85.03 0.998 1.237 
1204.929 0.998 1.025 0.018 -84.235 0.018 -84.235 0.998 1.025 
1261.733 0.998 0.816 0.014 -82.891 0.014 -82.891 0.998 0.816 
1321.216 0.998 0.608 0.011 -80.453 0.011 -80.453 0.998 0.608 
1383.503 0.998 0.402 7.239e-3 -75.342 7.239e-3 -75.342 0.998 0.402 
1448.726 0.998 0.197 3.93e-3 -60.716 3.93e-3 -60.716 0.998 0.197 
1517.024 0.998 -7.961e-3 2.058e-3 3.862 2.058e-3 3.862 0.998 -7.961e-3 
1588.542 0.998 -0.213 4.32e-3 58.957 4.32e-3 58.957 0.998 -0.213 
1663.432 0.998 -0.417 7.668e-3 71.4 7.668e-3 71.4 0.998 -0.417 
1741.852 0.997 -0.623 0.011 75.971 0.011 75.971 0.997 -0.623 
1823.969 0.997 -0.83 0.015 78.181 0.015 78.181 0.997 -0.83 
1909.958 0.997 -1.038 0.018 79.388 0.018 79.388 0.997 -1.038 
2000 0.996 -1.248 0.022 80.074 0.022 80.074 0.996 -1.248 
