# MHz S MA R 50

1 410.7e-6 15.971 1 -6.477e-3 1 -6.477e-3 410.7e-6 15.971 
1.047 413.7e-6 16.625 1 -6.784e-3 1 -6.784e-3 413.7e-6 16.625 
1.097 416.8e-6 17.302 1 -7.105e-3 1 -7.105e-3 416.8e-6 17.302 
1.149 420.1e-6 18.001 1 -7.441e-3 1 -7.441e-3 420.1e-6 18.001 
1.203 423.6e-6 18.723 1 -7.793e-3 1 -7.793e-3 423.6e-6 18.723 
1.26 427.3e-6 19.469 1 -8.162e-3 1 -8.162e-3 427.3e-6 19.469 
1.32 431.1e-6 20.238 1 -8.549e-3 1 -8.549e-3 431.1e-6 20.238 
1.382 435.3e-6 21.03 1 -8.953e-3 1 -8.953e-3 435.3e-6 21.03 
1.448 439.6e-6 21.845 1 -9.377e-3 1 -9.377e-3 439.6e-6 21.845 
1.516 444.3e-6 22.684 1 -9.821e-3 1 -9.821e-3 444.3e-6 22.684 
1.588 449.2e-6 23.546 1 -0.01 1 -0.01 449.2e-6 23.546 
1.663 454.4e-6 24.431 1 -0.011 1 -0.011 454.4e-6 24.431 
1.742 459.9e-6 25.339 1 -0.011 1 -0.011 459.9e-6 25.339 
1.824 465.8e-6 26.269 1 -0.012 1 -0.012 465.8e-6 26.269 
1.91 472e-6 27.22 1 -0.012 1 -0.012 472e-6 27.22 
2.001 478.6e-6 28.193 1 -0.013 1 -0.013 478.6e-6 28.193 
2.096 485.6e-6 29.185 1 -0.014 1 -0.014 485.6e-6 29.185 
2.195 493.1e-6 30.197 1 -0.014 1 -0.014 493.1e-6 30.197 
2.299 501e-6 31.228 1 -0.015 1 -0.015 501e-6 31.228 
2.407 509.5e-6 32.275 1 -0.016 1 -0.016 509.5e-6 32.275 
2.521 518.4e-6 33.339 1 -0.016 1 -0.016 518.4e-6 33.339 
2.641 527.9e-6 34.417 1 -0.017 1 -0.017 527.9e-6 34.417 
2.766 538.1e-6 35.508 1 -0.018 1 -0.018 538.1e-6 35.508 
2.897 548.8e-6 36.611 1 -0.019 1 -0.019 548.8e-6 36.611 
3.034 560.2e-6 37.724 1 -0.02 1 -0.02 560.2e-6 37.724 
3.177 572.4e-6 38.846 1 -0.021 1 -0.021 572.4e-6 38.846 
3.328 585.3e-6 39.974 1 -0.022 1 -0.022 585.3e-6 39.974 
3.485 599e-6 41.108 1 -0.023 1 -0.023 599e-6 41.108 
3.65 613.5e-6 42.244 1 -0.024 1 -0.024 613.5e-6 42.244 
3.823 628.9e-6 43.382 1 -0.025 1 -0.025 628.9e-6 43.382 
4.004 645.2e-6 44.519 1 -0.026 1 -0.026 645.2e-6 44.519 
4.193 662.5e-6 45.653 1 -0.027 1 -0.027 662.5e-6 45.653 
4.392 680.9e-6 46.784 1 -0.028 1 -0.028 680.9e-6 46.784 
4.599 700.3e-6 47.908 1 -0.03 1 -0.03 700.3e-6 47.908 
4.817 720.9e-6 49.024 1 -0.031 1 -0.031 720.9e-6 49.024 
5.045 742.7e-6 50.131 1 -0.033 1 -0.033 742.7e-6 50.131 
5.284 765.8e-6 51.228 1 -0.034 1 -0.034 765.8e-6 51.228 
5.534 790.1e-6 52.311 1 -0.036 1 -0.036 790.1e-6 52.311 
5.796 815.9e-6 53.381 1 -0.038 1 -0.038 815.9e-6 53.381 
6.07 843.1e-6 54.435 1 -0.039 1 -0.039 843.1e-6 54.435 
6.357 871.9e-6 55.473 1 -0.041 1 -0.041 871.9e-6 55.473 
6.658 902.2e-6 56.494 1 -0.043 1 -0.043 902.2e-6 56.494 
6.973 934.2e-6 57.496 0.999 -0.045 0.999 -0.045 934.2e-6 57.496 
7.303 968e-6 58.478 0.999 -0.047 0.999 -0.047 968e-6 58.478 
7.649 1.004e-3 59.441 0.999 -0.05 0.999 -0.05 1.004e-3 59.441 
8.011 1.041e-3 60.382 0.999 -0.052 0.999 -0.052 1.041e-3 60.382 
8.39 1.081e-3 61.303 0.999 -0.054 0.999 -0.054 1.081e-3 61.303 
8.787 1.122e-3 62.202 0.999 -0.057 0.999 -0.057 1.122e-3 62.202 
9.203 1.166e-3 63.078 0.999 -0.06 0.999 -0.06 1.166e-3 63.078 
9.639 1.212e-3 63.932 0.999 -0.062 0.999 -0.062 1.212e-3 63.932 
10.095 1.261e-3 64.764 0.999 -0.065 0.999 -0.065 1.261e-3 64.764 
10.573 1.312e-3 65.573 0.999 -0.068 0.999 -0.068 1.312e-3 65.573 
11.073 1.366e-3 66.36 0.999 -0.072 0.999 -0.072 1.366e-3 66.36 
11.597 1.422e-3 67.124 0.999 -0.075 0.999 -0.075 1.422e-3 67.124 
12.146 1.481e-3 67.866 0.999 -0.079 0.999 -0.079 1.481e-3 67.866 
12.721 1.544e-3 68.586 0.999 -0.082 0.999 -0.082 1.544e-3 68.586 
13.323 1.609e-3 69.284 0.999 -0.086 0.999 -0.086 1.609e-3 69.284 
13.953 1.678e-3 69.96 0.999 -0.09 0.999 -0.09 1.678e-3 69.96 
14.613 1.75e-3 70.615 0.999 -0.095 0.999 -0.095 1.75e-3 70.615 
15.305 1.826e-3 71.249 0.999 -0.099 0.999 -0.099 1.826e-3 71.249 
16.029 1.905e-3 71.862 0.999 -0.104 0.999 -0.104 1.905e-3 71.862 
16.788 1.989e-3 72.455 0.999 -0.109 0.999 -0.109 1.989e-3 72.455 
17.582 2.077e-3 73.029 0.999 -0.114 0.999 -0.114 2.077e-3 73.029 
18.415 2.169e-3 73.583 0.999 -0.119 0.999 -0.119 2.169e-3 73.583 
19.286 2.265e-3 74.118 0.999 -0.125 0.999 -0.125 2.265e-3 74.118 
20.199 2.366e-3 74.635 0.999 -0.131 0.999 -0.131 2.366e-3 74.635 
21.155 2.472e-3 75.134 0.999 -0.137 0.999 -0.137 2.472e-3 75.134 
22.156 2.584e-3 75.616 0.999 -0.143 0.999 -0.143 2.584e-3 75.616 
23.204 2.7e-3 76.08 0.999 -0.15 0.999 -0.15 2.7e-3 76.08 
24.303 2.823e-3 76.529 0.999 -0.157 0.999 -0.157 2.823e-3 76.529 
25.453 2.951e-3 76.961 0.999 -0.165 0.999 -0.165 2.951e-3 76.961 
26.657 3.085e-3 77.378 0.999 -0.173 0.999 -0.173 3.085e-3 77.378 
27.919 3.226e-3 77.779 0.999 -0.181 0.999 -0.181 3.226e-3 77.779 
29.24 3.374e-3 78.167 0.999 -0.189 0.999 -0.189 3.374e-3 78.167 
30.624 3.529e-3 78.539 0.999 -0.198 0.999 -0.198 3.529e-3 78.539 
32.073 3.691e-3 78.899 0.999 -0.208 0.999 -0.208 3.691e-3 78.899 
33.591 3.862e-3 79.244 0.999 -0.218 0.999 -0.218 3.862e-3 79.244 
35.181 4.04e-3 79.577 0.999 -0.228 0.999 -0.228 4.04e-3 79.577 
36.846 4.227e-3 79.898 0.999 -0.239 0.999 -0.239 4.227e-3 79.898 
38.59 4.422e-3 80.206 0.999 -0.25 0.999 -0.25 4.422e-3 80.206 
40.416 4.627e-3 80.503 0.999 -0.262 0.999 -0.262 4.627e-3 80.503 
42.329 4.842e-3 80.788 0.999 -0.274 0.999 -0.274 4.842e-3 80.788 
44.332 5.068e-3 81.063 0.999 -0.287 0.999 -0.287 5.068e-3 81.063 
46.43 5.304e-3 81.326 0.999 -0.301 0.999 -0.301 5.304e-3 81.326 
48.627 5.551e-3 81.579 0.999 -0.315 0.999 -0.315 5.551e-3 81.579 
50.929 5.81e-3 81.823 0.999 -0.33 0.999 -0.33 5.81e-3 81.823 
53.339 6.081e-3 82.056 0.999 -0.345 0.999 -0.345 6.081e-3 82.056 
55.863 6.365e-3 82.281 0.999 -0.362 0.999 -0.362 6.365e-3 82.281 
58.507 6.663e-3 82.496 0.999 -0.379 0.999 -0.379 6.663e-3 82.496 
61.276 6.975e-3 82.702 0.999 -0.397 0.999 -0.397 6.975e-3 82.702 
64.176 7.301e-3 82.899 0.999 -0.416 0.999 -0.416 7.301e-3 82.899 
67.213 7.644e-3 83.089 0.999 -0.435 0.999 -0.435 7.644e-3 83.089 
70.394 8.002e-3 83.27 0.999 -0.456 0.999 -0.456 8.002e-3 83.27 
73.726 8.378e-3 83.443 0.999 -0.477 0.999 -0.477 8.378e-3 83.443 
77.215 8.771e-3 83.608 0.999 -0.5 0.999 -0.5 8.771e-3 83.608 
80.869 9.183e-3 83.766 0.999 -0.524 0.999 -0.524 9.183e-3 83.766 
84.696 9.614e-3 83.917 0.999 -0.548 0.999 -0.548 9.614e-3 83.917 
88.705 0.01 84.06 0.999 -0.574 0.999 -0.574 0.01 84.06 
92.903 0.011 84.197 0.999 -0.601 0.999 -0.601 0.011 84.197 
97.299 0.011 84.327 0.999 -0.63 0.999 -0.63 0.011 84.327 
101.904 0.012 84.45 0.999 -0.66 0.999 -0.66 0.012 84.45 
106.727 0.012 84.566 0.999 -0.691 0.999 -0.691 0.012 84.566 
111.778 0.013 84.676 0.999 -0.724 0.999 -0.724 0.013 84.676 
117.068 0.013 84.78 0.999 -0.758 0.999 -0.758 0.013 84.78 
122.608 0.014 84.877 0.999 -0.794 0.999 -0.794 0.014 84.877 
128.411 0.015 84.969 0.999 -0.831 0.999 -0.831 0.015 84.969 
134.488 0.015 85.054 0.999 -0.87 0.999 -0.87 0.015 85.054 
140.853 0.016 85.133 0.999 -0.912 0.999 -0.912 0.016 85.133 
147.519 0.017 85.206 0.999 -0.955 0.999 -0.955 0.017 85.206 
154.5 0.017 85.274 0.999 -1 0.999 -1 0.017 85.274 
161.812 0.018 85.336 0.999 -1.047 0.999 -1.047 0.018 85.336 
169.47 0.019 85.392 0.999 -1.097 0.999 -1.097 0.019 85.392 
177.49 0.02 85.442 0.999 -1.149 0.999 -1.149 0.02 85.442 
185.89 0.021 85.486 0.999 -1.203 0.999 -1.203 0.021 85.486 
194.688 0.022 85.525 0.999 -1.26 0.999 -1.26 0.022 85.525 
203.902 0.023 85.558 0.998 -1.319 0.998 -1.319 0.023 85.558 
213.551 0.024 85.585 0.998 -1.382 0.998 -1.382 0.024 85.585 
223.658 0.025 85.606 0.998 -1.447 0.998 -1.447 0.025 85.606 
234.243 0.026 85.621 0.998 -1.516 0.998 -1.516 0.026 85.621 
245.329 0.028 85.631 0.998 -1.587 0.998 -1.587 0.028 85.631 
256.939 0.029 85.635 0.998 -1.662 0.998 -1.662 0.029 85.635 
269.099 0.03 85.632 0.998 -1.741 0.998 -1.741 0.03 85.632 
281.834 0.032 85.624 0.998 -1.823 0.998 -1.823 0.032 85.624 
295.173 0.033 85.609 0.998 -1.909 0.998 -1.909 0.033 85.609 
309.142 0.035 85.588 0.998 -2 0.998 -2 0.035 85.588 
323.772 0.037 85.561 0.998 -2.094 0.998 -2.094 0.037 85.561 
339.095 0.038 85.527 0.998 -2.193 0.998 -2.193 0.038 85.527 
355.143 0.04 85.486 0.998 -2.297 0.998 -2.297 0.04 85.486 
371.951 0.042 85.439 0.998 -2.405 0.998 -2.405 0.042 85.439 
389.554 0.044 85.384 0.997 -2.519 0.997 -2.519 0.044 85.384 
407.99 0.046 85.323 0.997 -2.638 0.997 -2.638 0.046 85.323 
427.298 0.048 85.254 0.997 -2.763 0.997 -2.763 0.048 85.254 
447.521 0.051 85.177 0.997 -2.893 0.997 -2.893 0.051 85.177 
468.7 0.053 85.093 0.997 -3.03 0.997 -3.03 0.053 85.093 
490.882 0.055 85.001 0.997 -3.173 0.997 -3.173 0.055 85.001 
514.113 0.058 84.9 0.997 -3.323 0.997 -3.323 0.058 84.9 
538.444 0.061 84.791 0.996 -3.479 0.996 -3.479 0.061 84.791 
563.927 0.064 84.673 0.996 -3.644 0.996 -3.644 0.064 84.673 
590.615 0.067 84.546 0.996 -3.816 0.996 -3.816 0.067 84.546 
618.567 0.07 84.41 0.996 -3.996 0.996 -3.996 0.07 84.41 
647.841 0.073 84.264 0.995 -4.184 0.995 -4.184 0.073 84.264 
678.501 0.076 84.108 0.995 -4.381 0.995 -4.381 0.076 84.108 
710.612 0.08 83.941 0.995 -4.588 0.995 -4.588 0.08 83.941 
744.242 0.084 83.764 0.994 -4.804 0.994 -4.804 0.084 83.764 
779.464 0.088 83.575 0.994 -5.03 0.994 -5.03 0.088 83.575 
816.353 0.092 83.375 0.994 -5.267 0.994 -5.267 0.092 83.375 
854.988 0.096 83.163 0.993 -5.515 0.993 -5.515 0.096 83.163 
895.451 0.101 82.938 0.993 -5.774 0.993 -5.774 0.101 82.938 
937.829 0.105 82.7 0.992 -6.046 0.992 -6.046 0.105 82.7 
982.213 0.11 82.448 0.992 -6.33 0.992 -6.33 0.11 82.448 
1028.697 0.115 82.183 0.991 -6.627 0.991 -6.627 0.115 82.183 
1077.382 0.121 81.902 0.99 -6.938 0.99 -6.938 0.121 81.902 
1128.37 0.126 81.607 0.989 -7.264 0.989 -7.264 0.126 81.607 
1181.771 0.132 81.295 0.989 -7.604 0.989 -7.604 0.132 81.295 
1237.7 0.139 80.967 0.988 -7.96 0.988 -7.96 0.139 80.967 
1296.275 0.145 80.623 0.987 -8.332 0.987 -8.332 0.145 80.623 
1357.623 0.152 80.26 0.986 -8.722 0.986 -8.722 0.152 80.26 
1421.874 0.159 79.878 0.985 -9.129 0.985 -9.129 0.159 79.878 
1489.166 0.166 79.478 0.983 -9.554 0.983 -9.554 0.166 79.478 
1559.642 0.174 79.058 0.982 -9.999 0.982 -9.999 0.174 79.058 
1633.454 0.182 78.616 0.98 -10.464 0.98 -10.464 0.182 78.616 
1710.759 0.19 78.154 0.979 -10.95 0.979 -10.95 0.19 78.154 
1791.722 0.199 77.669 0.977 -11.457 0.977 -11.457 0.199 77.669 
1876.517 0.208 77.161 0.975 -11.987 0.975 -11.987 0.208 77.161 
1965.326 0.217 76.629 0.973 -12.54 0.973 -12.54 0.217 76.629 
2058.337 0.227 76.072 0.971 -13.117 0.971 -13.117 0.227 76.072 
2155.75 0.237 75.49 0.968 -13.719 0.968 -13.719 0.237 75.49 
2257.773 0.248 74.881 0.965 -14.348 0.965 -14.348 0.248 74.881 
2364.625 0.259 74.244 0.963 -15.003 0.963 -15.003 0.259 74.244 
2476.533 0.27 73.579 0.959 -15.686 0.959 -15.686 0.27 73.579 
2593.738 0.282 72.886 0.956 -16.397 0.956 -16.397 0.282 72.886 
2716.489 0.295 72.162 0.952 -17.138 0.952 -17.138 0.295 72.162 
2845.05 0.308 71.407 0.948 -17.909 0.948 -17.909 0.308 71.407 
2979.695 0.321 70.621 0.943 -18.711 0.943 -18.711 0.321 70.621 
3120.712 0.335 69.802 0.939 -19.545 0.939 -19.545 0.335 69.802 
3268.403 0.349 68.951 0.933 -20.412 0.933 -20.412 0.349 68.951 
3423.084 0.363 68.065 0.928 -21.311 0.928 -21.311 0.363 68.065 
3585.085 0.379 67.146 0.922 -22.245 0.922 -22.245 0.379 67.146 
3754.753 0.394 66.191 0.915 -23.213 0.915 -23.213 0.394 66.191 
3932.451 0.41 65.202 0.908 -24.215 0.908 -24.215 0.41 65.202 
4118.558 0.427 64.176 0.9 -25.253 0.9 -25.253 0.427 64.176 
4313.473 0.443 63.115 0.892 -26.325 0.892 -26.325 0.443 63.115 
4517.613 0.461 62.018 0.883 -27.433 0.883 -27.433 0.461 62.018 
4731.414 0.478 60.885 0.874 -28.576 0.874 -28.576 0.478 60.885 
4955.333 0.496 59.717 0.864 -29.755 0.864 -29.755 0.496 59.717 
5189.85 0.515 58.513 0.853 -30.967 0.853 -30.967 0.515 58.513 
5435.465 0.533 57.275 0.841 -32.214 0.841 -32.214 0.533 57.275 
5692.704 0.552 56.002 0.829 -33.494 0.829 -33.494 0.552 56.002 
5962.118 0.571 54.696 0.816 -34.806 0.816 -34.806 0.571 54.696 
6244.281 0.59 53.358 0.802 -36.149 0.802 -36.149 0.59 53.358 
6539.799 0.609 51.99 0.788 -37.523 0.788 -37.523 0.609 51.99 
6849.302 0.628 50.591 0.773 -38.924 0.773 -38.924 0.628 50.591 
7173.452 0.648 49.165 0.757 -40.352 0.757 -40.352 0.648 49.165 
7512.944 0.667 47.713 0.74 -41.805 0.74 -41.805 0.667 47.713 
7868.502 0.686 46.237 0.722 -43.28 0.722 -43.28 0.686 46.237 
8240.887 0.704 44.739 0.704 -44.775 0.704 -44.775 0.704 44.739 
8630.896 0.723 43.22 0.685 -46.289 0.685 -46.289 0.723 43.22 
9039.363 0.741 41.684 0.665 -47.817 0.665 -47.817 0.741 41.684 
9467.16 0.759 40.133 0.645 -49.359 0.645 -49.359 0.759 40.133 
9915.204 0.776 38.568 0.623 -50.91 0.623 -50.91 0.776 38.568 
10384.452 0.793 36.993 0.602 -52.468 0.602 -52.468 0.793 36.993 
10875.907 0.809 35.409 0.579 -54.03 0.579 -54.03 0.809 35.409 
11390.621 0.825 33.819 0.557 -55.593 0.557 -55.593 0.825 33.819 
11929.695 0.84 32.225 0.533 -57.155 0.533 -57.155 0.84 32.225 
12494.28 0.855 30.63 0.51 -58.711 0.51 -58.711 0.855 30.63 
13085.585 0.868 29.034 0.485 -60.258 0.485 -60.258 0.868 29.034 
13704.875 0.881 27.44 0.461 -61.793 0.461 -61.793 0.881 27.44 
14353.473 0.894 25.849 0.436 -63.313 0.436 -63.313 0.894 25.849 
15032.767 0.905 24.264 0.411 -64.812 0.411 -64.812 0.905 24.264 
15744.208 0.916 22.684 0.386 -66.286 0.386 -66.286 0.916 22.684 
16489.32 0.926 21.112 0.36 -67.73 0.36 -67.73 0.926 21.112 
17269.695 0.935 19.548 0.335 -69.137 0.335 -69.137 0.935 19.548 
18087.002 0.943 17.992 0.309 -70.497 0.309 -70.497 0.943 17.992 
18942.989 0.95 16.446 0.283 -71.8 0.283 -71.8 0.95 16.446 
19839.486 0.957 14.909 0.257 -73.029 0.257 -73.029 0.957 14.909 
20778.411 0.963 13.382 0.232 -74.163 0.232 -74.163 0.963 13.382 
21761.772 0.968 11.865 0.206 -75.166 0.206 -75.166 0.968 11.865 
22791.671 0.972 10.357 0.18 -75.986 0.18 -75.986 0.972 10.357 
23870.312 0.976 8.858 0.154 -76.536 0.154 -76.536 0.976 8.858 
25000 0.978 7.369 0.129 -76.659 0.129 -76.659 0.978 7.369 
